(1530386564.360124) can1 210#49FFF8000000005A
(1530386564.360360) can1 211#49FFF8000000005B
(1530386564.361114) can1 212#49FFF8000000005C
(1530386564.361311) can1 213#49FFF8000000005D
(1530386564.362051) can1 214#49FFF8000000005E
(1530386564.362344) can1 215#49FFF8000000005F
(1530386564.363057) can1 216#49FFF80000000060
(1530386564.363349) can1 217#49FFF80000000061
(1530386564.364087) can1 218#49FFF80000000062
(1530386564.364349) can1 219#49FFF80000000063
(1530386564.365087) can1 21A#49FFF80000000064
(1530386564.365343) can1 21B#49FFF80000000065
(1530386564.366208) can1 21C#49FFF80000000066
(1530386564.366351) can1 21D#49FFF80000000067
(1530386564.367103) can1 21E#49FFF80000000068
(1530386564.367345) can1 21F#49FFF80000000069
(1530386564.368092) can1 220#4900000000000073
(1530386564.368351) can1 221#4900000000000074
(1530386564.369086) can1 222#4900000000000075
(1530386564.369314) can1 223#4900000000000076
(1530386564.370087) can1 224#4900000000000077
(1530386564.370390) can1 225#4900000000000078
(1530386564.371138) can1 226#4900000000000079
(1530386564.371365) can1 227#490000000000007A
(1530386564.372013) can1 228#490000000079
(1530386564.372269) can1 229#49000000007A
(1530386564.373074) can1 22A#49000000007B
(1530386564.373292) can1 22B#49000000007C
(1530386564.374128) can1 22C#49000000007D
(1530386564.374295) can1 22D#49000000007E
(1530386564.375132) can1 22E#49000000007F
(1530386564.375351) can1 22F#490000000080
(1530386564.376109) can1 230#497FFF0D4D005A
(1530386564.376337) can1 231#490000FF00000285
(1530386564.377082) can1 232#4900FE00FE00FE7F
(1530386564.410205) can1 210#4AFFF8000000005B
(1530386564.410375) can1 211#4AFFF8000000005C
(1530386564.411243) can1 212#4AFFF8000000005D
(1530386564.411303) can1 213#4AFFF8000000005E
(1530386564.412102) can1 214#4AFFF8000000005F
(1530386564.412329) can1 215#4AFFF80000000060
(1530386564.413079) can1 216#4AFFF80000000061
(1530386564.413319) can1 217#4AFFF80000000062
(1530386564.414062) can1 218#4AFFF80000000063
(1530386564.414319) can1 219#4AFFF80000000064
(1530386564.415061) can1 21A#4AFFF80000000065
(1530386564.415319) can1 21B#4AFFF80000000066
(1530386564.416062) can1 21C#4AFFF80000000067
(1530386564.416319) can1 21D#4AFFF80000000068
(1530386564.417062) can1 21E#4AFFF80000000069
(1530386564.417320) can1 21F#4AFFF8000000006A
(1530386564.418181) can1 220#4A00000000000074
(1530386564.418328) can1 221#4A00000000000075
(1530386564.419078) can1 222#4A00000000000076
(1530386564.419320) can1 223#4A00000000000077
(1530386564.420181) can1 224#4A00000000000078
(1530386564.420328) can1 225#4A00000000000079
(1530386564.421151) can1 226#4A0000000000007A
(1530386564.421393) can1 227#4A0000000000007B
(1530386564.422132) can1 228#4A000000007A
(1530386564.422272) can1 229#4A000000007B
(1530386564.423106) can1 22A#4A000000007C
(1530386564.423331) can1 22B#4A000000007D
(1530386564.424148) can1 22C#4A000000007E
(1530386564.424335) can1 22D#4A000000007F
(1530386564.425150) can1 22E#4A0000000080
(1530386564.425343) can1 22F#4A0000000081
(1530386564.426109) can1 123#0108050D400086
(1530386564.426343) can1 230#4A7FFF0D4E005C
(1530386564.427132) can1 231#4A0000FF00000286
(1530386564.427370) can1 232#4A00FE00FE00FE80
(1530386564.428117) can1 3D0#A580808080808080
(1530386564.428321) can1 3D1#A580808080808081
(1530386564.429063) can1 3D2#A580808080808082
(1530386564.429317) can1 3D3#A580808080808083
(1530386564.460154) can1 210#4BFFF8000000005C
(1530386564.460481) can1 211#4BFFF8000000005D
(1530386564.461256) can1 212#4BFFF8000000005E
(1530386564.461353) can1 213#4BFFF8000000005F
(1530386564.462116) can1 214#4BFFF80000000060
(1530386564.462339) can1 215#4BFFF80000000061
(1530386564.463092) can1 216#4BFFF80000000062
(1530386564.463350) can1 217#4BFFF80000000063
(1530386564.464118) can1 218#4BFFF80000000064
(1530386564.464328) can1 219#4BFFF80000000065
(1530386564.465111) can1 21A#4BFFF80000000066
(1530386564.465347) can1 21B#4BFFF80000000067
(1530386564.466105) can1 21C#4BFFF80000000068
(1530386564.466348) can1 21D#4BFFF80000000069
(1530386564.467106) can1 21E#4BFFF8000000006A
(1530386564.467352) can1 21F#4BFFF8000000006B
(1530386564.468104) can1 220#4B00000000000075
(1530386564.468336) can1 221#4B00000000000076
(1530386564.469097) can1 222#4B00000000000077
(1530386564.469349) can1 223#4B00000000000078
(1530386564.470084) can1 224#4B00000000000079
(1530386564.470384) can1 225#4B0000000000007A
(1530386564.471189) can1 226#4B0000000000007B
(1530386564.471440) can1 227#4B0000000000007C
(1530386564.472086) can1 228#4B000000007B
(1530386564.472336) can1 229#4B000000007C
(1530386564.473130) can1 22A#4B000000007D
(1530386564.473292) can1 22B#4B000000007E
(1530386564.474162) can1 22C#4B000000007F
(1530386564.474375) can1 22D#4B0000000080
(1530386564.475183) can1 22E#4B0000000081
(1530386564.475332) can1 22F#4B0000000082
(1530386564.476145) can1 230#4B7FFF0D4F005E
(1530386564.476428) can1 231#4B0000FF00000287
(1530386564.477166) can1 232#4B00FE00FE00FE81
(1530386564.510112) can1 210#4CFFF8000000005D
(1530386564.510507) can1 211#4CFFF8000000005E
(1530386564.511254) can1 212#4CFFF8000000005F
(1530386564.511406) can1 213#4CFFF80000000060
(1530386564.512113) can1 214#4CFFF80000000061
(1530386564.512330) can1 215#4CFFF80000000062
(1530386564.513131) can1 216#4CFFF80000000063
(1530386564.513356) can1 217#4CFFF80000000064
(1530386564.514167) can1 218#4CFFF80000000065
(1530386564.514321) can1 219#4CFFF80000000066
(1530386564.515167) can1 21A#4CFFF80000000067
(1530386564.515386) can1 21B#4CFFF80000000068
(1530386564.516166) can1 21C#4CFFF80000000069
(1530386564.516406) can1 21D#4CFFF8000000006A
(1530386564.517167) can1 21E#4CFFF8000000006B
(1530386564.517385) can1 21F#4CFFF8000000006C
(1530386564.518173) can1 220#4C00000000000076
(1530386564.518396) can1 221#4C00000000000077
(1530386564.519159) can1 222#4C00000000000078
(1530386564.519400) can1 223#4C00000000000079
(1530386564.520156) can1 224#4C0000000000007A
(1530386564.520389) can1 225#4C0000000000007B
(1530386564.521166) can1 226#4C0000000000007C
(1530386564.521408) can1 227#4C0000000000007D
(1530386564.522128) can1 228#4C000000007C
(1530386564.522311) can1 229#4C000000007D
(1530386564.523088) can1 22A#4C000000007E
(1530386564.523364) can1 22B#4C000000007F
(1530386564.524155) can1 22C#4C0000000080
(1530386564.524334) can1 22D#4C0000000081
(1530386564.525095) can1 22E#4C0000000082
(1530386564.525357) can1 22F#4C0000000083
(1530386564.526153) can1 123#0108050D400086
(1530386564.526370) can1 230#4C7FFF0D500060
(1530386564.527154) can1 231#4C0000FF00000288
(1530386564.527419) can1 232#4C00FE00FE00FE82
(1530386564.528096) can1 3D0#A680808080808081
(1530386564.528390) can1 3D1#A680808080808082
(1530386564.529149) can1 3D2#A680808080808083
(1530386564.529380) can1 3D3#A680808080808084
(1530386564.560174) can1 210#4DFFF8000000005E
(1530386564.560409) can1 211#4DFFF8000000005F
(1530386564.561168) can1 212#4DFFF80000000060
(1530386564.561409) can1 213#4DFFF80000000061
(1530386564.562149) can1 214#4DFFF80000000062
(1530386564.562426) can1 215#4DFFF80000000063
(1530386564.563173) can1 216#4DFFF80000000064
(1530386564.563387) can1 217#4DFFF80000000065
(1530386564.564159) can1 218#4DFFF80000000066
(1530386564.564385) can1 219#4DFFF80000000067
(1530386564.565138) can1 21A#4DFFF80000000068
(1530386564.565349) can1 21B#4DFFF80000000069
(1530386564.566147) can1 21C#4DFFF8000000006A
(1530386564.566415) can1 21D#4DFFF8000000006B
(1530386564.567159) can1 21E#4DFFF8000000006C
(1530386564.567398) can1 21F#4DFFF8000000006D
(1530386564.568157) can1 220#4D00000000000077
(1530386564.568342) can1 221#4D00000000000078
(1530386564.569156) can1 222#4D00000000000079
(1530386564.569393) can1 223#4D0000000000007A
(1530386564.570176) can1 224#4D0000000000007B
(1530386564.570402) can1 225#4D0000000000007C
(1530386564.571184) can1 226#4D0000000000007D
(1530386564.571379) can1 227#4D0000000000007E
(1530386564.572059) can1 228#4D000000007D
(1530386564.572337) can1 229#4D000000007E
(1530386564.573032) can1 22A#4D000000007F
(1530386564.573318) can1 22B#4D0000000080
(1530386564.574188) can1 22C#4D0000000081
(1530386564.574349) can1 22D#4D0000000082
(1530386564.575106) can1 22E#4D0000000083
(1530386564.575336) can1 22F#4D0000000084
(1530386564.576165) can1 230#4D7FFF0D510062
(1530386564.576440) can1 231#4D0000FF00000289
(1530386564.577171) can1 232#4D00FE00FE00FE83
(1530386564.610221) can1 210#4EFFF8000000005F
(1530386564.610444) can1 211#4EFFF80000000060
(1530386564.611124) can1 212#4EFFF80000000061
(1530386564.611380) can1 213#4EFFF80000000062
(1530386564.612090) can1 214#4EFFF80000000063
(1530386564.612380) can1 215#4EFFF80000000064
(1530386564.613122) can1 216#4EFFF80000000065
(1530386564.613362) can1 217#4EFFF80000000066
(1530386564.614119) can1 218#4EFFF80000000067
(1530386564.614389) can1 219#4EFFF80000000068
(1530386564.615169) can1 21A#4EFFF80000000069
(1530386564.615385) can1 21B#4EFFF8000000006A
(1530386564.616158) can1 21C#4EFFF8000000006B
(1530386564.616386) can1 21D#4EFFF8000000006C
(1530386564.617225) can1 21E#4EFFF8000000006D
(1530386564.617452) can1 21F#4EFFF8000000006E
(1530386564.618229) can1 220#4E00000000000078
(1530386564.618462) can1 221#4E00000000000079
(1530386564.619178) can1 222#4E0000000000007A
(1530386564.619464) can1 223#4E0000000000007B
(1530386564.620184) can1 224#4E0000000000007C
(1530386564.620468) can1 225#4E0000000000007D
(1530386564.621185) can1 226#4E0000000000007E
(1530386564.621432) can1 227#4E0000000000007F
(1530386564.622188) can1 228#4E000000007E
(1530386564.622346) can1 229#4E000000007F
(1530386564.623157) can1 22A#4E0000000080
(1530386564.623300) can1 22B#4E0000000081
(1530386564.624168) can1 22C#4E0000000082
(1530386564.624394) can1 22D#4E0000000083
(1530386564.625171) can1 22E#4E0000000084
(1530386564.625388) can1 22F#4E0000000085
(1530386564.626167) can1 123#0108050D400086
(1530386564.626399) can1 230#4E7FFF0D520064
(1530386564.627230) can1 231#4E0000FF0000028A
(1530386564.627440) can1 232#4E00FE00FE00FE84
(1530386564.628206) can1 3D0#A780808080808082
(1530386564.628386) can1 3D1#A780808080808083
(1530386564.629144) can1 3D2#A780808080808084
(1530386564.629392) can1 3D3#A780808080808085
(1530386564.660298) can1 210#4FFFF80000000060
(1530386564.660346) can1 211#4FFFF80000000061
(1530386564.661185) can1 212#4FFFF80000000062
(1530386564.661351) can1 213#4FFFF80000000063
(1530386564.662136) can1 214#4FFFF80000000064
(1530386564.662376) can1 215#4FFFF80000000065
(1530386564.663136) can1 216#4FFFF80000000066
(1530386564.663377) can1 217#4FFFF80000000067
(1530386564.664137) can1 218#4FFFF80000000068
(1530386564.664370) can1 219#4FFFF80000000069
(1530386564.665128) can1 21A#4FFFF8000000006A
(1530386564.665381) can1 21B#4FFFF8000000006B
(1530386564.666120) can1 21C#4FFFF8000000006C
(1530386564.666377) can1 21D#4FFFF8000000006D
(1530386564.667197) can1 21E#4FFFF8000000006E
(1530386564.667358) can1 21F#4FFFF8000000006F
(1530386564.668121) can1 220#4F00000000000079
(1530386564.668379) can1 221#4F0000000000007A
(1530386564.669127) can1 222#4F0000000000007B
(1530386564.669360) can1 223#4F0000000000007C
(1530386564.670148) can1 224#4F0000000000007D
(1530386564.670356) can1 225#4F0000000000007E
(1530386564.671122) can1 226#4F0000000000007F
(1530386564.671380) can1 227#4F00000000000080
(1530386564.672094) can1 228#4F000000007F
(1530386564.672260) can1 229#4F0000000080
(1530386564.673052) can1 22A#4F0000000081
(1530386564.673306) can1 22B#4F0000000082
(1530386564.674108) can1 22C#4F0000000083
(1530386564.674310) can1 22D#4F0000000084
(1530386564.675112) can1 22E#4F0000000085
(1530386564.675313) can1 22F#4F0000000086
(1530386564.676119) can1 230#4F7FFF0D530066
(1530386564.676329) can1 231#4F0000FF0000028B
(1530386564.677197) can1 232#4F00FE00FE00FE85
(1530386564.710208) can1 210#50FFF80000000061
(1530386564.710553) can1 211#50FFF80000000062
(1530386564.711194) can1 212#50FFF80000000063
(1530386564.711389) can1 213#50FFF80000000064
(1530386564.712129) can1 214#50FFF80000000065
(1530386564.712371) can1 215#50FFF80000000066
(1530386564.713130) can1 216#50FFF80000000067
(1530386564.713369) can1 217#50FFF80000000068
(1530386564.714140) can1 218#50FFF80000000069
(1530386564.714356) can1 219#50FFF8000000006A
(1530386564.715106) can1 21A#50FFF8000000006B
(1530386564.715371) can1 21B#50FFF8000000006C
(1530386564.716131) can1 21C#50FFF8000000006D
(1530386564.716370) can1 21D#50FFF8000000006E
(1530386564.717130) can1 21E#50FFF8000000006F
(1530386564.717370) can1 21F#50FFF80000000070
(1530386564.718235) can1 220#500000000000007A
(1530386564.718464) can1 221#500000000000007B
(1530386564.719300) can1 222#500000000000007C
(1530386564.719419) can1 223#500000000000007D
(1530386564.720229) can1 224#500000000000007E
(1530386564.720462) can1 225#500000000000007F
(1530386564.721300) can1 226#5000000000000080
(1530386564.721415) can1 227#5000000000000081
(1530386564.722172) can1 228#500000000080
(1530386564.722405) can1 229#500000000081
(1530386564.723180) can1 22A#500000000082
(1530386564.723406) can1 22B#500000000083
(1530386564.724186) can1 22C#500000000084
(1530386564.724423) can1 22D#500000000085
(1530386564.725112) can1 22E#500000000086
(1530386564.725391) can1 22F#500000000087
(1530386564.726213) can1 123#0108050D400086
(1530386564.726441) can1 230#507FFF0D540068
(1530386564.727189) can1 231#500000FF0000028C
(1530386564.727472) can1 232#5000FE00FE00FE86
(1530386564.728178) can1 3D0#A880808080808083
(1530386564.728355) can1 3D1#A880808080808084
(1530386564.729123) can1 3D2#A880808080808085
(1530386564.729376) can1 3D3#A880808080808086
(1530386564.760321) can1 210#51FFF80000000062
(1530386564.760346) can1 211#51FFF80000000063
(1530386564.761163) can1 212#51FFF80000000064
(1530386564.761378) can1 213#51FFF80000000065
(1530386564.762123) can1 214#51FFF80000000066
(1530386564.762376) can1 215#51FFF80000000067
(1530386564.763135) can1 216#51FFF80000000068
(1530386564.763388) can1 217#51FFF80000000069
(1530386564.764141) can1 218#51FFF8000000006A
(1530386564.764376) can1 219#51FFF8000000006B
(1530386564.765130) can1 21A#51FFF8000000006C
(1530386564.765388) can1 21B#51FFF8000000006D
(1530386564.766131) can1 21C#51FFF8000000006E
(1530386564.766377) can1 21D#51FFF8000000006F
(1530386564.767130) can1 21E#51FFF80000000070
(1530386564.767388) can1 21F#51FFF80000000071
(1530386564.768134) can1 220#510000000000007B
(1530386564.768377) can1 221#510000000000007C
(1530386564.769126) can1 222#510000000000007D
(1530386564.769388) can1 223#510000000000007E
(1530386564.770139) can1 224#510000000000007F
(1530386564.770364) can1 225#5100000000000080
(1530386564.771116) can1 226#5100000000000081
(1530386564.771372) can1 227#5100000000000082
(1530386564.772062) can1 228#510000000081
(1530386564.772311) can1 229#510000000082
(1530386564.773062) can1 22A#510000000083
(1530386564.773311) can1 22B#510000000084
(1530386564.774116) can1 22C#510000000085
(1530386564.774322) can1 22D#510000000086
(1530386564.775182) can1 22E#510000000087
(1530386564.775344) can1 22F#510000000088
(1530386564.776191) can1 230#517FFF0D55006A
(1530386564.776362) can1 231#510000FF0000028D
(1530386564.777196) can1 232#5100FE00FE00FE87
(1530386564.810313) can1 210#52FFF80000000063
(1530386564.810369) can1 211#52FFF80000000064
(1530386564.811229) can1 212#52FFF80000000065
(1530386564.811446) can1 213#52FFF80000000066
(1530386564.812160) can1 214#52FFF80000000067
(1530386564.812386) can1 215#52FFF80000000068
(1530386564.813133) can1 216#52FFF80000000069
(1530386564.813368) can1 217#52FFF8000000006A
(1530386564.814127) can1 218#52FFF8000000006B
(1530386564.814384) can1 219#52FFF8000000006C
(1530386564.815151) can1 21A#52FFF8000000006D
(1530386564.815365) can1 21B#52FFF8000000006E
(1530386564.816126) can1 21C#52FFF8000000006F
(1530386564.816384) can1 21D#52FFF80000000070
(1530386564.817136) can1 21E#52FFF80000000071
(1530386564.817373) can1 21F#52FFF80000000072
(1530386564.818133) can1 220#520000000000007C
(1530386564.818367) can1 221#520000000000007D
(1530386564.819240) can1 222#520000000000007E
(1530386564.819488) can1 223#520000000000007F
(1530386564.820231) can1 224#5200000000000080
(1530386564.820453) can1 225#5200000000000081
(1530386564.821253) can1 226#5200000000000082
(1530386564.821415) can1 227#5200000000000083
(1530386564.822195) can1 228#520000000082
(1530386564.822413) can1 229#520000000083
(1530386564.823188) can1 22A#520000000084
(1530386564.823414) can1 22B#520000000085
(1530386564.824189) can1 22C#520000000086
(1530386564.824353) can1 22D#520000000087
(1530386564.825178) can1 22E#520000000088
(1530386564.825409) can1 22F#520000000089
(1530386564.826101) can1 123#0108050D400086
(1530386564.826367) can1 230#527FFF0D56006C
(1530386564.827238) can1 231#520000FF0000028E
(1530386564.827470) can1 232#5200FE00FE00FE88
(1530386564.828200) can1 3D0#A980808080808084
(1530386564.828492) can1 3D1#A980808080808085
(1530386564.829135) can1 3D2#A980808080808086
(1530386564.829370) can1 3D3#A980808080808087
(1530386564.860318) can1 210#53FFF80000000064
(1530386564.860477) can1 211#53FFF80000000065
(1530386564.861341) can1 212#53FFF80000000066
(1530386564.861363) can1 213#53FFF80000000067
(1530386564.862132) can1 214#53FFF80000000068
(1530386564.862445) can1 215#53FFF80000000069
(1530386564.863291) can1 216#53FFF8000000006A
(1530386564.863391) can1 217#53FFF8000000006B
(1530386564.864277) can1 218#53FFF8000000006C
(1530386564.864421) can1 219#53FFF8000000006D
(1530386564.865170) can1 21A#53FFF8000000006E
(1530386564.865407) can1 21B#53FFF8000000006F
(1530386564.866198) can1 21C#53FFF80000000070
(1530386564.866433) can1 21D#53FFF80000000071
(1530386564.867202) can1 21E#53FFF80000000072
(1530386564.867431) can1 21F#53FFF80000000073
(1530386564.868209) can1 220#530000000000007D
(1530386564.868427) can1 221#530000000000007E
(1530386564.869192) can1 222#530000000000007F
(1530386564.869444) can1 223#5300000000000080
(1530386564.870209) can1 224#5300000000000081
(1530386564.870437) can1 225#5300000000000082
(1530386564.871198) can1 226#5300000000000083
(1530386564.871471) can1 227#5300000000000084
(1530386564.872126) can1 228#530000000083
(1530386564.872351) can1 229#530000000084
(1530386564.873195) can1 22A#530000000085
(1530386564.873342) can1 22B#530000000086
(1530386564.874179) can1 22C#530000000087
(1530386564.874393) can1 22D#530000000088
(1530386564.875185) can1 22E#530000000089
(1530386564.875376) can1 22F#53000000008A
(1530386564.876193) can1 230#537FFF0D57006E
(1530386564.876468) can1 231#530000FF0000028F
(1530386564.877132) can1 232#5300FE00FE00FE89
(1530386564.910332) can1 210#54FFF80000000065
(1530386564.910388) can1 211#54FFF80000000066
(1530386564.911338) can1 212#54FFF80000000067
(1530386564.911361) can1 213#54FFF80000000068
(1530386564.912166) can1 214#54FFF80000000069
(1530386564.912389) can1 215#54FFF8000000006A
(1530386564.913188) can1 216#54FFF8000000006B
(1530386564.913378) can1 217#54FFF8000000006C
(1530386564.914195) can1 218#54FFF8000000006D
(1530386564.914441) can1 219#54FFF8000000006E
(1530386564.915207) can1 21A#54FFF8000000006F
(1530386564.915410) can1 21B#54FFF80000000070
(1530386564.916191) can1 21C#54FFF80000000071
(1530386564.916419) can1 21D#54FFF80000000072
(1530386564.917208) can1 21E#54FFF80000000073
(1530386564.917447) can1 21F#54FFF80000000074
(1530386564.918214) can1 220#540000000000007E
(1530386564.918448) can1 221#540000000000007F
(1530386564.919279) can1 222#5400000000000080
(1530386564.919412) can1 223#5400000000000081
(1530386564.920190) can1 224#5400000000000082
(1530386564.920438) can1 225#5400000000000083
(1530386564.921154) can1 226#5400000000000084
(1530386564.921439) can1 227#5400000000000085
(1530386564.922123) can1 228#540000000084
(1530386564.922349) can1 229#540000000085
(1530386564.923183) can1 22A#540000000086
(1530386564.923400) can1 22B#540000000087
(1530386564.924197) can1 22C#540000000088
(1530386564.924374) can1 22D#540000000089
(1530386564.925226) can1 22E#54000000008A
(1530386564.925384) can1 22F#54000000008B
(1530386564.926173) can1 123#0108050D400086
(1530386564.926395) can1 230#547FFF0D580070
(1530386564.927244) can1 231#540000FF00000290
(1530386564.927466) can1 232#5400FE00FE00FE8A
(1530386564.928183) can1 3D0#AA80808080808085
(1530386564.928415) can1 3D1#AA80808080808086
(1530386564.929194) can1 3D2#AA80808080808087
(1530386564.929413) can1 3D3#AA80808080808088
(1530386564.960337) can1 210#55FFF80000000066
(1530386564.960381) can1 211#55FFF80000000067
(1530386564.961220) can1 212#55FFF80000000068
(1530386564.961408) can1 213#55FFF80000000069
(1530386564.962222) can1 214#55FFF8000000006A
(1530386564.962402) can1 215#55FFF8000000006B
(1530386564.963215) can1 216#55FFF8000000006C
(1530386564.963433) can1 217#55FFF8000000006D
(1530386564.964215) can1 218#55FFF8000000006E
(1530386564.964422) can1 219#55FFF8000000006F
(1530386564.965198) can1 21A#55FFF80000000070
(1530386564.965453) can1 21B#55FFF80000000071
(1530386564.966202) can1 21C#55FFF80000000072
(1530386564.966431) can1 21D#55FFF80000000073
(1530386564.967212) can1 21E#55FFF80000000074
(1530386564.967453) can1 21F#55FFF80000000075
(1530386564.968220) can1 220#550000000000007F
(1530386564.968424) can1 221#5500000000000080
(1530386564.969204) can1 222#5500000000000081
(1530386564.969446) can1 223#5500000000000082
(1530386564.970211) can1 224#5500000000000083
(1530386564.970470) can1 225#5500000000000084
(1530386564.971283) can1 226#5500000000000085
(1530386564.971446) can1 227#5500000000000086
(1530386564.972183) can1 228#550000000085
(1530386564.972289) can1 229#550000000086
(1530386564.973212) can1 22A#550000000087
(1530386564.973352) can1 22B#550000000088
(1530386564.974179) can1 22C#550000000089
(1530386564.974378) can1 22D#55000000008A
(1530386564.975215) can1 22E#55000000008B
(1530386564.975367) can1 22F#55000000008C
(1530386564.976206) can1 230#557FFF0D590072
(1530386564.976447) can1 231#550000FF00000291
(1530386564.977128) can1 232#5500FE00FE00FE8B
(1530386565.010353) can1 210#56FFF80000000067
(1530386565.010403) can1 211#56FFF80000000068
(1530386565.011352) can1 212#56FFF80000000069
(1530386565.011376) can1 213#56FFF8000000006A
(1530386565.012161) can1 214#56FFF8000000006B
(1530386565.012415) can1 215#56FFF8000000006C
(1530386565.013174) can1 216#56FFF8000000006D
(1530386565.013381) can1 217#56FFF8000000006E
(1530386565.014148) can1 218#56FFF8000000006F
(1530386565.014405) can1 219#56FFF80000000070
(1530386565.015171) can1 21A#56FFF80000000071
(1530386565.015383) can1 21B#56FFF80000000072
(1530386565.016150) can1 21C#56FFF80000000073
(1530386565.016404) can1 21D#56FFF80000000074
(1530386565.017120) can1 21E#56FFF80000000075
(1530386565.017400) can1 21F#56FFF80000000076
(1530386565.018171) can1 220#5600000000000080
(1530386565.018385) can1 221#5600000000000081
(1530386565.019145) can1 222#5600000000000082
(1530386565.019403) can1 223#5600000000000083
(1530386565.020173) can1 224#5600000000000084
(1530386565.020380) can1 225#5600000000000085
(1530386565.021148) can1 226#5600000000000086
(1530386565.021405) can1 227#5600000000000087
(1530386565.022132) can1 228#560000000086
(1530386565.022334) can1 229#560000000087
(1530386565.023102) can1 22A#560000000088
(1530386565.023324) can1 22B#560000000089
(1530386565.024146) can1 22C#56000000008A
(1530386565.024404) can1 22D#56000000008B
(1530386565.025288) can1 22E#56000000008C
(1530386565.025336) can1 22F#56000000008D
(1530386565.026294) can1 123#0108050D400086
(1530386565.026358) can1 230#567FFF0D5A0074
(1530386565.027344) can1 231#560000FF00000292
(1530386565.027373) can1 232#5600FE00FE00FE8C
(1530386565.028226) can1 3D0#AB80808080808086
(1530386565.028439) can1 3D1#AB80808080808087
(1530386565.029220) can1 3D2#AB80808080808088
(1530386565.029436) can1 3D3#AB80808080808089
(1530386565.060381) can1 210#57FFF80000000068
(1530386565.060387) can1 211#57FFF80000000069
(1530386565.061437) can1 212#57FFF8000000006A
(1530386565.061443) can1 213#57FFF8000000006B
(1530386565.062190) can1 214#57FFF8000000006C
(1530386565.062402) can1 215#57FFF8000000006D
(1530386565.063170) can1 216#57FFF8000000006E
(1530386565.063406) can1 217#57FFF8000000006F
(1530386565.064168) can1 218#57FFF80000000070
(1530386565.064401) can1 219#57FFF80000000071
(1530386565.065159) can1 21A#57FFF80000000072
(1530386565.065418) can1 21B#57FFF80000000073
(1530386565.066165) can1 21C#57FFF80000000074
(1530386565.066407) can1 21D#57FFF80000000075
(1530386565.067161) can1 21E#57FFF80000000076
(1530386565.067419) can1 21F#57FFF80000000077
(1530386565.068172) can1 220#5700000000000081
(1530386565.068402) can1 221#5700000000000082
(1530386565.069161) can1 222#5700000000000083
(1530386565.069419) can1 223#5700000000000084
(1530386565.070166) can1 224#5700000000000085
(1530386565.070403) can1 225#5700000000000086
(1530386565.071170) can1 226#5700000000000087
(1530386565.071399) can1 227#5700000000000088
(1530386565.072087) can1 228#570000000087
(1530386565.072346) can1 229#570000000088
(1530386565.073091) can1 22A#570000000089
(1530386565.073344) can1 22B#57000000008A
(1530386565.074214) can1 22C#57000000008B
(1530386565.074383) can1 22D#57000000008C
(1530386565.075243) can1 22E#57000000008D
(1530386565.075405) can1 22F#57000000008E
(1530386565.076213) can1 230#577FFF0D5B0076
(1530386565.076492) can1 231#570000FF00000293
(1530386565.077239) can1 232#5700FE00FE00FE8D
(1530386565.110182) can1 210#58FFF80000000069
(1530386565.110412) can1 211#58FFF8000000006A
(1530386565.111152) can1 212#58FFF8000000006B
(1530386565.111451) can1 213#58FFF8000000006C
(1530386565.112231) can1 214#58FFF8000000006D
(1530386565.112372) can1 215#58FFF8000000006E
(1530386565.113159) can1 216#58FFF8000000006F
(1530386565.113413) can1 217#58FFF80000000070
(1530386565.114215) can1 218#58FFF80000000071
(1530386565.114403) can1 219#58FFF80000000072
(1530386565.115174) can1 21A#58FFF80000000073
(1530386565.115387) can1 21B#58FFF80000000074
(1530386565.116154) can1 21C#58FFF80000000075
(1530386565.116447) can1 21D#58FFF80000000076
(1530386565.117215) can1 21E#58FFF80000000077
(1530386565.117434) can1 21F#58FFF80000000078
(1530386565.118193) can1 220#5800000000000082
(1530386565.118390) can1 221#5800000000000083
(1530386565.119181) can1 222#5800000000000084
(1530386565.119419) can1 223#5800000000000085
(1530386565.120127) can1 224#5800000000000086
(1530386565.120440) can1 225#5800000000000087
(1530386565.121180) can1 226#5800000000000088
(1530386565.121391) can1 227#5800000000000089
(1530386565.122164) can1 228#580000000088
(1530386565.122313) can1 229#580000000089
(1530386565.123134) can1 22A#58000000008A
(1530386565.123387) can1 22B#58000000008B
(1530386565.124190) can1 22C#58000000008C
(1530386565.124393) can1 22D#58000000008D
(1530386565.125167) can1 22E#58000000008E
(1530386565.125358) can1 22F#58000000008F
(1530386565.126129) can1 123#0108050D400086
(1530386565.126359) can1 230#587FFF0D5C0078
(1530386565.127217) can1 231#580000FF00000294
(1530386565.127406) can1 232#5800FE00FE00FE8E
(1530386565.128179) can1 3D0#AC80808080808087
(1530386565.128394) can1 3D1#AC80808080808088
(1530386565.129206) can1 3D2#AC80808080808089
(1530386565.129410) can1 3D3#AC8080808080808A
(1530386565.160270) can1 210#59FFF8000000006A
(1530386565.160530) can1 211#59FFF8000000006B
(1530386565.161266) can1 212#59FFF8000000006C
(1530386565.161415) can1 213#59FFF8000000006D
(1530386565.162180) can1 214#59FFF8000000006E
(1530386565.162392) can1 215#59FFF8000000006F
(1530386565.163158) can1 216#59FFF80000000070
(1530386565.163415) can1 217#59FFF80000000071
(1530386565.164183) can1 218#59FFF80000000072
(1530386565.164396) can1 219#59FFF80000000073
(1530386565.165162) can1 21A#59FFF80000000074
(1530386565.165417) can1 21B#59FFF80000000075
(1530386565.166146) can1 21C#59FFF80000000076
(1530386565.166398) can1 21D#59FFF80000000077
(1530386565.167209) can1 21E#59FFF80000000078
(1530386565.167510) can1 21F#59FFF80000000079
(1530386565.168304) can1 220#5900000000000083
(1530386565.168537) can1 221#5900000000000084
(1530386565.169287) can1 222#5900000000000085
(1530386565.169541) can1 223#5900000000000086
(1530386565.170168) can1 224#5900000000000087
(1530386565.170526) can1 225#5900000000000088
(1530386565.171355) can1 226#5900000000000089
(1530386565.171459) can1 227#590000000000008A
(1530386565.172218) can1 228#590000000089
(1530386565.172477) can1 229#59000000008A
(1530386565.173177) can1 22A#59000000008B
(1530386565.173454) can1 22B#59000000008C
(1530386565.174216) can1 22C#59000000008D
(1530386565.174351) can1 22D#59000000008E
(1530386565.175250) can1 22E#59000000008F
(1530386565.175476) can1 22F#590000000090
(1530386565.176268) can1 230#597FFF0D5D007A
(1530386565.176466) can1 231#590000FF00000295
(1530386565.177305) can1 232#5900FE00FE00FE8F
(1530386565.210255) can1 210#5AFFF8000000006B
(1530386565.210519) can1 211#5AFFF8000000006C
(1530386565.211294) can1 212#5AFFF8000000006D
(1530386565.211506) can1 213#5AFFF8000000006E
(1530386565.212305) can1 214#5AFFF8000000006F
(1530386565.212435) can1 215#5AFFF80000000070
(1530386565.213246) can1 216#5AFFF80000000071
(1530386565.213400) can1 217#5AFFF80000000072
(1530386565.214166) can1 218#5AFFF80000000073
(1530386565.214424) can1 219#5AFFF80000000074
(1530386565.215233) can1 21A#5AFFF80000000075
(1530386565.215448) can1 21B#5AFFF80000000076
(1530386565.216235) can1 21C#5AFFF80000000077
(1530386565.216448) can1 21D#5AFFF80000000078
(1530386565.217231) can1 21E#5AFFF80000000079
(1530386565.217445) can1 21F#5AFFF8000000007A
(1530386565.218222) can1 220#5A00000000000084
(1530386565.218447) can1 221#5A00000000000085
(1530386565.219230) can1 222#5A00000000000086
(1530386565.219455) can1 223#5A00000000000087
(1530386565.220232) can1 224#5A00000000000088
(1530386565.220438) can1 225#5A00000000000089
(1530386565.221189) can1 226#5A0000000000008A
(1530386565.221446) can1 227#5A0000000000008B
(1530386565.222156) can1 228#5A000000008A
(1530386565.222390) can1 229#5A000000008B
(1530386565.223129) can1 22A#5A000000008C
(1530386565.223394) can1 22B#5A000000008D
(1530386565.224222) can1 22C#5A000000008E
(1530386565.224400) can1 22D#5A000000008F
(1530386565.225220) can1 22E#5A0000000090
(1530386565.225400) can1 22F#5A0000000091
(1530386565.226220) can1 123#0108050D400086
(1530386565.226400) can1 230#5A7FFF0D5E007C
(1530386565.227214) can1 231#5A0000FF00000296
(1530386565.227453) can1 232#5A00FE00FE00FE90
(1530386565.228179) can1 3D0#AD80808080808088
(1530386565.228439) can1 3D1#AD80808080808089
(1530386565.229151) can1 3D2#AD8080808080808A
(1530386565.229413) can1 3D3#AD8080808080808B
(1530386565.260336) can1 210#5BFFF8000000006C
(1530386565.260406) can1 211#5BFFF8000000006D
(1530386565.261245) can1 212#5BFFF8000000006E
(1530386565.261465) can1 213#5BFFF8000000006F
(1530386565.262213) can1 214#5BFFF80000000070
(1530386565.262434) can1 215#5BFFF80000000071
(1530386565.263191) can1 216#5BFFF80000000072
(1530386565.263419) can1 217#5BFFF80000000073
(1530386565.264230) can1 218#5BFFF80000000074
(1530386565.264451) can1 219#5BFFF80000000075
(1530386565.265227) can1 21A#5BFFF80000000076
(1530386565.265445) can1 21B#5BFFF80000000077
(1530386565.266228) can1 21C#5BFFF80000000078
(1530386565.266455) can1 21D#5BFFF80000000079
(1530386565.267222) can1 21E#5BFFF8000000007A
(1530386565.267483) can1 21F#5BFFF8000000007B
(1530386565.268236) can1 220#5B00000000000085
(1530386565.268478) can1 221#5B00000000000086
(1530386565.269222) can1 222#5B00000000000087
(1530386565.269446) can1 223#5B00000000000088
(1530386565.270228) can1 224#5B00000000000089
(1530386565.270464) can1 225#5B0000000000008A
(1530386565.271326) can1 226#5B0000000000008B
(1530386565.271477) can1 227#5B0000000000008C
(1530386565.272205) can1 228#5B000000008B
(1530386565.272377) can1 229#5B000000008C
(1530386565.273188) can1 22A#5B000000008D
(1530386565.273324) can1 22B#5B000000008E
(1530386565.274233) can1 22C#5B000000008F
(1530386565.274389) can1 22D#5B0000000090
(1530386565.275242) can1 22E#5B0000000091
(1530386565.275400) can1 22F#5B0000000092
(1530386565.276237) can1 230#5B7FFF0D5F007E
(1530386565.276474) can1 231#5B0000FF00000297
(1530386565.277198) can1 232#5B00FE00FE00FE91
(1530386565.310372) can1 210#5CFFF8000000006D
(1530386565.310402) can1 211#5CFFF8000000006E
(1530386565.311214) can1 212#5CFFF8000000006F
(1530386565.311454) can1 213#5CFFF80000000070
(1530386565.312185) can1 214#5CFFF80000000071
(1530386565.312444) can1 215#5CFFF80000000072
(1530386565.313201) can1 216#5CFFF80000000073
(1530386565.313421) can1 217#5CFFF80000000074
(1530386565.314227) can1 218#5CFFF80000000075
(1530386565.314460) can1 219#5CFFF80000000076
(1530386565.315244) can1 21A#5CFFF80000000077
(1530386565.315460) can1 21B#5CFFF80000000078
(1530386565.316246) can1 21C#5CFFF80000000079
(1530386565.316473) can1 21D#5CFFF8000000007A
(1530386565.317194) can1 21E#5CFFF8000000007B
(1530386565.317453) can1 21F#5CFFF8000000007C
(1530386565.318233) can1 220#5C00000000000086
(1530386565.318439) can1 221#5C00000000000087
(1530386565.319239) can1 222#5C00000000000088
(1530386565.319460) can1 223#5C00000000000089
(1530386565.320226) can1 224#5C0000000000008A
(1530386565.320450) can1 225#5C0000000000008B
(1530386565.321237) can1 226#5C0000000000008C
(1530386565.321470) can1 227#5C0000000000008D
(1530386565.322209) can1 228#5C000000008C
(1530386565.322398) can1 229#5C000000008D
(1530386565.323229) can1 22A#5C000000008E
(1530386565.323423) can1 22B#5C000000008F
(1530386565.324189) can1 22C#5C0000000090
(1530386565.324389) can1 22D#5C0000000091
(1530386565.325347) can1 22E#5C0000000092
(1530386565.325374) can1 22F#5C0000000093
(1530386565.326346) can1 123#0108050D400086
(1530386565.326368) can1 230#5C7FFF0D600080
(1530386565.327352) can1 231#5C0000FF00000298
(1530386565.327413) can1 232#5C00FE00FE00FE92
(1530386565.328298) can1 3D0#AE80808080808089
(1530386565.328442) can1 3D1#AE8080808080808A
(1530386565.329206) can1 3D2#AE8080808080808B
(1530386565.329428) can1 3D3#AE8080808080808C
(1530386565.360243) can1 210#5DFFF8000000006E
(1530386565.360472) can1 211#5DFFF8000000006F
(1530386565.361243) can1 212#5DFFF80000000070
(1530386565.361461) can1 213#5DFFF80000000071
(1530386565.362290) can1 214#5DFFF80000000072
(1530386565.362444) can1 215#5DFFF80000000073
(1530386565.363251) can1 216#5DFFF80000000074
(1530386565.363492) can1 217#5DFFF80000000075
(1530386565.364234) can1 218#5DFFF80000000076
(1530386565.364456) can1 219#5DFFF80000000077
(1530386565.365250) can1 21A#5DFFF80000000078
(1530386565.365490) can1 21B#5DFFF80000000079
(1530386565.366253) can1 21C#5DFFF8000000007A
(1530386565.366499) can1 21D#5DFFF8000000007B
(1530386565.367260) can1 21E#5DFFF8000000007C
(1530386565.367481) can1 21F#5DFFF8000000007D
(1530386565.368249) can1 220#5D00000000000087
(1530386565.368499) can1 221#5D00000000000088
(1530386565.369245) can1 222#5D00000000000089
(1530386565.369486) can1 223#5D0000000000008A
(1530386565.370241) can1 224#5D0000000000008B
(1530386565.370484) can1 225#5D0000000000008C
(1530386565.371260) can1 226#5D0000000000008D
(1530386565.371467) can1 227#5D0000000000008E
(1530386565.372176) can1 228#5D000000008D
(1530386565.372357) can1 229#5D000000008E
(1530386565.373210) can1 22A#5D000000008F
(1530386565.373412) can1 22B#5D0000000090
(1530386565.374223) can1 22C#5D0000000091
(1530386565.374454) can1 22D#5D0000000092
(1530386565.375217) can1 22E#5D0000000093
(1530386565.375405) can1 22F#5D0000000094
(1530386565.376239) can1 230#5D7FFF0D610082
(1530386565.376473) can1 231#5D0000FF00000299
(1530386565.377210) can1 232#5D00FE00FE00FE93
(1530386565.410230) can1 210#5EFFF8000000006F
(1530386565.410461) can1 211#5EFFF80000000070
(1530386565.411290) can1 212#5EFFF80000000071
(1530386565.411426) can1 213#5EFFF80000000072
(1530386565.412200) can1 214#5EFFF80000000073
(1530386565.412471) can1 215#5EFFF80000000074
(1530386565.413244) can1 216#5EFFF80000000075
(1530386565.413463) can1 217#5EFFF80000000076
(1530386565.414233) can1 218#5EFFF80000000077
(1530386565.414460) can1 219#5EFFF80000000078
(1530386565.415230) can1 21A#5EFFF80000000079
(1530386565.415448) can1 21B#5EFFF8000000007A
(1530386565.416218) can1 21C#5EFFF8000000007B
(1530386565.416478) can1 21D#5EFFF8000000007C
(1530386565.417243) can1 21E#5EFFF8000000007D
(1530386565.417464) can1 21F#5EFFF8000000007E
(1530386565.418203) can1 220#5E00000000000088
(1530386565.418493) can1 221#5E00000000000089
(1530386565.419202) can1 222#5E0000000000008A
(1530386565.419454) can1 223#5E0000000000008B
(1530386565.420226) can1 224#5E0000000000008C
(1530386565.420469) can1 225#5E0000000000008D
(1530386565.421247) can1 226#5E0000000000008E
(1530386565.421465) can1 227#5E0000000000008F
(1530386565.422200) can1 228#5E000000008E
(1530386565.422395) can1 229#5E000000008F
(1530386565.423282) can1 22A#5E0000000090
(1530386565.423438) can1 22B#5E0000000091
(1530386565.424335) can1 22C#5E0000000092
(1530386565.424472) can1 22D#5E0000000093
(1530386565.425327) can1 22E#5E0000000094
(1530386565.425388) can1 22F#5E0000000095
(1530386565.426324) can1 123#0108050D400086
(1530386565.426463) can1 230#5E7FFF0D620084
(1530386565.427376) can1 231#5E0000FF0000029A
(1530386565.427513) can1 232#5E00FE00FE00FE94
(1530386565.428343) can1 3D0#AF8080808080808A
(1530386565.428470) can1 3D1#AF8080808080808B
(1530386565.429263) can1 3D2#AF8080808080808C
(1530386565.429438) can1 3D3#AF8080808080808D
(1530386565.460336) can1 210#5FFFF80000000070
(1530386565.460442) can1 211#5FFFF80000000071
(1530386565.461364) can1 212#5FFFF80000000072
(1530386565.461537) can1 213#5FFFF80000000073
(1530386565.462271) can1 214#5FFFF80000000074
(1530386565.462472) can1 215#5FFFF80000000075
(1530386565.463264) can1 216#5FFFF80000000076
(1530386565.463472) can1 217#5FFFF80000000077
(1530386565.464253) can1 218#5FFFF80000000078
(1530386565.464472) can1 219#5FFFF80000000079
(1530386565.465253) can1 21A#5FFFF8000000007A
(1530386565.465469) can1 21B#5FFFF8000000007B
(1530386565.466267) can1 21C#5FFFF8000000007C
(1530386565.466598) can1 21D#5FFFF8000000007D
(1530386565.467344) can1 21E#5FFFF8000000007E
(1530386565.467588) can1 21F#5FFFF8000000007F
(1530386565.468340) can1 220#5F00000000000089
(1530386565.468569) can1 221#5F0000000000008A
(1530386565.469404) can1 222#5F0000000000008B
(1530386565.469495) can1 223#5F0000000000008C
(1530386565.470286) can1 224#5F0000000000008D
(1530386565.470514) can1 225#5F0000000000008E
(1530386565.471328) can1 226#5F0000000000008F
(1530386565.471581) can1 227#5F00000000000090
(1530386565.472327) can1 228#5F000000008F
(1530386565.472430) can1 229#5F0000000090
(1530386565.473282) can1 22A#5F0000000091
(1530386565.473430) can1 22B#5F0000000092
(1530386565.474298) can1 22C#5F0000000093
(1530386565.474492) can1 22D#5F0000000094
(1530386565.475268) can1 22E#5F0000000095
(1530386565.475462) can1 22F#5F0000000096
(1530386565.476306) can1 230#5F7FFF0D630086
(1530386565.476462) can1 231#5F0000FF0000029B
(1530386565.477331) can1 232#5F00FE00FE00FE95
(1530386565.510417) can1 210#60FFF80000000071
(1530386565.510422) can1 211#60FFF80000000072
(1530386565.511200) can1 212#60FFF80000000073
(1530386565.511465) can1 213#60FFF80000000074
(1530386565.512250) can1 214#60FFF80000000075
(1530386565.512481) can1 215#60FFF80000000076
(1530386565.513267) can1 216#60FFF80000000077
(1530386565.513448) can1 217#60FFF80000000078
(1530386565.514266) can1 218#60FFF80000000079
(1530386565.514484) can1 219#60FFF8000000007A
(1530386565.515266) can1 21A#60FFF8000000007B
(1530386565.515493) can1 21B#60FFF8000000007C
(1530386565.516223) can1 21C#60FFF8000000007D
(1530386565.516541) can1 21D#60FFF8000000007E
(1530386565.517255) can1 21E#60FFF8000000007F
(1530386565.517473) can1 21F#60FFF80000000080
(1530386565.518249) can1 220#600000000000008A
(1530386565.518473) can1 221#600000000000008B
(1530386565.519248) can1 222#600000000000008C
(1530386565.519471) can1 223#600000000000008D
(1530386565.520247) can1 224#600000000000008E
(1530386565.520483) can1 225#600000000000008F
(1530386565.521266) can1 226#6000000000000090
(1530386565.521485) can1 227#6000000000000091
(1530386565.522241) can1 228#600000000090
(1530386565.522451) can1 229#600000000091
(1530386565.523257) can1 22A#600000000092
(1530386565.523432) can1 22B#600000000093
(1530386565.524245) can1 22C#600000000094
(1530386565.524412) can1 22D#600000000095
(1530386565.525250) can1 22E#600000000096
(1530386565.525422) can1 22F#600000000097
(1530386565.526268) can1 123#0108050D400086
(1530386565.526427) can1 230#607FFF0D640088
(1530386565.527264) can1 231#600000FF0000029C
(1530386565.527502) can1 232#6000FE00FE00FE96
(1530386565.528226) can1 3D0#B08080808080808B
(1530386565.528435) can1 3D1#B08080808080808C
(1530386565.529214) can1 3D2#B08080808080808D
(1530386565.529452) can1 3D3#B08080808080808E
(1530386565.560391) can1 210#61FFF80000000072
(1530386565.560439) can1 211#61FFF80000000073
(1530386565.561462) can1 212#61FFF80000000074
(1530386565.561469) can1 213#61FFF80000000075
(1530386565.562234) can1 214#61FFF80000000076
(1530386565.562454) can1 215#61FFF80000000077
(1530386565.563218) can1 216#61FFF80000000078
(1530386565.563456) can1 217#61FFF80000000079
(1530386565.564218) can1 218#61FFF8000000007A
(1530386565.564456) can1 219#61FFF8000000007B
(1530386565.565216) can1 21A#61FFF8000000007C
(1530386565.565455) can1 21B#61FFF8000000007D
(1530386565.566215) can1 21C#61FFF8000000007E
(1530386565.566457) can1 21D#61FFF8000000007F
(1530386565.567217) can1 21E#61FFF80000000080
(1530386565.567455) can1 21F#61FFF80000000081
(1530386565.568215) can1 220#610000000000008B
(1530386565.568454) can1 221#610000000000008C
(1530386565.569228) can1 222#610000000000008D
(1530386565.569441) can1 223#610000000000008E
(1530386565.570202) can1 224#610000000000008F
(1530386565.570459) can1 225#6100000000000090
(1530386565.571231) can1 226#6100000000000091
(1530386565.571441) can1 227#6100000000000092
(1530386565.572157) can1 228#610000000091
(1530386565.572354) can1 229#610000000092
(1530386565.573167) can1 22A#610000000093
(1530386565.573380) can1 22B#610000000094
(1530386565.574203) can1 22C#610000000095
(1530386565.574409) can1 22D#610000000096
(1530386565.575178) can1 22E#610000000097
(1530386565.575407) can1 22F#610000000098
(1530386565.576178) can1 230#617FFF0D65008A
(1530386565.576538) can1 231#610000FF0000029D
(1530386565.577262) can1 232#6100FE00FE00FE97
(1530386565.610437) can1 210#62FFF80000000073
(1530386565.610503) can1 211#62FFF80000000074
(1530386565.611301) can1 212#62FFF80000000075
(1530386565.611457) can1 213#62FFF80000000076
(1530386565.612228) can1 214#62FFF80000000077
(1530386565.612471) can1 215#62FFF80000000078
(1530386565.613233) can1 216#62FFF80000000079
(1530386565.613443) can1 217#62FFF8000000007A
(1530386565.614261) can1 218#62FFF8000000007B
(1530386565.614445) can1 219#62FFF8000000007C
(1530386565.615204) can1 21A#62FFF8000000007D
(1530386565.615463) can1 21B#62FFF8000000007E
(1530386565.616234) can1 21C#62FFF8000000007F
(1530386565.616445) can1 21D#62FFF80000000080
(1530386565.617212) can1 21E#62FFF80000000081
(1530386565.617465) can1 21F#62FFF80000000082
(1530386565.618231) can1 220#620000000000008C
(1530386565.618445) can1 221#620000000000008D
(1530386565.619271) can1 222#620000000000008E
(1530386565.619489) can1 223#620000000000008F
(1530386565.620279) can1 224#6200000000000090
(1530386565.620498) can1 225#6200000000000091
(1530386565.621364) can1 226#6200000000000092
(1530386565.621492) can1 227#6200000000000093
(1530386565.622267) can1 228#620000000092
(1530386565.622435) can1 229#620000000093
(1530386565.623385) can1 22A#620000000094
(1530386565.623390) can1 22B#620000000095
(1530386565.624345) can1 22C#620000000096
(1530386565.624409) can1 22D#620000000097
(1530386565.625353) can1 22E#620000000098
(1530386565.625381) can1 22F#620000000099
(1530386565.626387) can1 123#0108050D400086
(1530386565.626392) can1 230#627FFF0D66008C
(1530386565.627368) can1 231#620000FF0000029E
(1530386565.627514) can1 232#6200FE00FE00FE98
(1530386565.628306) can1 3D0#B18080808080808C
(1530386565.628464) can1 3D1#B18080808080808D
(1530386565.629240) can1 3D2#B18080808080808E
(1530386565.629492) can1 3D3#B18080808080808F
(1530386565.660372) can1 210#63FFF80000000074
(1530386565.660533) can1 211#63FFF80000000075
(1530386565.661480) can1 212#63FFF80000000076
(1530386565.661486) can1 213#63FFF80000000077
(1530386565.662240) can1 214#63FFF80000000078
(1530386565.662474) can1 215#63FFF80000000079
(1530386565.663260) can1 216#63FFF8000000007A
(1530386565.663452) can1 217#63FFF8000000007B
(1530386565.664212) can1 218#63FFF8000000007C
(1530386565.664469) can1 219#63FFF8000000007D
(1530386565.665235) can1 21A#63FFF8000000007E
(1530386565.665450) can1 21B#63FFF8000000007F
(1530386565.666215) can1 21C#63FFF80000000080
(1530386565.666470) can1 21D#63FFF80000000081
(1530386565.667289) can1 21E#63FFF80000000082
(1530386565.667527) can1 21F#63FFF80000000083
(1530386565.668243) can1 220#630000000000008D
(1530386565.668481) can1 221#630000000000008E
(1530386565.669280) can1 222#630000000000008F
(1530386565.669492) can1 223#6300000000000090
(1530386565.670284) can1 224#6300000000000091
(1530386565.670515) can1 225#6300000000000092
(1530386565.671270) can1 226#6300000000000093
(1530386565.671493) can1 227#6300000000000094
(1530386565.672250) can1 228#630000000093
(1530386565.672478) can1 229#630000000094
(1530386565.673283) can1 22A#630000000095
(1530386565.673421) can1 22B#630000000096
(1530386565.674228) can1 22C#630000000097
(1530386565.674492) can1 22D#630000000098
(1530386565.675280) can1 22E#630000000099
(1530386565.675438) can1 22F#63000000009A
(1530386565.676259) can1 230#637FFF0D67008E
(1530386565.676522) can1 231#630000FF0000029F
(1530386565.677274) can1 232#6300FE00FE00FE99
(1530386565.710345) can1 210#64FFF80000000075
(1530386565.710530) can1 211#64FFF80000000076
(1530386565.711235) can1 212#64FFF80000000077
(1530386565.711464) can1 213#64FFF80000000078
(1530386565.712209) can1 214#64FFF80000000079
(1530386565.712486) can1 215#64FFF8000000007A
(1530386565.713300) can1 216#64FFF8000000007B
(1530386565.713460) can1 217#64FFF8000000007C
(1530386565.714216) can1 218#64FFF8000000007D
(1530386565.714540) can1 219#64FFF8000000007E
(1530386565.715282) can1 21A#64FFF8000000007F
(1530386565.715495) can1 21B#64FFF80000000080
(1530386565.716247) can1 21C#64FFF80000000081
(1530386565.716493) can1 21D#64FFF80000000082
(1530386565.717353) can1 21E#64FFF80000000083
(1530386565.717497) can1 21F#64FFF80000000084
(1530386565.718255) can1 220#640000000000008E
(1530386565.718497) can1 221#640000000000008F
(1530386565.719348) can1 222#6400000000000090
(1530386565.719504) can1 223#6400000000000091
(1530386565.720247) can1 224#6400000000000092
(1530386565.720489) can1 225#6400000000000093
(1530386565.721230) can1 226#6400000000000094
(1530386565.721488) can1 227#6400000000000095
(1530386565.722235) can1 228#640000000094
(1530386565.722399) can1 229#640000000095
(1530386565.723241) can1 22A#640000000096
(1530386565.723454) can1 22B#640000000097
(1530386565.724237) can1 22C#640000000098
(1530386565.724438) can1 22D#640000000099
(1530386565.725260) can1 22E#64000000009A
(1530386565.725460) can1 22F#64000000009B
(1530386565.726254) can1 123#0108050D400086
(1530386565.726468) can1 230#647FFF0D680090
(1530386565.727257) can1 231#640000FF000002A0
(1530386565.727521) can1 232#6400FE00FE00FE9A
(1530386565.728294) can1 3D0#B28080808080808D
(1530386565.728460) can1 3D1#B28080808080808E
(1530386565.729263) can1 3D2#B28080808080808F
(1530386565.729499) can1 3D3#B280808080808090
(1530386565.760298) can1 210#65FFF80000000076
(1530386565.760516) can1 211#65FFF80000000077
(1530386565.761404) can1 212#65FFF80000000078
(1530386565.761480) can1 213#65FFF80000000079
(1530386565.762382) can1 214#65FFF8000000007A
(1530386565.762489) can1 215#65FFF8000000007B
(1530386565.763294) can1 216#65FFF8000000007C
(1530386565.763507) can1 217#65FFF8000000007D
(1530386565.764300) can1 218#65FFF8000000007E
(1530386565.764519) can1 219#65FFF8000000007F
(1530386565.765281) can1 21A#65FFF80000000080
(1530386565.765519) can1 21B#65FFF80000000081
(1530386565.766290) can1 21C#65FFF80000000082
(1530386565.766511) can1 21D#65FFF80000000083
(1530386565.767293) can1 21E#65FFF80000000084
(1530386565.767515) can1 21F#65FFF80000000085
(1530386565.768300) can1 220#650000000000008F
(1530386565.768516) can1 221#6500000000000090
(1530386565.769277) can1 222#6500000000000091
(1530386565.769512) can1 223#6500000000000092
(1530386565.770286) can1 224#6500000000000093
(1530386565.770526) can1 225#6500000000000094
(1530386565.771367) can1 226#6500000000000095
(1530386565.771526) can1 227#6500000000000096
(1530386565.772256) can1 228#650000000095
(1530386565.772424) can1 229#650000000096
(1530386565.773272) can1 22A#650000000097
(1530386565.773445) can1 22B#650000000098
(1530386565.774272) can1 22C#650000000099
(1530386565.774476) can1 22D#65000000009A
(1530386565.775254) can1 22E#65000000009B
(1530386565.775422) can1 22F#65000000009C
(1530386565.776248) can1 230#657FFF0D690092
(1530386565.776548) can1 231#650000FF000002A1
(1530386565.777287) can1 232#6500FE00FE00FE9B
(1530386565.810274) can1 210#66FFF80000000077
(1530386565.810544) can1 211#66FFF80000000078
(1530386565.811305) can1 212#66FFF80000000079
(1530386565.811539) can1 213#66FFF8000000007A
(1530386565.812257) can1 214#66FFF8000000007B
(1530386565.812463) can1 215#66FFF8000000007C
(1530386565.813266) can1 216#66FFF8000000007D
(1530386565.813459) can1 217#66FFF8000000007E
(1530386565.814367) can1 218#66FFF8000000007F
(1530386565.814531) can1 219#66FFF80000000080
(1530386565.815384) can1 21A#66FFF80000000081
(1530386565.815528) can1 21B#66FFF80000000082
(1530386565.816381) can1 21C#66FFF80000000083
(1530386565.816529) can1 21D#66FFF80000000084
(1530386565.817375) can1 21E#66FFF80000000085
(1530386565.817528) can1 21F#66FFF80000000086
(1530386565.818372) can1 220#6600000000000090
(1530386565.818552) can1 221#6600000000000091
(1530386565.819361) can1 222#6600000000000092
(1530386565.819527) can1 223#6600000000000093
(1530386565.820300) can1 224#6600000000000094
(1530386565.820514) can1 225#6600000000000095
(1530386565.821279) can1 226#6600000000000096
(1530386565.821527) can1 227#6600000000000097
(1530386565.822262) can1 228#660000000096
(1530386565.822427) can1 229#660000000097
(1530386565.823222) can1 22A#660000000098
(1530386565.823468) can1 22B#660000000099
(1530386565.824280) can1 22C#66000000009A
(1530386565.824453) can1 22D#66000000009B
(1530386565.825225) can1 22E#66000000009C
(1530386565.825475) can1 22F#66000000009D
(1530386565.826256) can1 123#0108050D400086
(1530386565.826437) can1 230#667FFF0D6A0094
(1530386565.827302) can1 231#660000FF000002A2
(1530386565.827543) can1 232#6600FE00FE00FE9C
(1530386565.828278) can1 3D0#B38080808080808E
(1530386565.828475) can1 3D1#B38080808080808F
(1530386565.829273) can1 3D2#B380808080808090
(1530386565.829541) can1 3D3#B380808080808091
(1530386565.860371) can1 210#67FFF80000000078
(1530386565.860563) can1 211#67FFF80000000079
(1530386565.861394) can1 212#67FFF8000000007A
(1530386565.861467) can1 213#67FFF8000000007B
(1530386565.862250) can1 214#67FFF8000000007C
(1530386565.862487) can1 215#67FFF8000000007D
(1530386565.863250) can1 216#67FFF8000000007E
(1530386565.863485) can1 217#67FFF8000000007F
(1530386565.864249) can1 218#67FFF80000000080
(1530386565.864485) can1 219#67FFF80000000081
(1530386565.865257) can1 21A#67FFF80000000082
(1530386565.865470) can1 21B#67FFF80000000083
(1530386565.866237) can1 21C#67FFF80000000084
(1530386565.866491) can1 21D#67FFF80000000085
(1530386565.867258) can1 21E#67FFF80000000086
(1530386565.867487) can1 21F#67FFF80000000087
(1530386565.868246) can1 220#6700000000000091
(1530386565.868488) can1 221#6700000000000092
(1530386565.869248) can1 222#6700000000000093
(1530386565.869486) can1 223#6700000000000094
(1530386565.870247) can1 224#6700000000000095
(1530386565.870486) can1 225#6700000000000096
(1530386565.871257) can1 226#6700000000000097
(1530386565.871469) can1 227#6700000000000098
(1530386565.872186) can1 228#670000000097
(1530386565.872418) can1 229#670000000098
(1530386565.873207) can1 22A#670000000099
(1530386565.873393) can1 22B#67000000009A
(1530386565.874239) can1 22C#67000000009B
(1530386565.874423) can1 22D#67000000009C
(1530386565.875312) can1 22E#67000000009D
(1530386565.875479) can1 22F#67000000009E
(1530386565.876211) can1 230#677FFF0D6B0096
(1530386565.876519) can1 231#670000FF000002A3
(1530386565.877306) can1 232#6700FE00FE00FE9D
(1530386565.910506) can1 210#68FFF80000000079
(1530386565.910530) can1 211#68FFF8000000007A
(1530386565.911254) can1 212#68FFF8000000007B
(1530386565.911501) can1 213#68FFF8000000007C
(1530386565.912304) can1 214#68FFF8000000007D
(1530386565.912553) can1 215#68FFF8000000007E
(1530386565.913317) can1 216#68FFF8000000007F
(1530386565.913532) can1 217#68FFF80000000080
(1530386565.914237) can1 218#68FFF80000000081
(1530386565.914527) can1 219#68FFF80000000082
(1530386565.915270) can1 21A#68FFF80000000083
(1530386565.915519) can1 21B#68FFF80000000084
(1530386565.916362) can1 21C#68FFF80000000085
(1530386565.916530) can1 21D#68FFF80000000086
(1530386565.917303) can1 21E#68FFF80000000087
(1530386565.917531) can1 21F#68FFF80000000088
(1530386565.918295) can1 220#6800000000000092
(1530386565.918513) can1 221#6800000000000093
(1530386565.919296) can1 222#6800000000000094
(1530386565.919518) can1 223#6800000000000095
(1530386565.920289) can1 224#6800000000000096
(1530386565.920510) can1 225#6800000000000097
(1530386565.921308) can1 226#6800000000000098
(1530386565.921522) can1 227#6800000000000099
(1530386565.922257) can1 228#680000000098
(1530386565.922477) can1 229#680000000099
(1530386565.923258) can1 22A#68000000009A
(1530386565.923470) can1 22B#68000000009B
(1530386565.924288) can1 22C#68000000009C
(1530386565.924461) can1 22D#68000000009D
(1530386565.925281) can1 22E#68000000009E
(1530386565.925452) can1 22F#68000000009F
(1530386565.926288) can1 123#0108050D400086
(1530386565.926460) can1 230#687FFF0D6C0098
(1530386565.927362) can1 231#680000FF000002A4
(1530386565.927529) can1 232#6800FE00FE00FE9E
(1530386565.928327) can1 3D0#B48080808080808F
(1530386565.928497) can1 3D1#B480808080808090
(1530386565.929317) can1 3D2#B480808080808091
(1530386565.929538) can1 3D3#B480808080808092
(1530386565.960336) can1 210#69FFF8000000007A
(1530386565.960562) can1 211#69FFF8000000007B
(1530386565.961371) can1 212#69FFF8000000007C
(1530386565.961492) can1 213#69FFF8000000007D
(1530386565.962252) can1 214#69FFF8000000007E
(1530386565.962501) can1 215#69FFF8000000007F
(1530386565.963274) can1 216#69FFF80000000080
(1530386565.963481) can1 217#69FFF80000000081
(1530386565.964244) can1 218#69FFF80000000082
(1530386565.964502) can1 219#69FFF80000000083
(1530386565.965270) can1 21A#69FFF80000000084
(1530386565.965483) can1 21B#69FFF80000000085
(1530386565.966244) can1 21C#69FFF80000000086
(1530386565.966502) can1 21D#69FFF80000000087
(1530386565.967270) can1 21E#69FFF80000000088
(1530386565.967484) can1 21F#69FFF80000000089
(1530386565.968244) can1 220#6900000000000093
(1530386565.968502) can1 221#6900000000000094
(1530386565.969264) can1 222#6900000000000095
(1530386565.969499) can1 223#6900000000000096
(1530386565.970259) can1 224#6900000000000097
(1530386565.970499) can1 225#6900000000000098
(1530386565.971386) can1 226#6900000000000099
(1530386565.971535) can1 227#690000000000009A
(1530386565.972295) can1 228#690000000099
(1530386565.972509) can1 229#69000000009A
(1530386565.973295) can1 22A#69000000009B
(1530386565.973464) can1 22B#69000000009C
(1530386565.974317) can1 22C#69000000009D
(1530386565.974526) can1 22D#69000000009E
(1530386565.975294) can1 22E#69000000009F
(1530386565.975514) can1 22F#6900000000A0
(1530386565.976295) can1 230#697FFF0D6D009A
(1530386565.976582) can1 231#690000FF000002A5
(1530386565.977331) can1 232#6900FE00FE00FE9F
(1530386566.010550) can1 210#6AFFF8000000007B
(1530386566.010555) can1 211#6AFFF8000000007C
(1530386566.011394) can1 212#6AFFF8000000007D
(1530386566.011485) can1 213#6AFFF8000000007E
(1530386566.012264) can1 214#6AFFF8000000007F
(1530386566.012529) can1 215#6AFFF80000000080
(1530386566.013274) can1 216#6AFFF80000000081
(1530386566.013500) can1 217#6AFFF80000000082
(1530386566.014275) can1 218#6AFFF80000000083
(1530386566.014486) can1 219#6AFFF80000000084
(1530386566.015265) can1 21A#6AFFF80000000085
(1530386566.015504) can1 21B#6AFFF80000000086
(1530386566.016261) can1 21C#6AFFF80000000087
(1530386566.016491) can1 21D#6AFFF80000000088
(1530386566.017250) can1 21E#6AFFF80000000089
(1530386566.017507) can1 21F#6AFFF8000000008A
(1530386566.018263) can1 220#6A00000000000094
(1530386566.018497) can1 221#6A00000000000095
(1530386566.019256) can1 222#6A00000000000096
(1530386566.019491) can1 223#6A00000000000097
(1530386566.020266) can1 224#6A00000000000098
(1530386566.020505) can1 225#6A00000000000099
(1530386566.021272) can1 226#6A0000000000009A
(1530386566.021584) can1 227#6A0000000000009B
(1530386566.022319) can1 228#6A000000009A
(1530386566.022519) can1 229#6A000000009B
(1530386566.023276) can1 22A#6A000000009C
(1530386566.023489) can1 22B#6A000000009D
(1530386566.024341) can1 22C#6A000000009E
(1530386566.024472) can1 22D#6A000000009F
(1530386566.025245) can1 22E#6A00000000A0
(1530386566.025499) can1 22F#6A00000000A1
(1530386566.026420) can1 123#0108050D400086
(1530386566.026483) can1 230#6A7FFF0D6E009C
(1530386566.027343) can1 231#6A0000FF000002A6
(1530386566.027584) can1 232#6A00FE00FE00FEA0
(1530386566.028339) can1 3D0#B580808080808090
(1530386566.028578) can1 3D1#B580808080808091
(1530386566.029246) can1 3D2#B580808080808092
(1530386566.029495) can1 3D3#B580808080808093
(1530386566.060346) can1 210#6BFFF8000000007C
(1530386566.060644) can1 211#6BFFF8000000007D
(1530386566.061365) can1 212#6BFFF8000000007E
(1530386566.061582) can1 213#6BFFF8000000007F
(1530386566.062370) can1 214#6BFFF80000000080
(1530386566.062534) can1 215#6BFFF80000000081
(1530386566.063327) can1 216#6BFFF80000000082
(1530386566.063507) can1 217#6BFFF80000000083
(1530386566.064269) can1 218#6BFFF80000000084
(1530386566.064545) can1 219#6BFFF80000000085
(1530386566.065276) can1 21A#6BFFF80000000086
(1530386566.065539) can1 21B#6BFFF80000000087
(1530386566.066268) can1 21C#6BFFF80000000088
(1530386566.066514) can1 21D#6BFFF80000000089
(1530386566.067318) can1 21E#6BFFF8000000008A
(1530386566.067548) can1 21F#6BFFF8000000008B
(1530386566.068317) can1 220#6B00000000000095
(1530386566.068500) can1 221#6B00000000000096
(1530386566.069279) can1 222#6B00000000000097
(1530386566.069532) can1 223#6B00000000000098
(1530386566.070308) can1 224#6B00000000000099
(1530386566.070535) can1 225#6B0000000000009A
(1530386566.071276) can1 226#6B0000000000009B
(1530386566.071554) can1 227#6B0000000000009C
(1530386566.072260) can1 228#6B000000009B
(1530386566.072480) can1 229#6B000000009C
(1530386566.073246) can1 22A#6B000000009D
(1530386566.073480) can1 22B#6B000000009E
(1530386566.074345) can1 22C#6B000000009F
(1530386566.074531) can1 22D#6B00000000A0
(1530386566.075277) can1 22E#6B00000000A1
(1530386566.075518) can1 22F#6B00000000A2
(1530386566.076317) can1 230#6B7FFF0D6F009E
(1530386566.076584) can1 231#6B0000FF000002A7
(1530386566.077309) can1 232#6B00FE00FE00FEA1
(1530386566.110422) can1 210#6CFFF8000000007D
(1530386566.110522) can1 211#6CFFF8000000007E
(1530386566.111319) can1 212#6CFFF8000000007F
(1530386566.111511) can1 213#6CFFF80000000080
(1530386566.112259) can1 214#6CFFF80000000081
(1530386566.112510) can1 215#6CFFF80000000082
(1530386566.113274) can1 216#6CFFF80000000083
(1530386566.113496) can1 217#6CFFF80000000084
(1530386566.114248) can1 218#6CFFF80000000085
(1530386566.114488) can1 219#6CFFF80000000086
(1530386566.115349) can1 21A#6CFFF80000000087
(1530386566.115496) can1 21B#6CFFF80000000088
(1530386566.116246) can1 21C#6CFFF80000000089
(1530386566.116488) can1 21D#6CFFF8000000008A
(1530386566.117347) can1 21E#6CFFF8000000008B
(1530386566.117509) can1 21F#6CFFF8000000008C
(1530386566.118283) can1 220#6C00000000000096
(1530386566.118546) can1 221#6C00000000000097
(1530386566.119255) can1 222#6C00000000000098
(1530386566.119497) can1 223#6C00000000000099
(1530386566.120248) can1 224#6C0000000000009A
(1530386566.120537) can1 225#6C0000000000009B
(1530386566.121330) can1 226#6C0000000000009C
(1530386566.121499) can1 227#6C0000000000009D
(1530386566.122259) can1 228#6C000000009C
(1530386566.122419) can1 229#6C000000009D
(1530386566.123216) can1 22A#6C000000009E
(1530386566.123440) can1 22B#6C000000009F
(1530386566.124311) can1 22C#6C00000000A0
(1530386566.124480) can1 22D#6C00000000A1
(1530386566.125230) can1 22E#6C00000000A2
(1530386566.125438) can1 22F#6C00000000A3
(1530386566.126316) can1 123#0108050D400086
(1530386566.126581) can1 230#6C7FFF0D7000A0
(1530386566.127508) can1 231#6C0000FF000002A8
(1530386566.127514) can1 232#6C00FE00FE00FEA2
(1530386566.128276) can1 3D0#B680808080808091
(1530386566.128519) can1 3D1#B680808080808092
(1530386566.129287) can1 3D2#B680808080808093
(1530386566.129518) can1 3D3#B680808080808094
(1530386566.160352) can1 210#6DFFF8000000007E
(1530386566.160631) can1 211#6DFFF8000000007F
(1530386566.161354) can1 212#6DFFF80000000080
(1530386566.161593) can1 213#6DFFF80000000081
(1530386566.162264) can1 214#6DFFF80000000082
(1530386566.162530) can1 215#6DFFF80000000083
(1530386566.163279) can1 216#6DFFF80000000084
(1530386566.163544) can1 217#6DFFF80000000085
(1530386566.164316) can1 218#6DFFF80000000086
(1530386566.164514) can1 219#6DFFF80000000087
(1530386566.165300) can1 21A#6DFFF80000000088
(1530386566.165552) can1 21B#6DFFF80000000089
(1530386566.166313) can1 21C#6DFFF8000000008A
(1530386566.166515) can1 21D#6DFFF8000000008B
(1530386566.167316) can1 21E#6DFFF8000000008C
(1530386566.167534) can1 21F#6DFFF8000000008D
(1530386566.168317) can1 220#6D00000000000097
(1530386566.168553) can1 221#6D00000000000098
(1530386566.169336) can1 222#6D00000000000099
(1530386566.169528) can1 223#6D0000000000009A
(1530386566.170303) can1 224#6D0000000000009B
(1530386566.170520) can1 225#6D0000000000009C
(1530386566.171291) can1 226#6D0000000000009D
(1530386566.171573) can1 227#6D0000000000009E
(1530386566.172236) can1 228#6D000000009D
(1530386566.172486) can1 229#6D000000009E
(1530386566.173221) can1 22A#6D000000009F
(1530386566.173458) can1 22B#6D00000000A0
(1530386566.174353) can1 22C#6D00000000A1
(1530386566.174452) can1 22D#6D00000000A2
(1530386566.175345) can1 22E#6D00000000A3
(1530386566.175518) can1 22F#6D00000000A4
(1530386566.176335) can1 230#6D7FFF0D7100A2
(1530386566.176602) can1 231#6D0000FF000002A9
(1530386566.177320) can1 232#6D00FE00FE00FEA3
(1530386566.210447) can1 210#6EFFF8000000007F
(1530386566.210632) can1 211#6EFFF80000000080
(1530386566.211300) can1 212#6EFFF80000000081
(1530386566.211619) can1 213#6EFFF80000000082
(1530386566.212280) can1 214#6EFFF80000000083
(1530386566.212526) can1 215#6EFFF80000000084
(1530386566.213367) can1 216#6EFFF80000000085
(1530386566.213523) can1 217#6EFFF80000000086
(1530386566.214292) can1 218#6EFFF80000000087
(1530386566.214506) can1 219#6EFFF80000000088
(1530386566.215268) can1 21A#6EFFF80000000089
(1530386566.215526) can1 21B#6EFFF8000000008A
(1530386566.216293) can1 21C#6EFFF8000000008B
(1530386566.216506) can1 21D#6EFFF8000000008C
(1530386566.217267) can1 21E#6EFFF8000000008D
(1530386566.217525) can1 21F#6EFFF8000000008E
(1530386566.218293) can1 220#6E00000000000098
(1530386566.218557) can1 221#6E00000000000099
(1530386566.219372) can1 222#6E0000000000009A
(1530386566.219623) can1 223#6E0000000000009B
(1530386566.220378) can1 224#6E0000000000009C
(1530386566.220510) can1 225#6E0000000000009D
(1530386566.221330) can1 226#6E0000000000009E
(1530386566.221609) can1 227#6E0000000000009F
(1530386566.222333) can1 228#6E000000009E
(1530386566.222560) can1 229#6E000000009F
(1530386566.223379) can1 22A#6E00000000A0
(1530386566.223544) can1 22B#6E00000000A1
(1530386566.224387) can1 22C#6E00000000A2
(1530386566.224553) can1 22D#6E00000000A3
(1530386566.225337) can1 22E#6E00000000A4
(1530386566.225567) can1 22F#6E00000000A5
(1530386566.226337) can1 123#0108050D400086
(1530386566.226506) can1 230#6E7FFF0D7200A4
(1530386566.227373) can1 231#6E0000FF000002AA
(1530386566.227604) can1 232#6E00FE00FE00FEA4
(1530386566.228440) can1 3D0#B780808080808092
(1530386566.228580) can1 3D1#B780808080808093
(1530386566.229271) can1 3D2#B780808080808094
(1530386566.229528) can1 3D3#B780808080808095
(1530386566.260475) can1 210#6FFFF80000000080
(1530386566.260558) can1 211#6FFFF80000000081
(1530386566.261437) can1 212#6FFFF80000000082
(1530386566.261543) can1 213#6FFFF80000000083
(1530386566.262385) can1 214#6FFFF80000000084
(1530386566.262532) can1 215#6FFFF80000000085
(1530386566.263369) can1 216#6FFFF80000000086
(1530386566.263579) can1 217#6FFFF80000000087
(1530386566.264334) can1 218#6FFFF80000000088
(1530386566.264534) can1 219#6FFFF80000000089
(1530386566.265324) can1 21A#6FFFF8000000008A
(1530386566.265570) can1 21B#6FFFF8000000008B
(1530386566.266332) can1 21C#6FFFF8000000008C
(1530386566.266572) can1 21D#6FFFF8000000008D
(1530386566.267350) can1 21E#6FFFF8000000008E
(1530386566.267606) can1 21F#6FFFF8000000008F
(1530386566.268330) can1 220#6F00000000000099
(1530386566.268559) can1 221#6F0000000000009A
(1530386566.269331) can1 222#6F0000000000009B
(1530386566.269576) can1 223#6F0000000000009C
(1530386566.270332) can1 224#6F0000000000009D
(1530386566.270561) can1 225#6F0000000000009E
(1530386566.271315) can1 226#6F0000000000009F
(1530386566.271577) can1 227#6F000000000000A0
(1530386566.272307) can1 228#6F000000009F
(1530386566.272497) can1 229#6F00000000A0
(1530386566.273300) can1 22A#6F00000000A1
(1530386566.273474) can1 22B#6F00000000A2
(1530386566.274336) can1 22C#6F00000000A3
(1530386566.274465) can1 22D#6F00000000A4
(1530386566.275337) can1 22E#6F00000000A5
(1530386566.275532) can1 22F#6F00000000A6
(1530386566.276330) can1 230#6F7FFF0D7300A6
(1530386566.276572) can1 231#6F0000FF000002AB
(1530386566.277328) can1 232#6F00FE00FE00FEA5
(1530386566.310346) can1 210#70FFF80000000081
(1530386566.310594) can1 211#70FFF80000000082
(1530386566.311340) can1 212#70FFF80000000083
(1530386566.311521) can1 213#70FFF80000000084
(1530386566.312380) can1 214#70FFF80000000085
(1530386566.312549) can1 215#70FFF80000000086
(1530386566.313310) can1 216#70FFF80000000087
(1530386566.313512) can1 217#70FFF80000000088
(1530386566.314331) can1 218#70FFF80000000089
(1530386566.314581) can1 219#70FFF8000000008A
(1530386566.315346) can1 21A#70FFF8000000008B
(1530386566.315585) can1 21B#70FFF8000000008C
(1530386566.316348) can1 21C#70FFF8000000008D
(1530386566.316586) can1 21D#70FFF8000000008E
(1530386566.317354) can1 21E#70FFF8000000008F
(1530386566.317568) can1 21F#70FFF80000000090
(1530386566.318309) can1 220#700000000000009A
(1530386566.318566) can1 221#700000000000009B
(1530386566.319354) can1 222#700000000000009C
(1530386566.319564) can1 223#700000000000009D
(1530386566.320332) can1 224#700000000000009E
(1530386566.320580) can1 225#700000000000009F
(1530386566.321335) can1 226#70000000000000A0
(1530386566.321530) can1 227#70000000000000A1
(1530386566.322309) can1 228#7000000000A0
(1530386566.322471) can1 229#7000000000A1
(1530386566.323332) can1 22A#7000000000A2
(1530386566.323530) can1 22B#7000000000A3
(1530386566.324294) can1 22C#7000000000A4
(1530386566.324531) can1 22D#7000000000A5
(1530386566.325347) can1 22E#7000000000A6
(1530386566.325495) can1 22F#7000000000A7
(1530386566.326363) can1 123#0108050D400086
(1530386566.326591) can1 230#707FFF0D7400A8
(1530386566.327374) can1 231#700000FF000002AC
(1530386566.327633) can1 232#7000FE00FE00FEA6
(1530386566.328340) can1 3D0#B880808080808093
(1530386566.328554) can1 3D1#B880808080808094
(1530386566.329295) can1 3D2#B880808080808095
(1530386566.329522) can1 3D3#B880808080808096
(1530386566.360440) can1 210#71FFF80000000082
(1530386566.360593) can1 211#71FFF80000000083
(1530386566.361303) can1 212#71FFF80000000084
(1530386566.361567) can1 213#71FFF80000000085
(1530386566.362360) can1 214#71FFF80000000086
(1530386566.362562) can1 215#71FFF80000000087
(1530386566.363311) can1 216#71FFF80000000088
(1530386566.363539) can1 217#71FFF80000000089
(1530386566.364353) can1 218#71FFF8000000008A
(1530386566.364567) can1 219#71FFF8000000008B
(1530386566.365360) can1 21A#71FFF8000000008C
(1530386566.365516) can1 21B#71FFF8000000008D
(1530386566.366342) can1 21C#71FFF8000000008E
(1530386566.366588) can1 21D#71FFF8000000008F
(1530386566.367349) can1 21E#71FFF80000000090
(1530386566.367585) can1 21F#71FFF80000000091
(1530386566.368350) can1 220#710000000000009B
(1530386566.368589) can1 221#710000000000009C
(1530386566.369360) can1 222#710000000000009D
(1530386566.369578) can1 223#710000000000009E
(1530386566.370328) can1 224#710000000000009F
(1530386566.370547) can1 225#71000000000000A0
(1530386566.371341) can1 226#71000000000000A1
(1530386566.371606) can1 227#71000000000000A2
(1530386566.372355) can1 228#7100000000A1
(1530386566.372562) can1 229#7100000000A2
(1530386566.373331) can1 22A#7100000000A3
(1530386566.373546) can1 22B#7100000000A4
(1530386566.374331) can1 22C#7100000000A5
(1530386566.374551) can1 22D#7100000000A6
(1530386566.375321) can1 22E#7100000000A7
(1530386566.375551) can1 22F#7100000000A8
(1530386566.376339) can1 230#717FFF0D7500AA
(1530386566.376610) can1 231#710000FF000002AD
(1530386566.377318) can1 232#7100FE00FE00FEA7
(1530386566.410577) can1 210#72FFF80000000083
(1530386566.410583) can1 211#72FFF80000000084
(1530386566.411364) can1 212#72FFF80000000085
(1530386566.411581) can1 213#72FFF80000000086
(1530386566.412304) can1 214#72FFF80000000087
(1530386566.412527) can1 215#72FFF80000000088
(1530386566.413387) can1 216#72FFF80000000089
(1530386566.413539) can1 217#72FFF8000000008A
(1530386566.414293) can1 218#72FFF8000000008B
(1530386566.414546) can1 219#72FFF8000000008C
(1530386566.415312) can1 21A#72FFF8000000008D
(1530386566.415545) can1 21B#72FFF8000000008E
(1530386566.416313) can1 21C#72FFF8000000008F
(1530386566.416546) can1 21D#72FFF80000000090
(1530386566.417313) can1 21E#72FFF80000000091
(1530386566.417546) can1 21F#72FFF80000000092
(1530386566.418313) can1 220#720000000000009C
(1530386566.418547) can1 221#720000000000009D
(1530386566.419313) can1 222#720000000000009E
(1530386566.419524) can1 223#720000000000009F
(1530386566.420292) can1 224#72000000000000A0
(1530386566.420548) can1 225#72000000000000A1
(1530386566.421315) can1 226#72000000000000A2
(1530386566.421547) can1 227#72000000000000A3
(1530386566.422412) can1 228#7200000000A2
(1530386566.422473) can1 229#7200000000A3
(1530386566.423483) can1 22A#7200000000A4
(1530386566.423488) can1 22B#7200000000A5
(1530386566.424357) can1 22C#7200000000A6
(1530386566.424520) can1 22D#7200000000A7
(1530386566.425310) can1 22E#7200000000A8
(1530386566.425530) can1 22F#7200000000A9
(1530386566.426320) can1 123#0108050D400086
(1530386566.426502) can1 230#727FFF0D7600AC
(1530386566.427372) can1 231#720000FF000002AE
(1530386566.427624) can1 232#7200FE00FE00FEA8
(1530386566.428301) can1 3D0#B980808080808094
(1530386566.428546) can1 3D1#B980808080808095
(1530386566.429320) can1 3D2#B980808080808096
(1530386566.429540) can1 3D3#B980808080808097
(1530386566.460502) can1 210#73FFF80000000084
(1530386566.460579) can1 211#73FFF80000000085
(1530386566.461317) can1 212#73FFF80000000086
(1530386566.461601) can1 213#73FFF80000000087
(1530386566.462429) can1 214#73FFF80000000088
(1530386566.462573) can1 215#73FFF80000000089
(1530386566.463322) can1 216#73FFF8000000008A
(1530386566.463587) can1 217#73FFF8000000008B
(1530386566.464337) can1 218#73FFF8000000008C
(1530386566.464609) can1 219#73FFF8000000008D
(1530386566.465370) can1 21A#73FFF8000000008E
(1530386566.465587) can1 21B#73FFF8000000008F
(1530386566.466353) can1 21C#73FFF80000000090
(1530386566.466595) can1 21D#73FFF80000000091
(1530386566.467370) can1 21E#73FFF80000000092
(1530386566.467637) can1 21F#73FFF80000000093
(1530386566.468350) can1 220#730000000000009D
(1530386566.468581) can1 221#730000000000009E
(1530386566.469340) can1 222#730000000000009F
(1530386566.469637) can1 223#73000000000000A0
(1530386566.470340) can1 224#73000000000000A1
(1530386566.470614) can1 225#73000000000000A2
(1530386566.471350) can1 226#73000000000000A3
(1530386566.471590) can1 227#73000000000000A4
(1530386566.472424) can1 228#7300000000A3
(1530386566.472470) can1 229#7300000000A4
(1530386566.473418) can1 22A#7300000000A5
(1530386566.473463) can1 22B#7300000000A6
(1530386566.474378) can1 22C#7300000000A7
(1530386566.474540) can1 22D#7300000000A8
(1530386566.475379) can1 22E#7300000000A9
(1530386566.475535) can1 22F#7300000000AA
(1530386566.476372) can1 230#737FFF0D7700AE
(1530386566.476621) can1 231#730000FF000002AF
(1530386566.477351) can1 232#7300FE00FE00FEA9
(1530386566.510460) can1 210#74FFF80000000085
(1530386566.510540) can1 211#74FFF80000000086
(1530386566.511350) can1 212#74FFF80000000087
(1530386566.511563) can1 213#74FFF80000000088
(1530386566.512326) can1 214#74FFF80000000089
(1530386566.512540) can1 215#74FFF8000000008A
(1530386566.513308) can1 216#74FFF8000000008B
(1530386566.513559) can1 217#74FFF8000000008C
(1530386566.514324) can1 218#74FFF8000000008D
(1530386566.514540) can1 219#74FFF8000000008E
(1530386566.515300) can1 21A#74FFF8000000008F
(1530386566.515562) can1 21B#74FFF80000000090
(1530386566.516311) can1 21C#74FFF80000000091
(1530386566.516594) can1 21D#74FFF80000000092
(1530386566.517301) can1 21E#74FFF80000000093
(1530386566.517561) can1 21F#74FFF80000000094
(1530386566.518311) can1 220#740000000000009E
(1530386566.518606) can1 221#740000000000009F
(1530386566.519312) can1 222#74000000000000A0
(1530386566.519550) can1 223#74000000000000A1
(1530386566.520302) can1 224#74000000000000A2
(1530386566.520564) can1 225#74000000000000A3
(1530386566.521317) can1 226#74000000000000A4
(1530386566.521558) can1 227#74000000000000A5
(1530386566.522361) can1 228#7400000000A4
(1530386566.522576) can1 229#7400000000A5
(1530386566.523363) can1 22A#7400000000A6
(1530386566.523530) can1 22B#7400000000A7
(1530386566.524358) can1 22C#7400000000A8
(1530386566.524532) can1 22D#7400000000A9
(1530386566.525370) can1 22E#7400000000AA
(1530386566.525565) can1 22F#7400000000AB
(1530386566.526359) can1 123#0108050D400086
(1530386566.526549) can1 230#747FFF0D7800B0
(1530386566.527356) can1 231#740000FF000002B0
(1530386566.527626) can1 232#7400FE00FE00FEAA
(1530386566.528408) can1 3D0#BA80808080808095
(1530386566.528547) can1 3D1#BA80808080808096
(1530386566.529295) can1 3D2#BA80808080808097
(1530386566.529534) can1 3D3#BA80808080808098
(1530386566.560363) can1 210#75FFF80000000086
(1530386566.560623) can1 211#75FFF80000000087
(1530386566.561426) can1 212#75FFF80000000088
(1530386566.561597) can1 213#75FFF80000000089
(1530386566.562338) can1 214#75FFF8000000008A
(1530386566.562556) can1 215#75FFF8000000008B
(1530386566.563305) can1 216#75FFF8000000008C
(1530386566.563563) can1 217#75FFF8000000008D
(1530386566.564324) can1 218#75FFF8000000008E
(1530386566.564588) can1 219#75FFF8000000008F
(1530386566.565304) can1 21A#75FFF80000000090
(1530386566.565561) can1 21B#75FFF80000000091
(1530386566.566329) can1 21C#75FFF80000000092
(1530386566.566592) can1 21D#75FFF80000000093
(1530386566.567310) can1 21E#75FFF80000000094
(1530386566.567545) can1 21F#75FFF80000000095
(1530386566.568303) can1 220#750000000000009F
(1530386566.568560) can1 221#75000000000000A0
(1530386566.569380) can1 222#75000000000000A1
(1530386566.569636) can1 223#75000000000000A2
(1530386566.570384) can1 224#75000000000000A3
(1530386566.570622) can1 225#75000000000000A4
(1530386566.571576) can1 226#75000000000000A5
(1530386566.571580) can1 227#75000000000000A6
(1530386566.572458) can1 228#7500000000A5
(1530386566.572478) can1 229#7500000000A6
(1530386566.573443) can1 22A#7500000000A7
(1530386566.573503) can1 22B#7500000000A8
(1530386566.574356) can1 22C#7500000000A9
(1530386566.574565) can1 22D#7500000000AA
(1530386566.575364) can1 22E#7500000000AB
(1530386566.575571) can1 22F#7500000000AC
(1530386566.576370) can1 230#757FFF0D7900B2
(1530386566.576624) can1 231#750000FF000002B1
(1530386566.577385) can1 232#7500FE00FE00FEAB
(1530386566.610379) can1 210#76FFF80000000087
(1530386566.610636) can1 211#76FFF80000000088
(1530386566.611406) can1 212#76FFF80000000089
(1530386566.611552) can1 213#76FFF8000000008A
(1530386566.612336) can1 214#76FFF8000000008B
(1530386566.612592) can1 215#76FFF8000000008C
(1530386566.613329) can1 216#76FFF8000000008D
(1530386566.613593) can1 217#76FFF8000000008E
(1530386566.614308) can1 218#76FFF8000000008F
(1530386566.614566) can1 219#76FFF80000000090
(1530386566.615333) can1 21A#76FFF80000000091
(1530386566.615547) can1 21B#76FFF80000000092
(1530386566.616309) can1 21C#76FFF80000000093
(1530386566.616566) can1 21D#76FFF80000000094
(1530386566.617334) can1 21E#76FFF80000000095
(1530386566.617594) can1 21F#76FFF80000000096
(1530386566.618408) can1 220#76000000000000A0
(1530386566.618564) can1 221#76000000000000A1
(1530386566.619324) can1 222#76000000000000A2
(1530386566.619634) can1 223#76000000000000A3
(1530386566.620343) can1 224#76000000000000A4
(1530386566.620733) can1 225#76000000000000A5
(1530386566.621500) can1 226#76000000000000A6
(1530386566.621556) can1 227#76000000000000A7
(1530386566.622467) can1 228#7600000000A6
(1530386566.622488) can1 229#7600000000A7
(1530386566.623489) can1 22A#7600000000A8
(1530386566.623496) can1 22B#7600000000A9
(1530386566.624368) can1 22C#7600000000AA
(1530386566.624577) can1 22D#7600000000AB
(1530386566.625366) can1 22E#7600000000AC
(1530386566.625579) can1 22F#7600000000AD
(1530386566.626344) can1 123#0108050D400086
(1530386566.626548) can1 230#767FFF0D7A00B4
(1530386566.627382) can1 231#760000FF000002B2
(1530386566.627630) can1 232#7600FE00FE00FEAC
(1530386566.628326) can1 3D0#BB80808080808096
(1530386566.628570) can1 3D1#BB80808080808097
(1530386566.629321) can1 3D2#BB80808080808098
(1530386566.629551) can1 3D3#BB80808080808099
(1530386566.660461) can1 210#77FFF80000000088
(1530386566.660648) can1 211#77FFF80000000089
(1530386566.661444) can1 212#77FFF8000000008A
(1530386566.661632) can1 213#77FFF8000000008B
(1530386566.662428) can1 214#77FFF8000000008C
(1530386566.662566) can1 215#77FFF8000000008D
(1530386566.663325) can1 216#77FFF8000000008E
(1530386566.663569) can1 217#77FFF8000000008F
(1530386566.664327) can1 218#77FFF80000000090
(1530386566.664567) can1 219#77FFF80000000091
(1530386566.665327) can1 21A#77FFF80000000092
(1530386566.665571) can1 21B#77FFF80000000093
(1530386566.666321) can1 21C#77FFF80000000094
(1530386566.666605) can1 21D#77FFF80000000095
(1530386566.667316) can1 21E#77FFF80000000096
(1530386566.667574) can1 21F#77FFF80000000097
(1530386566.668340) can1 220#77000000000000A1
(1530386566.668602) can1 221#77000000000000A2
(1530386566.669379) can1 222#77000000000000A3
(1530386566.669560) can1 223#77000000000000A4
(1530386566.670417) can1 224#77000000000000A5
(1530386566.670628) can1 225#77000000000000A6
(1530386566.671464) can1 226#77000000000000A7
(1530386566.671597) can1 227#77000000000000A8
(1530386566.672460) can1 228#7700000000A7
(1530386566.672515) can1 229#7700000000A8
(1530386566.673458) can1 22A#7700000000A9
(1530386566.673512) can1 22B#7700000000AA
(1530386566.674369) can1 22C#7700000000AB
(1530386566.674586) can1 22D#7700000000AC
(1530386566.675377) can1 22E#7700000000AD
(1530386566.675550) can1 22F#7700000000AE
(1530386566.676371) can1 230#777FFF0D7B00B6
(1530386566.676649) can1 231#770000FF000002B3
(1530386566.677401) can1 232#7700FE00FE00FEAD
(1530386566.710478) can1 210#78FFF80000000089
(1530386566.710631) can1 211#78FFF8000000008A
(1530386566.711462) can1 212#78FFF8000000008B
(1530386566.711623) can1 213#78FFF8000000008C
(1530386566.712318) can1 214#78FFF8000000008D
(1530386566.712573) can1 215#78FFF8000000008E
(1530386566.713405) can1 216#78FFF8000000008F
(1530386566.713565) can1 217#78FFF80000000090
(1530386566.714335) can1 218#78FFF80000000091
(1530386566.714570) can1 219#78FFF80000000092
(1530386566.715345) can1 21A#78FFF80000000093
(1530386566.715607) can1 21B#78FFF80000000094
(1530386566.716315) can1 21C#78FFF80000000095
(1530386566.716572) can1 21D#78FFF80000000096
(1530386566.717333) can1 21E#78FFF80000000097
(1530386566.717571) can1 21F#78FFF80000000098
(1530386566.718331) can1 220#78000000000000A2
(1530386566.718572) can1 221#78000000000000A3
(1530386566.719336) can1 222#78000000000000A4
(1530386566.719571) can1 223#78000000000000A5
(1530386566.720335) can1 224#78000000000000A6
(1530386566.720571) can1 225#78000000000000A7
(1530386566.721342) can1 226#78000000000000A8
(1530386566.721564) can1 227#78000000000000A9
(1530386566.722282) can1 228#7800000000A8
(1530386566.722503) can1 229#7800000000A9
(1530386566.723306) can1 22A#7800000000AA
(1530386566.723506) can1 22B#7800000000AB
(1530386566.724377) can1 22C#7800000000AC
(1530386566.724564) can1 22D#7800000000AD
(1530386566.725377) can1 22E#7800000000AE
(1530386566.725578) can1 22F#7800000000AF
(1530386566.726378) can1 123#0108050D400086
(1530386566.726597) can1 230#787FFF0D7C00B8
(1530386566.727406) can1 231#780000FF000002B4
(1530386566.727635) can1 232#7800FE00FE00FEAE
(1530386566.728380) can1 3D0#BC80808080808097
(1530386566.728571) can1 3D1#BC80808080808098
(1530386566.729365) can1 3D2#BC80808080808099
(1530386566.729592) can1 3D3#BC8080808080809A
(1530386566.760483) can1 210#79FFF8000000008A
(1530386566.760632) can1 211#79FFF8000000008B
(1530386566.761404) can1 212#79FFF8000000008C
(1530386566.761593) can1 213#79FFF8000000008D
(1530386566.762388) can1 214#79FFF8000000008E
(1530386566.762655) can1 215#79FFF8000000008F
(1530386566.763372) can1 216#79FFF80000000090
(1530386566.763611) can1 217#79FFF80000000091
(1530386566.764378) can1 218#79FFF80000000092
(1530386566.764616) can1 219#79FFF80000000093
(1530386566.765399) can1 21A#79FFF80000000094
(1530386566.765615) can1 21B#79FFF80000000095
(1530386566.766479) can1 21C#79FFF80000000096
(1530386566.766635) can1 21D#79FFF80000000097
(1530386566.767389) can1 21E#79FFF80000000098
(1530386566.767615) can1 21F#79FFF80000000099
(1530386566.768389) can1 220#79000000000000A3
(1530386566.768578) can1 221#79000000000000A4
(1530386566.769379) can1 222#79000000000000A5
(1530386566.769601) can1 223#79000000000000A6
(1530386566.770372) can1 224#79000000000000A7
(1530386566.770613) can1 225#79000000000000A8
(1530386566.771456) can1 226#79000000000000A9
(1530386566.771669) can1 227#79000000000000AA
(1530386566.772380) can1 228#7900000000A9
(1530386566.772589) can1 229#7900000000AA
(1530386566.773410) can1 22A#7900000000AB
(1530386566.773566) can1 22B#7900000000AC
(1530386566.774396) can1 22C#7900000000AD
(1530386566.774587) can1 22D#7900000000AE
(1530386566.775385) can1 22E#7900000000AF
(1530386566.775574) can1 22F#7900000000B0
(1530386566.776378) can1 230#797FFF0D7D00BA
(1530386566.776652) can1 231#790000FF000002B5
(1530386566.777448) can1 232#7900FE00FE00FEAF
(1530386566.810572) can1 210#7AFFF8000000008B
(1530386566.810620) can1 211#7AFFF8000000008C
(1530386566.811510) can1 212#7AFFF8000000008D
(1530386566.811581) can1 213#7AFFF8000000008E
(1530386566.812344) can1 214#7AFFF8000000008F
(1530386566.812598) can1 215#7AFFF80000000090
(1530386566.813323) can1 216#7AFFF80000000091
(1530386566.813583) can1 217#7AFFF80000000092
(1530386566.814350) can1 218#7AFFF80000000093
(1530386566.814664) can1 219#7AFFF80000000094
(1530386566.815362) can1 21A#7AFFF80000000095
(1530386566.815602) can1 21B#7AFFF80000000096
(1530386566.816456) can1 21C#7AFFF80000000097
(1530386566.816612) can1 21D#7AFFF80000000098
(1530386566.817377) can1 21E#7AFFF80000000099
(1530386566.817611) can1 21F#7AFFF8000000009A
(1530386566.818400) can1 220#7A000000000000A4
(1530386566.818641) can1 221#7A000000000000A5
(1530386566.819396) can1 222#7A000000000000A6
(1530386566.819627) can1 223#7A000000000000A7
(1530386566.820383) can1 224#7A000000000000A8
(1530386566.820601) can1 225#7A000000000000A9
(1530386566.821382) can1 226#7A000000000000AA
(1530386566.821660) can1 227#7A000000000000AB
(1530386566.822383) can1 228#7A00000000AA
(1530386566.822509) can1 229#7A00000000AB
(1530386566.823375) can1 22A#7A00000000AC
(1530386566.823568) can1 22B#7A00000000AD
(1530386566.824329) can1 22C#7A00000000AE
(1530386566.824588) can1 22D#7A00000000AF
(1530386566.825346) can1 22E#7A00000000B0
(1530386566.825540) can1 22F#7A00000000B1
(1530386566.826334) can1 123#0108050D400086
(1530386566.826630) can1 230#7A7FFF0D7E00BC
(1530386566.827338) can1 231#7A0000FF000002B6
(1530386566.827584) can1 232#7A00FE00FE00FEB0
(1530386566.828333) can1 3D0#BD80808080808098
(1530386566.828591) can1 3D1#BD80808080808099
(1530386566.829384) can1 3D2#BD8080808080809A
(1530386566.829601) can1 3D3#BD8080808080809B
(1530386566.860467) can1 210#7BFFF8000000008C
(1530386566.860629) can1 211#7BFFF8000000008D
(1530386566.861409) can1 212#7BFFF8000000008E
(1530386566.861598) can1 213#7BFFF8000000008F
(1530386566.862350) can1 214#7BFFF80000000090
(1530386566.862631) can1 215#7BFFF80000000091
(1530386566.863351) can1 216#7BFFF80000000092
(1530386566.863614) can1 217#7BFFF80000000093
(1530386566.864429) can1 218#7BFFF80000000094
(1530386566.864590) can1 219#7BFFF80000000095
(1530386566.865428) can1 21A#7BFFF80000000096
(1530386566.865581) can1 21B#7BFFF80000000097
(1530386566.866341) can1 21C#7BFFF80000000098
(1530386566.866582) can1 21D#7BFFF80000000099
(1530386566.867354) can1 21E#7BFFF8000000009A
(1530386566.867616) can1 21F#7BFFF8000000009B
(1530386566.868336) can1 220#7B000000000000A5
(1530386566.868569) can1 221#7B000000000000A6
(1530386566.869328) can1 222#7B000000000000A7
(1530386566.869585) can1 223#7B000000000000A8
(1530386566.870337) can1 224#7B000000000000A9
(1530386566.870574) can1 225#7B000000000000AA
(1530386566.871428) can1 226#7B000000000000AB
(1530386566.871591) can1 227#7B000000000000AC
(1530386566.872328) can1 228#7B00000000AB
(1530386566.872527) can1 229#7B00000000AC
(1530386566.873329) can1 22A#7B00000000AD
(1530386566.873490) can1 22B#7B00000000AE
(1530386566.874339) can1 22C#7B00000000AF
(1530386566.874518) can1 22D#7B00000000B0
(1530386566.875329) can1 22E#7B00000000B1
(1530386566.875536) can1 22F#7B00000000B2
(1530386566.876338) can1 230#7B7FFF0D7F00BE
(1530386566.876576) can1 231#7B0000FF000002B7
(1530386566.877336) can1 232#7B00FE00FE00FEB1
(1530386566.910436) can1 210#7CFFF8000000008D
(1530386566.910594) can1 211#7CFFF8000000008E
(1530386566.911432) can1 212#7CFFF8000000008F
(1530386566.911617) can1 213#7CFFF80000000090
(1530386566.912416) can1 214#7CFFF80000000091
(1530386566.912621) can1 215#7CFFF80000000092
(1530386566.913432) can1 216#7CFFF80000000093
(1530386566.913603) can1 217#7CFFF80000000094
(1530386566.914359) can1 218#7CFFF80000000095
(1530386566.914623) can1 219#7CFFF80000000096
(1530386566.915339) can1 21A#7CFFF80000000097
(1530386566.915625) can1 21B#7CFFF80000000098
(1530386566.916342) can1 21C#7CFFF80000000099
(1530386566.916579) can1 21D#7CFFF8000000009A
(1530386566.917332) can1 21E#7CFFF8000000009B
(1530386566.917591) can1 21F#7CFFF8000000009C
(1530386566.918343) can1 220#7C000000000000A6
(1530386566.918624) can1 221#7C000000000000A7
(1530386566.919434) can1 222#7C000000000000A8
(1530386566.919587) can1 223#7C000000000000A9
(1530386566.920352) can1 224#7C000000000000AA
(1530386566.920588) can1 225#7C000000000000AB
(1530386566.921356) can1 226#7C000000000000AC
(1530386566.921621) can1 227#7C000000000000AD
(1530386566.922340) can1 228#7C00000000AC
(1530386566.922525) can1 229#7C00000000AD
(1530386566.923334) can1 22A#7C00000000AE
(1530386566.923541) can1 22B#7C00000000AF
(1530386566.924310) can1 22C#7C00000000B0
(1530386566.924539) can1 22D#7C00000000B1
(1530386566.925323) can1 22E#7C00000000B2
(1530386566.925525) can1 22F#7C00000000B3
(1530386566.926341) can1 123#0108050D400086
(1530386566.926577) can1 230#7C7FFF0D8000C0
(1530386566.927343) can1 231#7C0000FF000002B8
(1530386566.927625) can1 232#7C00FE00FE00FEB2
(1530386566.928335) can1 3D0#BE80808080808099
(1530386566.928592) can1 3D1#BE8080808080809A
(1530386566.929361) can1 3D2#BE8080808080809B
(1530386566.929573) can1 3D3#BE8080808080809C
(1530386566.960440) can1 210#7DFFF8000000008E
(1530386566.960641) can1 211#7DFFF8000000008F
(1530386566.961447) can1 212#7DFFF80000000090
(1530386566.961611) can1 213#7DFFF80000000091
(1530386566.962424) can1 214#7DFFF80000000092
(1530386566.962641) can1 215#7DFFF80000000093
(1530386566.963346) can1 216#7DFFF80000000094
(1530386566.963585) can1 217#7DFFF80000000095
(1530386566.964352) can1 218#7DFFF80000000096
(1530386566.964592) can1 219#7DFFF80000000097
(1530386566.965363) can1 21A#7DFFF80000000098
(1530386566.965627) can1 21B#7DFFF80000000099
(1530386566.966344) can1 21C#7DFFF8000000009A
(1530386566.966629) can1 21D#7DFFF8000000009B
(1530386566.967345) can1 21E#7DFFF8000000009C
(1530386566.967585) can1 21F#7DFFF8000000009D
(1530386566.968350) can1 220#7D000000000000A7
(1530386566.968631) can1 221#7D000000000000A8
(1530386566.969353) can1 222#7D000000000000A9
(1530386566.969593) can1 223#7D000000000000AA
(1530386566.970368) can1 224#7D000000000000AB
(1530386566.970627) can1 225#7D000000000000AC
(1530386566.971360) can1 226#7D000000000000AD
(1530386566.971594) can1 227#7D000000000000AE
(1530386566.972327) can1 228#7D00000000AD
(1530386566.972517) can1 229#7D00000000AE
(1530386566.973351) can1 22A#7D00000000AF
(1530386566.973543) can1 22B#7D00000000B0
(1530386566.974365) can1 22C#7D00000000B1
(1530386566.974528) can1 22D#7D00000000B2
(1530386566.975340) can1 22E#7D00000000B3
(1530386566.975557) can1 22F#7D00000000B4
(1530386566.976440) can1 230#7D7FFF0D8100C2
(1530386566.976600) can1 231#7D0000FF000002B9
(1530386566.977438) can1 232#7D00FE00FE00FEB3
(1530386567.010478) can1 210#7EFFF8000000008F
(1530386567.010644) can1 211#7EFFF80000000090
(1530386567.011470) can1 212#7EFFF80000000091
(1530386567.011602) can1 213#7EFFF80000000092
(1530386567.012445) can1 214#7EFFF80000000093
(1530386567.012607) can1 215#7EFFF80000000094
(1530386567.013427) can1 216#7EFFF80000000095
(1530386567.013596) can1 217#7EFFF80000000096
(1530386567.014366) can1 218#7EFFF80000000097
(1530386567.014628) can1 219#7EFFF80000000098
(1530386567.015345) can1 21A#7EFFF80000000099
(1530386567.015619) can1 21B#7EFFF8000000009A
(1530386567.016459) can1 21C#7EFFF8000000009B
(1530386567.016628) can1 21D#7EFFF8000000009C
(1530386567.017403) can1 21E#7EFFF8000000009D
(1530386567.017624) can1 21F#7EFFF8000000009E
(1530386567.018400) can1 220#7E000000000000A8
(1530386567.018674) can1 221#7E000000000000A9
(1530386567.019358) can1 222#7E000000000000AA
(1530386567.019631) can1 223#7E000000000000AB
(1530386567.020407) can1 224#7E000000000000AC
(1530386567.020628) can1 225#7E000000000000AD
(1530386567.021461) can1 226#7E000000000000AE
(1530386567.021626) can1 227#7E000000000000AF
(1530386567.022420) can1 228#7E00000000AE
(1530386567.022551) can1 229#7E00000000AF
(1530386567.023362) can1 22A#7E00000000B0
(1530386567.023582) can1 22B#7E00000000B1
(1530386567.024409) can1 22C#7E00000000B2
(1530386567.024556) can1 22D#7E00000000B3
(1530386567.025381) can1 22E#7E00000000B4
(1530386567.025583) can1 22F#7E00000000B5
(1530386567.026404) can1 123#0108050D400086
(1530386567.026619) can1 230#7E7FFF0D8200C4
(1530386567.027400) can1 231#7E0000FF000002BA
(1530386567.027617) can1 232#7E00FE00FE00FEB4
(1530386567.028354) can1 3D0#BF8080808080809A
(1530386567.028607) can1 3D1#BF8080808080809B
(1530386567.029373) can1 3D2#BF8080808080809C
(1530386567.029606) can1 3D3#BF8080808080809D
(1530386567.060482) can1 210#7FFFF80000000090
(1530386567.060649) can1 211#7FFFF80000000091
(1530386567.061479) can1 212#7FFFF80000000092
(1530386567.061648) can1 213#7FFFF80000000093
(1530386567.062379) can1 214#7FFFF80000000094
(1530386567.062646) can1 215#7FFFF80000000095
(1530386567.063353) can1 216#7FFFF80000000096
(1530386567.063610) can1 217#7FFFF80000000097
(1530386567.064376) can1 218#7FFFF80000000098
(1530386567.064610) can1 219#7FFFF80000000099
(1530386567.065376) can1 21A#7FFFF8000000009A
(1530386567.065628) can1 21B#7FFFF8000000009B
(1530386567.066417) can1 21C#7FFFF8000000009C
(1530386567.066686) can1 21D#7FFFF8000000009D
(1530386567.067417) can1 21E#7FFFF8000000009E
(1530386567.067684) can1 21F#7FFFF8000000009F
(1530386567.068416) can1 220#7F000000000000A9
(1530386567.068632) can1 221#7F000000000000AA
(1530386567.069417) can1 222#7F000000000000AB
(1530386567.069631) can1 223#7F000000000000AC
(1530386567.070366) can1 224#7F000000000000AD
(1530386567.070636) can1 225#7F000000000000AE
(1530386567.071416) can1 226#7F000000000000AF
(1530386567.071633) can1 227#7F000000000000B0
(1530386567.072380) can1 228#7F00000000AF
(1530386567.072564) can1 229#7F00000000B0
(1530386567.073406) can1 22A#7F00000000B1
(1530386567.073567) can1 22B#7F00000000B2
(1530386567.074354) can1 22C#7F00000000B3
(1530386567.074587) can1 22D#7F00000000B4
(1530386567.075367) can1 22E#7F00000000B5
(1530386567.075587) can1 22F#7F00000000B6
(1530386567.076416) can1 230#7F7FFF0D8300C6
(1530386567.076602) can1 231#7F0000FF000002BB
(1530386567.077416) can1 232#7F00FE00FE00FEB5
(1530386567.110600) can1 210#80FFF80000000091
(1530386567.110708) can1 211#80FFF80000000092
(1530386567.111476) can1 212#80FFF80000000093
(1530386567.111636) can1 213#80FFF80000000094
(1530386567.112461) can1 214#80FFF80000000095
(1530386567.112676) can1 215#80FFF80000000096
(1530386567.113415) can1 216#80FFF80000000097
(1530386567.113642) can1 217#80FFF80000000098
(1530386567.114421) can1 218#80FFF80000000099
(1530386567.114635) can1 219#80FFF8000000009A
(1530386567.115416) can1 21A#80FFF8000000009B
(1530386567.115634) can1 21B#80FFF8000000009C
(1530386567.116530) can1 21C#80FFF8000000009D
(1530386567.116820) can1 21D#80FFF8000000009E
(1530386567.117593) can1 21E#80FFF8000000009F
(1530386567.117727) can1 21F#80FFF800000000A0
(1530386567.118545) can1 220#80000000000000AA
(1530386567.118644) can1 221#80000000000000AB
(1530386567.119536) can1 222#80000000000000AC
(1530386567.119641) can1 223#80000000000000AD
(1530386567.120422) can1 224#80000000000000AE
(1530386567.120819) can1 225#80000000000000AF
(1530386567.121432) can1 226#80000000000000B0
(1530386567.121801) can1 227#80000000000000B1
(1530386567.122492) can1 228#8000000000B0
(1530386567.122549) can1 229#8000000000B1
(1530386567.123520) can1 22A#8000000000B2
(1530386567.123608) can1 22B#8000000000B3
(1530386567.124496) can1 22C#8000000000B4
(1530386567.124634) can1 22D#8000000000B5
(1530386567.125517) can1 22E#8000000000B6
(1530386567.125536) can1 22F#8000000000B7
(1530386567.126511) can1 123#0108050D400086
(1530386567.126642) can1 230#807FFF0D8400C8
(1530386567.127531) can1 231#800000FF000002BC
(1530386567.127682) can1 232#8000FE00FE00FEB6
(1530386567.128530) can1 3D0#C08080808080809B
(1530386567.128595) can1 3D1#C08080808080809C
(1530386567.129441) can1 3D2#C08080808080809D
(1530386567.129646) can1 3D3#C08080808080809E
(1530386567.160691) can1 210#81FFF80000000092
(1530386567.160694) can1 211#81FFF80000000093
(1530386567.161553) can1 212#81FFF80000000094
(1530386567.161663) can1 213#81FFF80000000095
(1530386567.162428) can1 214#81FFF80000000096
(1530386567.162664) can1 215#81FFF80000000097
(1530386567.163430) can1 216#81FFF80000000098
(1530386567.163643) can1 217#81FFF80000000099
(1530386567.164395) can1 218#81FFF8000000009A
(1530386567.164645) can1 219#81FFF8000000009B
(1530386567.165425) can1 21A#81FFF8000000009C
(1530386567.165644) can1 21B#81FFF8000000009D
(1530386567.166418) can1 21C#81FFF8000000009E
(1530386567.166695) can1 21D#81FFF8000000009F
(1530386567.167430) can1 21E#81FFF800000000A0
(1530386567.167645) can1 21F#81FFF800000000A1
(1530386567.168485) can1 220#81000000000000AB
(1530386567.168643) can1 221#81000000000000AC
(1530386567.169468) can1 222#81000000000000AD
(1530386567.169697) can1 223#81000000000000AE
(1530386567.170475) can1 224#81000000000000AF
(1530386567.170731) can1 225#81000000000000B0
(1530386567.171649) can1 226#81000000000000B1
(1530386567.171653) can1 227#81000000000000B2
(1530386567.172429) can1 228#8100000000B1
(1530386567.172617) can1 229#8100000000B2
(1530386567.173433) can1 22A#8100000000B3
(1530386567.173638) can1 22B#8100000000B4
(1530386567.174471) can1 22C#8100000000B5
(1530386567.174583) can1 22D#8100000000B6
(1530386567.175404) can1 22E#8100000000B7
(1530386567.175668) can1 22F#8100000000B8
(1530386567.176461) can1 230#817FFF0D8500CA
(1530386567.176692) can1 231#810000FF000002BD
(1530386567.177489) can1 232#8100FE00FE00FEB7
(1530386567.210469) can1 210#82FFF80000000093
(1530386567.210669) can1 211#82FFF80000000094
(1530386567.211378) can1 212#82FFF80000000095
(1530386567.211650) can1 213#82FFF80000000096
(1530386567.212497) can1 214#82FFF80000000097
(1530386567.212618) can1 215#82FFF80000000098
(1530386567.213391) can1 216#82FFF80000000099
(1530386567.213651) can1 217#82FFF8000000009A
(1530386567.214514) can1 218#82FFF8000000009B
(1530386567.214702) can1 219#82FFF8000000009C
(1530386567.215498) can1 21A#82FFF8000000009D
(1530386567.215715) can1 21B#82FFF8000000009E
(1530386567.216442) can1 21C#82FFF8000000009F
(1530386567.216698) can1 21D#82FFF800000000A0
(1530386567.217401) can1 21E#82FFF800000000A1
(1530386567.217656) can1 21F#82FFF800000000A2
(1530386567.218438) can1 220#82000000000000AC
(1530386567.218711) can1 221#82000000000000AD
(1530386567.219442) can1 222#82000000000000AE
(1530386567.219667) can1 223#82000000000000AF
(1530386567.220443) can1 224#82000000000000B0
(1530386567.220663) can1 225#82000000000000B1
(1530386567.221407) can1 226#82000000000000B2
(1530386567.221685) can1 227#82000000000000B3
(1530386567.222409) can1 228#8200000000B2
(1530386567.222600) can1 229#8200000000B3
(1530386567.223428) can1 22A#8200000000B4
(1530386567.223625) can1 22B#8200000000B5
(1530386567.224443) can1 22C#8200000000B6
(1530386567.224617) can1 22D#8200000000B7
(1530386567.225416) can1 22E#8200000000B8
(1530386567.225598) can1 22F#8200000000B9
(1530386567.226435) can1 123#0108050D400086
(1530386567.226655) can1 230#827FFF0D8600CC
(1530386567.227439) can1 231#820000FF000002BE
(1530386567.227680) can1 232#8200FE00FE00FEB8
(1530386567.228493) can1 3D0#C18080808080809C
(1530386567.228651) can1 3D1#C18080808080809D
(1530386567.229408) can1 3D2#C18080808080809E
(1530386567.229615) can1 3D3#C18080808080809F
(1530386567.260516) can1 210#83FFF80000000094
(1530386567.260664) can1 211#83FFF80000000095
(1530386567.261531) can1 212#83FFF80000000096
(1530386567.261751) can1 213#83FFF80000000097
(1530386567.262402) can1 214#83FFF80000000098
(1530386567.262662) can1 215#83FFF80000000099
(1530386567.263474) can1 216#83FFF8000000009A
(1530386567.263634) can1 217#83FFF8000000009B
(1530386567.264386) can1 218#83FFF8000000009C
(1530386567.264635) can1 219#83FFF8000000009D
(1530386567.265401) can1 21A#83FFF8000000009E
(1530386567.265668) can1 21B#83FFF8000000009F
(1530386567.266475) can1 21C#83FFF800000000A0
(1530386567.266632) can1 21D#83FFF800000000A1
(1530386567.267479) can1 21E#83FFF800000000A2
(1530386567.267682) can1 21F#83FFF800000000A3
(1530386567.268476) can1 220#83000000000000AD
(1530386567.268632) can1 221#83000000000000AE
(1530386567.269406) can1 222#83000000000000AF
(1530386567.269660) can1 223#83000000000000B0
(1530386567.270474) can1 224#83000000000000B1
(1530386567.270629) can1 225#83000000000000B2
(1530386567.271491) can1 226#83000000000000B3
(1530386567.271720) can1 227#83000000000000B4
(1530386567.272371) can1 228#8300000000B3
(1530386567.272579) can1 229#8300000000B4
(1530386567.273479) can1 22A#8300000000B5
(1530386567.273641) can1 22B#8300000000B6
(1530386567.274485) can1 22C#8300000000B7
(1530386567.274643) can1 22D#8300000000B8
(1530386567.275484) can1 22E#8300000000B9
(1530386567.275634) can1 22F#8300000000BA
(1530386567.276406) can1 230#837FFF0D8700CE
(1530386567.276627) can1 231#830000FF000002BF
(1530386567.277504) can1 232#8300FE00FE00FEB9
(1530386567.310716) can1 210#84FFF80000000095
(1530386567.310720) can1 211#84FFF80000000096
(1530386567.311573) can1 212#84FFF80000000097
(1530386567.311711) can1 213#84FFF80000000098
(1530386567.312388) can1 214#84FFF80000000099
(1530386567.312627) can1 215#84FFF8000000009A
(1530386567.313398) can1 216#84FFF8000000009B
(1530386567.313662) can1 217#84FFF8000000009C
