(1533603734.219238) can1 344#0000010000000050
(1533603734.219954) can1 141#00000046
(1533603734.232506) can1 141#00000046
(1533603734.233659) can1 128#F40190830037
(1533603734.234302) can1 283#0000000000008C
(1533603734.234986) can1 160#0000081201319C51
(1533603734.235657) can1 161#001E0000008007
(1533603734.236485) can1 210#3E00B6FF63FFE150
(1533603734.236732) can1 211#3EFFF80000000050
(1533603734.237467) can1 212#3EFFF80000000051
(1533603734.237683) can1 213#3EFFF80000000052
(1533603734.238446) can1 214#3EFFF80000000053
(1533603734.238659) can1 215#3EFFF80000000054
(1533603734.239486) can1 216#3EFFF80000000055
(1533603734.239745) can1 217#3EFFF80000000056
(1533603734.240467) can1 218#3E00C6FF00000126
(1533603734.240676) can1 219#3E00BA018000019D
(1533603734.241475) can1 21A#3E00CE0060000191
(1533603734.241701) can1 21B#3EFFF8000000005A
(1533603734.242459) can1 21C#3EFFF8000000005B
(1533603734.242693) can1 21D#3EFFF8000000005C
(1533603734.243433) can1 21E#3EFFF8000000005D
(1533603734.243694) can1 21F#3EFFF8000000005E
(1533603734.244439) can1 220#3E00640000040CDC
(1533603734.244656) can1 221#3E00000000000069
(1533603734.245457) can1 222#3E0000000000006A
(1533603734.245701) can1 223#3E0000000000006B
(1533603734.246455) can1 224#3E0000000000006C
(1533603734.246690) can1 225#3E0000000000006D
(1533603734.247431) can1 226#3E0000000000006E
(1533603734.247690) can1 227#3E0000000000006F
(1533603734.248383) can1 228#3E005A12C49E
(1533603734.248581) can1 229#3E005A12C8A3
(1533603734.249405) can1 22A#3E006412482E
(1533603734.249652) can1 22B#3E0000000071
(1533603734.250403) can1 22C#3E0000000072
(1533603734.250652) can1 22D#3E0000000073
(1533603734.251391) can1 22E#3E0000000074
(1533603734.251652) can1 22F#3E0000000075
(1533603734.252402) can1 123#0108090D40008A
(1533603734.252652) can1 230#3E7FFF4842007F
(1533603734.253445) can1 231#3E01FEF00000026A
(1533603734.253655) can1 232#3E00FE00FE00FE74
(1533603734.254455) can1 3D0#1F808080808080FA
(1533603734.254694) can1 3D1#1F808080808080FB
(1533603734.255441) can1 3D2#1F808080808080FC
(1533603734.255699) can1 3D3#1F808080808080FD
(1533603734.257732) can1 141#00000046
(1533603734.258346) can1 344#0000010000000050
(1533603734.267966) can1 128#F40190830037
(1533603734.268975) can1 283#0000000000008C
(1533603734.273780) can1 141#00000046
(1533603734.286449) can1 210#3F00B6FF63FFE151
(1533603734.286693) can1 211#3FFFF80000000051
(1533603734.287498) can1 212#3FFFF80000000052
(1533603734.287683) can1 213#3FFFF80000000053
(1533603734.288473) can1 214#3FFFF80000000054
(1533603734.288688) can1 215#3FFFF80000000055
(1533603734.289480) can1 216#3FFFF80000000056
(1533603734.289722) can1 217#3FFFF80000000057
(1533603734.290463) can1 218#3F00C6FF00000127
(1533603734.290678) can1 219#3F00BA018000019E
(1533603734.291482) can1 21A#3F00CE0060000192
(1533603734.291674) can1 21B#3FFFF8000000005B
(1533603734.292468) can1 21C#3FFFF8000000005C
(1533603734.292726) can1 21D#3FFFF8000000005D
(1533603734.293446) can1 21E#3FFFF8000000005E
(1533603734.293684) can1 21F#3FFFF8000000005F
(1533603734.294433) can1 141#00000046
(1533603734.294470) can1 220#3F00640000040CDD
(1533603734.294892) can1 221#3F0000000000006A
(1533603734.295060) can1 128#F40190830037
(1533603734.295540) can1 222#3F0000000000006B
(1533603734.295748) can1 283#0000000000008C
(1533603734.295856) can1 223#3F0000000000006C
(1533603734.296431) can1 224#3F0000000000006D
(1533603734.296689) can1 225#3F0000000000006E
(1533603734.297484) can1 226#3F0000000000006F
(1533603734.297715) can1 227#3F00000000000070
(1533603734.298373) can1 228#3F005C12C4A1
(1533603734.298600) can1 229#3F005C12C8A6
(1533603734.299433) can1 22A#3F006412482F
(1533603734.299686) can1 22B#3F0000000072
(1533603734.300439) can1 22C#3F0000000073
(1533603734.300699) can1 22D#3F0000000074
(1533603734.301425) can1 22E#3F0000000075
(1533603734.301689) can1 22F#3F0000000076
(1533603734.302452) can1 230#3F7FFF48430081
(1533603734.302688) can1 231#3F01FEF00000026B
(1533603734.303457) can1 232#3F00FE00FE00FE75
(1533603734.317676) can1 344#0000010000000050
(1533603734.318312) can1 160#0000081201319C51
(1533603734.318909) can1 161#001E0000008007
(1533603734.319418) can1 141#00000046
(1533603734.325364) can1 128#F40190830037
(1533603734.325998) can1 283#0000000000008C
(1533603734.335734) can1 141#00000046
(1533603734.336395) can1 210#4000B6FF63FFE152
(1533603734.336634) can1 211#40FFF80000000052
(1533603734.337436) can1 212#40FFF80000000053
(1533603734.337677) can1 213#40FFF80000000054
(1533603734.338456) can1 214#40FFF80000000055
(1533603734.338673) can1 215#40FFF80000000056
(1533603734.339432) can1 216#40FFF80000000057
(1533603734.339727) can1 217#40FFF80000000058
(1533603734.340486) can1 218#4000C6FF00000128
(1533603734.340660) can1 219#4000BA018000019F
(1533603734.341481) can1 21A#4000CE0060000193
(1533603734.341664) can1 21B#40FFF8000000005C
(1533603734.342395) can1 21C#40FFF8000000005D
(1533603734.342642) can1 21D#40FFF8000000005E
(1533603734.343405) can1 21E#40FFF8000000005F
(1533603734.343686) can1 21F#40FFF80000000060
(1533603734.344456) can1 220#4000640000040CDE
(1533603734.344635) can1 221#400000000000006B
(1533603734.345395) can1 222#400000000000006C
(1533603734.345643) can1 223#400000000000006D
(1533603734.346478) can1 224#400000000000006E
(1533603734.346693) can1 225#400000000000006F
(1533603734.347474) can1 226#4000000000000070
(1533603734.347678) can1 227#4000000000000071
(1533603734.348407) can1 228#40005D12C4A3
(1533603734.348673) can1 229#40005D12C8A8
(1533603734.349436) can1 22A#400064124830
(1533603734.349673) can1 22B#400000000073
(1533603734.350435) can1 22C#400000000074
(1533603734.350674) can1 22D#400000000075
(1533603734.351436) can1 22E#400000000076
(1533603734.351571) can1 22F#400000000077
(1533603734.352380) can1 123#0108090D40008A
(1533603734.352672) can1 230#407FFF48440083
(1533603734.353436) can1 231#4001FEF00000026C
(1533603734.353668) can1 232#4000FE00FE00FE76
(1533603734.354448) can1 3D0#20808080808080FB
(1533603734.354694) can1 3D1#20808080808080FC
(1533603734.355444) can1 3D2#20808080808080FD
(1533603734.355683) can1 3D3#20808080808080FE
(1533603734.356242) can1 141#00000046
(1533603734.356383) can1 128#F40190830037
(1533603734.356675) can1 283#0000000000008C
(1533603734.356760) can1 344#0000010000000050
(1533603734.356888) can1 365#00000080FC0008
(1533603734.357011) can1 366#007207FF09FE00
(1533603734.357153) can1 4CB#0C00000000000000
(1533603734.376818) can1 141#00000046
(1533603734.377508) can1 160#0000081201319C51
(1533603734.378174) can1 161#001E0000008007
(1533603734.386428) can1 210#4100B6FF63FFE153
(1533603734.386632) can1 211#41FFF80000000053
(1533603734.387440) can1 212#41FFF80000000054
(1533603734.387492) can1 128#F40190830037
(1533603734.387655) can1 213#41FFF80000000055
(1533603734.388435) can1 214#41FFF80000000056
(1533603734.388492) can1 283#0000000000008C
(1533603734.388635) can1 215#41FFF80000000057
(1533603734.389607) can1 216#41FFF80000000058
(1533603734.389679) can1 217#41FFF80000000059
(1533603734.390434) can1 218#4100C6FF00000129
(1533603734.390679) can1 219#4100BA01800001A0
(1533603734.391443) can1 21A#4100CE0060000194
(1533603734.391685) can1 21B#41FFF8000000005D
(1533603734.392394) can1 21C#41FFF8000000005E
(1533603734.392703) can1 21D#41FFF8000000005F
(1533603734.393427) can1 21E#41FFF80000000060
(1533603734.393707) can1 21F#41FFF80000000061
(1533603734.394445) can1 220#4100640000040CDF
(1533603734.394654) can1 221#410000000000006C
(1533603734.395429) can1 222#410000000000006D
(1533603734.395666) can1 223#410000000000006E
(1533603734.396484) can1 224#410000000000006F
(1533603734.396713) can1 225#4100000000000070
(1533603734.397481) can1 226#4100000000000071
(1533603734.397676) can1 227#4100000000000072
(1533603734.398050) can1 141#00000046
(1533603734.398422) can1 228#41005E12C4A5
(1533603734.398660) can1 229#41005E12C8AA
(1533603734.399414) can1 22A#410064124831
(1533603734.399672) can1 22B#410000000074
(1533603734.400416) can1 22C#410000000075
(1533603734.400653) can1 22D#410000000076
(1533603734.401443) can1 22E#410000000077
(1533603734.401627) can1 22F#410000000078
(1533603734.402427) can1 230#417FFF48450085
(1533603734.402660) can1 231#4101FEF00000026D
(1533603734.403425) can1 232#4100FE00FE00FE77
(1533603734.422886) can1 344#0000010000000050
(1533603734.423852) can1 141#00000046
(1533603734.424906) can1 128#F40190830037
(1533603734.426947) can1 283#0000000000008C
(1533603734.436440) can1 210#4200B6FF63FFE154
(1533603734.436651) can1 211#42FFF80000000054
(1533603734.437392) can1 212#42FFF80000000055
(1533603734.437662) can1 213#42FFF80000000056
(1533603734.438452) can1 214#42FFF80000000057
(1533603734.438679) can1 215#42FFF80000000058
(1533603734.439388) can1 216#42FFF80000000059
(1533603734.439647) can1 217#42FFF8000000005A
(1533603734.439751) can1 141#00000046
(1533603734.440439) can1 218#4200C6FF0000012A
(1533603734.440681) can1 219#4200BA01800001A1
(1533603734.441447) can1 21A#4200CE0060000195
(1533603734.441639) can1 21B#42FFF8000000005E
(1533603734.442428) can1 21C#42FFF8000000005F
(1533603734.442677) can1 21D#42FFF80000000060
(1533603734.443429) can1 21E#42FFF80000000061
(1533603734.443679) can1 21F#42FFF80000000062
(1533603734.444459) can1 220#4200640000040CE0
(1533603734.444674) can1 221#420000000000006D
(1533603734.445401) can1 222#420000000000006E
(1533603734.445627) can1 223#420000000000006F
(1533603734.446385) can1 224#4200000000000070
(1533603734.446672) can1 225#4200000000000071
(1533603734.447380) can1 226#4200000000000072
(1533603734.447627) can1 227#4200000000000073
(1533603734.448382) can1 228#42FE5F12C4A5
(1533603734.448531) can1 229#42FE5F12C8AA
(1533603734.449389) can1 22A#420064124832
(1533603734.449628) can1 22B#420000000075
(1533603734.450383) can1 22C#420000000076
(1533603734.450627) can1 22D#420000000077
(1533603734.451340) can1 22E#420000000078
(1533603734.451606) can1 22F#420000000079
(1533603734.452366) can1 123#0108090D40008A
(1533603734.452608) can1 230#427FFF48460087
(1533603734.453415) can1 231#4201FEF00000026E
(1533603734.453617) can1 232#4200FE00FE00FE78
(1533603734.454388) can1 3D0#21808080808080FC
(1533603734.454617) can1 3D1#21808080808080FD
(1533603734.455427) can1 3D2#21808080808080FE
(1533603734.455625) can1 3D3#21808080808080FF
(1533603734.465604) can1 128#F40190830037
(1533603734.466849) can1 283#0000000000008C
(1533603734.467661) can1 160#0000081201319C51
(1533603734.468473) can1 161#001E0000008007
(1533603734.469137) can1 141#00000046
(1533603734.469799) can1 344#0000010000000050
(1533603734.480655) can1 141#00000046
(1533603734.481284) can1 128#F40190830037
(1533603734.481854) can1 283#0000000000008C
(1533603734.486404) can1 210#4300B6FF63FFF165
(1533603734.486646) can1 211#43FFF80000000055
(1533603734.487448) can1 212#43FFF80000000056
(1533603734.487671) can1 213#43FFF80000000057
(1533603734.488476) can1 214#43FFF80000000058
(1533603734.488664) can1 215#43FFF80000000059
(1533603734.489406) can1 216#43FFF8000000005A
(1533603734.489611) can1 217#43FFF8000000005B
(1533603734.490370) can1 218#4300C6FF0000012B
(1533603734.490655) can1 219#4300BA01800001A2
(1533603734.491424) can1 21A#4300CE0060000196
(1533603734.491634) can1 21B#43FFF8000000005F
(1533603734.492422) can1 21C#43FFF80000000060
(1533603734.492618) can1 21D#43FFF80000000061
(1533603734.493420) can1 21E#43FFF80000000062
(1533603734.493642) can1 21F#43FFF80000000063
(1533603734.494424) can1 220#4302640000040CE3
(1533603734.494632) can1 221#430000000000006E
(1533603734.495412) can1 222#430000000000006F
(1533603734.495660) can1 223#4300000000000070
(1533603734.496411) can1 224#4300000000000071
(1533603734.496707) can1 225#4300000000000072
(1533603734.497379) can1 226#4300000000000073
(1533603734.497648) can1 227#4300000000000074
(1533603734.498379) can1 228#43006012C4A9
(1533603734.498575) can1 229#43006012C8AE
(1533603734.499397) can1 22A#430064124833
(1533603734.499650) can1 22B#430000000076
(1533603734.500404) can1 22C#430000000077
(1533603734.500640) can1 22D#430000000078
(1533603734.501148) can1 141#00000046
(1533603734.501524) can1 22E#430000000079
(1533603734.501741) can1 22F#43000000007A
(1533603734.502415) can1 230#437FFF48470089
(1533603734.502661) can1 231#4301FEF00000026F
(1533603734.503418) can1 232#4300FE00FE00FE79
(1533603734.528765) can1 128#F40190830037
(1533603734.529642) can1 283#0000000000008C
(1533603734.530230) can1 344#0000010000000050
(1533603734.531094) can1 141#00000046
(1533603734.531740) can1 160#0000081201319C51
(1533603734.532364) can1 161#001E0000008007
(1533603734.536395) can1 210#4400B6FF63FFF166
(1533603734.536634) can1 211#44FFF80000000056
(1533603734.537402) can1 212#44FFF80000000057
(1533603734.537617) can1 213#44FFF80000000058
(1533603734.538401) can1 214#44FFF80000000059
(1533603734.538650) can1 215#44FFF8000000005A
(1533603734.539452) can1 216#44FFF8000000005B
(1533603734.539681) can1 217#44FFF8000000005C
(1533603734.540396) can1 218#4400C6FF0000012C
(1533603734.540638) can1 219#4400BA01800001A3
(1533603734.541398) can1 21A#4400CE0060000197
(1533603734.541637) can1 21B#44FFF80000000060
(1533603734.542406) can1 21C#44FFF80000000061
(1533603734.542611) can1 21D#44FFF80000000062
(1533603734.543414) can1 21E#44FFF80000000063
(1533603734.543639) can1 141#00000046
(1533603734.543654) can1 21F#44FFF80000000064
(1533603734.544203) can1 128#F40190830037
(1533603734.544412) can1 220#4400640000040CE2
(1533603734.544806) can1 221#440000000000006F
(1533603734.544921) can1 283#0000000000008C
(1533603734.545410) can1 222#4400000000000070
(1533603734.545696) can1 223#4400000000000071
(1533603734.546536) can1 224#4400000000000072
(1533603734.546704) can1 225#4400000000000073
(1533603734.547446) can1 226#4400000000000074
(1533603734.547627) can1 227#4400000000000075
(1533603734.548410) can1 228#44006112C4AB
(1533603734.548665) can1 229#44006112C8B0
(1533603734.549385) can1 22A#440064124834
(1533603734.549628) can1 22B#440000000077
(1533603734.550362) can1 22C#440000000078
(1533603734.550609) can1 22D#440000000079
(1533603734.551314) can1 22E#44000000007A
(1533603734.551591) can1 22F#44000000007B
(1533603734.552348) can1 123#0108090D40008A
(1533603734.552609) can1 230#447FFF4848008B
(1533603734.553364) can1 231#4401FEF000000270
(1533603734.553598) can1 232#4400FE00FE00FE7A
(1533603734.554393) can1 3D0#22808080808080FD
(1533603734.554631) can1 3D1#22808080808080FE
(1533603734.555391) can1 3D2#22808080808080FF
(1533603734.555589) can1 3D3#2280808080808000
(1533603734.566007) can1 141#00000046
(1533603734.566697) can1 344#0000010000000050
(1533603734.567445) can1 365#00000080FC0008
(1533603734.568104) can1 366#007207FF09FE00
(1533603734.575287) can1 128#F40190830037
(1533603734.575899) can1 283#0000000000008C
(1533603734.585482) can1 141#00000046
(1533603734.586355) can1 210#4500B6FF63FFE157
(1533603734.586652) can1 211#45FFF80000000057
(1533603734.587412) can1 212#45FFF80000000058
(1533603734.587619) can1 213#45FFF80000000059
(1533603734.588386) can1 214#45FFF8000000005A
(1533603734.588626) can1 215#45FFF8000000005B
(1533603734.589359) can1 216#45FFF8000000005C
(1533603734.589602) can1 217#45FFF8000000005D
(1533603734.590361) can1 218#4500C6FF0000012D
(1533603734.590602) can1 219#4500BA01800001A4
(1533603734.591360) can1 21A#4500CE0060000198
(1533603734.591592) can1 21B#45FFF80000000061
(1533603734.592404) can1 21C#45FFF80000000062
(1533603734.592602) can1 21D#45FFF80000000063
(1533603734.593360) can1 21E#45FFF80000000064
(1533603734.593591) can1 21F#45FFF80000000065
(1533603734.594360) can1 220#45FE640000040CE1
(1533603734.594602) can1 221#4500000000000070
(1533603734.595359) can1 222#4500000000000071
(1533603734.595601) can1 223#4500000000000072
(1533603734.596405) can1 224#4500000000000073
(1533603734.596647) can1 225#4500000000000074
(1533603734.597404) can1 226#4500000000000075
(1533603734.597582) can1 227#4500000000000076
(1533603734.598339) can1 228#45006212C4AD
(1533603734.598582) can1 229#45006212C8B2
(1533603734.599340) can1 22A#450064124835
(1533603734.599584) can1 22B#450000000078
(1533603734.600340) can1 22C#450000000079
(1533603734.600584) can1 22D#45000000007A
(1533603734.601339) can1 22E#45000000007B
(1533603734.601582) can1 22F#45000000007C
(1533603734.602340) can1 230#457FFF4849008D
(1533603734.602583) can1 231#4501FEF000000271
(1533603734.603167) can1 160#0000081201319C51
(1533603734.603379) can1 232#4500FE00FE00FE7B
(1533603734.604106) can1 161#001E0000008007
(1533603734.607589) can1 141#00000046
(1533603734.608599) can1 128#F40190830037
(1533603734.613831) can1 283#0000000000008C
(1533603734.618116) can1 344#0000010000000050
(1533603734.628714) can1 141#00000046
(1533603734.636383) can1 210#4600B6FF63FFE158
(1533603734.636629) can1 211#46FFF80000000058
(1533603734.637418) can1 212#46FFF80000000059
(1533603734.637603) can1 213#46FFF8000000005A
(1533603734.638382) can1 214#46FFF8000000005B
(1533603734.638618) can1 215#46FFF8000000005C
(1533603734.638888) can1 128#F40190830037
(1533603734.639396) can1 216#46FFF8000000005D
(1533603734.639634) can1 283#0000000000008C
(1533603734.639640) can1 217#46FFF8000000005E
(1533603734.640414) can1 218#4600C6FF0000012E
(1533603734.640638) can1 219#4600BA01800001A5
(1533603734.641393) can1 21A#4600CE0060000199
(1533603734.641635) can1 21B#46FFF80000000062
(1533603734.642417) can1 21C#46FFF80000000063
(1533603734.642626) can1 21D#46FFF80000000064
(1533603734.643394) can1 21E#46FFF80000000065
(1533603734.643642) can1 21F#46FFF80000000066
(1533603734.644406) can1 220#4600640000040CE4
(1533603734.644635) can1 221#4600000000000071
(1533603734.645395) can1 222#4600000000000072
(1533603734.645642) can1 223#4600000000000073
(1533603734.646473) can1 224#4600000000000074
(1533603734.646693) can1 225#4600000000000075
(1533603734.647479) can1 226#4600000000000076
(1533603734.647674) can1 227#4600000000000077
(1533603734.648387) can1 228#46006412C4B0
(1533603734.648563) can1 229#46006412C8B5
(1533603734.649015) can1 141#00000046
(1533603734.649419) can1 22A#460064124836
(1533603734.649595) can1 22B#460000000079
(1533603734.650359) can1 22C#46000000007A
(1533603734.650581) can1 22D#46000000007B
(1533603734.651332) can1 22E#46000000007C
(1533603734.651579) can1 22F#46000000007D
(1533603734.652334) can1 123#0108090D40008A
(1533603734.652598) can1 230#467FFF484A008F
(1533603734.653345) can1 231#4601FEF000000272
(1533603734.653603) can1 232#4600FE00FE00FE7C
(1533603734.654371) can1 3D0#23808080808080FE
(1533603734.654639) can1 3D1#23808080808080FF
(1533603734.655397) can1 3D2#2380808080808000
(1533603734.655600) can1 3D3#2380808080808001
(1533603734.671430) can1 141#00000046
(1533603734.672010) can1 128#F40190830037
(1533603734.672668) can1 283#0000000000008C
(1533603734.673240) can1 344#0000010000000050
(1533603734.673836) can1 160#0000081201319C51
(1533603734.674450) can1 161#001E0000008007
(1533603734.686398) can1 210#4700B6FF63FFE159
(1533603734.686613) can1 211#47FFF80000000059
(1533603734.687382) can1 212#47FFF8000000005A
(1533603734.687616) can1 213#47FFF8000000005B
(1533603734.688395) can1 214#47FFF8000000005C
(1533603734.688620) can1 215#47FFF8000000005D
(1533603734.689388) can1 216#47FFF8000000005E
(1533603734.689671) can1 217#47FFF8000000005F
(1533603734.690347) can1 218#4700C6FF0000012F
(1533603734.690610) can1 219#4700BA01800001A6
(1533603734.691351) can1 21A#4700CE006000019A
(1533603734.691578) can1 21B#47FFF80000000063
(1533603734.692391) can1 21C#47FFF80000000064
(1533603734.692587) can1 21D#47FFF80000000065
(1533603734.693350) can1 21E#47FFF80000000066
(1533603734.693568) can1 21F#47FFF80000000067
(1533603734.694334) can1 220#4700640000040CE5
(1533603734.694578) can1 221#4700000000000072
(1533603734.695366) can1 222#4700000000000073
(1533603734.695585) can1 223#4700000000000074
(1533603734.696391) can1 224#4700000000000075
(1533603734.696633) can1 225#4700000000000076
(1533603734.697379) can1 226#4700000000000077
(1533603734.697586) can1 227#4700000000000078
(1533603734.698378) can1 228#47006412C4B1
(1533603734.698508) can1 229#47006412C8B6
(1533603734.699326) can1 22A#470064124837
(1533603734.699607) can1 22B#47000000007A
(1533603734.700364) can1 22C#47000000007B
(1533603734.700573) can1 22D#47000000007C
(1533603734.701336) can1 22E#47000000007D
(1533603734.701614) can1 22F#47000000007E
(1533603734.702346) can1 230#477FFF484B0091
(1533603734.702574) can1 231#4701FEF000000273
(1533603734.703339) can1 232#4700FE00FE00FE7D
(1533603734.708503) can1 141#00000046
(1533603734.709187) can1 128#F40190830037
(1533603734.709888) can1 283#0000000000008C
(1533603734.711845) can1 141#00000046
(1533603734.722340) can1 344#0000010000000050
(1533603734.734428) can1 141#00000046
(1533603734.735068) can1 128#F40190830037
(1533603734.735707) can1 283#0000000000008C
(1533603734.736336) can1 210#4800B6FF63FFE15A
(1533603734.736683) can1 211#48FFF8000000005A
(1533603734.737369) can1 212#48FFF8000000005B
(1533603734.737607) can1 213#48FFF8000000005C
(1533603734.738371) can1 214#48FFF8000000005D
(1533603734.738609) can1 215#48FFF8000000005E
(1533603734.739377) can1 216#48FFF8000000005F
(1533603734.739660) can1 217#48FFF80000000060
(1533603734.740386) can1 218#4800C6FF00000130
(1533603734.740609) can1 219#4800BA01800001A7
(1533603734.741395) can1 21A#4800CE006000019B
(1533603734.741604) can1 21B#48FFF80000000064
(1533603734.742331) can1 21C#48FFF80000000065
(1533603734.742579) can1 21D#48FFF80000000066
(1533603734.743171) can1 160#0000081201319C51
(1533603734.743394) can1 21E#48FFF80000000067
(1533603734.743813) can1 21F#48FFF80000000068
(1533603734.743941) can1 161#001E0000008007
(1533603734.744382) can1 220#4800640000040CE6
(1533603734.744658) can1 221#4800000000000073
(1533603734.745390) can1 222#4800000000000074
(1533603734.745646) can1 223#4800000000000075
(1533603734.746450) can1 224#4800000000000076
(1533603734.746682) can1 225#4800000000000077
(1533603734.747407) can1 226#4800000000000078
(1533603734.747618) can1 227#4800000000000079
(1533603734.748345) can1 228#48006412C4B2
(1533603734.748544) can1 229#48006412C8B7
(1533603734.749363) can1 22A#480064124838
(1533603734.749614) can1 22B#48000000007B
(1533603734.750356) can1 22C#48000000007C
(1533603734.750590) can1 22D#48000000007D
(1533603734.751358) can1 22E#48000000007E
(1533603734.751564) can1 22F#48000000007F
(1533603734.752352) can1 123#0108090D40008A
(1533603734.752576) can1 230#487FFF484C0093
(1533603734.753340) can1 231#4801FEF000000274
(1533603734.753574) can1 232#4800FE00FE00FE7E
(1533603734.754411) can1 3D0#24808080808080FF
(1533603734.754597) can1 3D1#2480808080808000
(1533603734.755379) can1 3D2#2480808080808001
(1533603734.755623) can1 3D3#2480808080808002
(1533603734.776221) can1 141#00000046
(1533603734.777224) can1 128#F40190830037
(1533603734.777905) can1 283#0000000000008C
(1533603734.778653) can1 141#00000046
(1533603734.779243) can1 344#0000010000000050
(1533603734.779903) can1 365#00000080FC0008
(1533603734.780670) can1 366#007207FF09FE00
(1533603734.786349) can1 210#4900B6FF63FFE15B
(1533603734.786549) can1 211#49FFF8000000005B
(1533603734.787321) can1 212#49FFF8000000005C
(1533603734.787612) can1 213#49FFF8000000005D
(1533603734.788344) can1 214#49FFF8000000005E
(1533603734.788647) can1 215#49FFF8000000005F
(1533603734.789406) can1 216#49FFF80000000060
(1533603734.789588) can1 217#49FFF80000000061
(1533603734.790398) can1 218#4900C6FF00000131
(1533603734.790584) can1 219#4900BA01800001A8
(1533603734.791391) can1 21A#4900CE006000019C
(1533603734.791598) can1 21B#49FFF80000000065
(1533603734.792344) can1 21C#49FFF80000000066
(1533603734.792584) can1 21D#49FFF80000000067
(1533603734.793342) can1 21E#49FFF80000000068
(1533603734.793606) can1 21F#49FFF80000000069
(1533603734.794347) can1 220#4900640000040CE7
(1533603734.794578) can1 221#4900000000000074
(1533603734.795334) can1 222#4900000000000075
(1533603734.795559) can1 223#4900000000000076
(1533603734.796370) can1 224#4900000000000077
(1533603734.796614) can1 225#4900000000000078
(1533603734.797370) can1 226#4900000000000079
(1533603734.797569) can1 227#490000000000007A
(1533603734.798326) can1 228#49006412C4B3
(1533603734.798476) can1 229#49006412C8B8
(1533603734.799320) can1 22A#490064124839
(1533603734.799569) can1 22B#49000000007C
(1533603734.800324) can1 22C#49000000007D
(1533603734.800568) can1 22D#49000000007E
(1533603734.801316) can1 22E#49000000007F
(1533603734.801568) can1 22F#490000000080
(1533603734.802324) can1 230#497FFF484D0095
(1533603734.802568) can1 231#4901FEF000000275
(1533603734.803324) can1 232#4900FE00FE00FE7F
(1533603734.816395) can1 141#00000046
(1533603734.817565) can1 128#F40190830037
(1533603734.818564) can1 283#0000000000008C
(1533603734.819564) can1 141#00000046
(1533603734.820564) can1 160#0000081201319C51
(1533603734.821542) can1 161#001E0000008007
(1533603734.827571) can1 128#F40190830037
(1533603734.828256) can1 283#0000000000008C
(1533603734.829253) can1 344#0000010000000050
(1533603734.836334) can1 210#4A00B6FF63FFE15C
(1533603734.836572) can1 211#4AFFF8000000005C
(1533603734.837326) can1 212#4AFFF8000000005D
(1533603734.837573) can1 213#4AFFF8000000005E
(1533603734.838205) can1 141#00000046
(1533603734.838326) can1 214#4AFFF8000000005F
(1533603734.838775) can1 215#4AFFF80000000060
(1533603734.839363) can1 216#4AFFF80000000061
(1533603734.839600) can1 217#4AFFF80000000062
(1533603734.840366) can1 218#4A00C6FF00000132
(1533603734.840597) can1 219#4A00BA01800001A9
(1533603734.841361) can1 21A#4A00CE006000019D
(1533603734.841604) can1 21B#4AFFF80000000066
(1533603734.842360) can1 21C#4AFFF80000000067
(1533603734.842595) can1 21D#4AFFF80000000068
(1533603734.843363) can1 21E#4AFFF80000000069
(1533603734.843605) can1 21F#4AFFF8000000006A
(1533603734.844353) can1 220#4A00640000040CE8
(1533603734.844598) can1 221#4A00000000000075
(1533603734.845339) can1 222#4A00000000000076
(1533603734.845590) can1 223#4A00000000000077
(1533603734.846433) can1 224#4A00000000000078
(1533603734.846651) can1 225#4A00000000000079
(1533603734.847392) can1 226#4A0000000000007A
(1533603734.847645) can1 227#4A0000000000007B
(1533603734.848355) can1 228#4A006412C4B4
(1533603734.848535) can1 229#4A006412C8B9
(1533603734.849365) can1 22A#4A006412483A
(1533603734.849585) can1 22B#4A000000007D
(1533603734.850355) can1 22C#4A000000007E
(1533603734.850583) can1 22D#4A000000007F
(1533603734.851346) can1 22E#4A0000000080
(1533603734.851590) can1 22F#4A0000000081
(1533603734.852355) can1 123#0108090D40008A
(1533603734.852589) can1 230#4A7FFF484E0097
(1533603734.853401) can1 231#4A01FEF000000276
(1533603734.853569) can1 232#4A00FE00FE00FE80
(1533603734.854401) can1 3D0#2580808080808000
(1533603734.854628) can1 3D1#2580808080808001
(1533603734.855389) can1 3D2#2580808080808002
(1533603734.855587) can1 3D3#2580808080808003
(1533603734.876636) can1 141#00000046
(1533603734.877918) can1 128#F40190830037
(1533603734.878777) can1 283#0000000000008C
(1533603734.879883) can1 141#00000046
(1533603734.880882) can1 344#0000010000000050
(1533603734.886334) can1 210#4B00B6FF63FFF16D
(1533603734.886562) can1 211#4BFFF8000000005D
(1533603734.887348) can1 212#4BFFF8000000005E
(1533603734.887592) can1 213#4BFFF8000000005F
(1533603734.888395) can1 214#4BFFF80000000060
(1533603734.888622) can1 215#4BFFF80000000061
(1533603734.889356) can1 216#4BFFF80000000062
(1533603734.889630) can1 217#4BFFF80000000063
(1533603734.890225) can1 128#F40190830037
(1533603734.890320) can1 218#4B00C6FF00000133
(1533603734.890800) can1 219#4B00BA01800001AA
(1533603734.890899) can1 283#0000000000008C
(1533603734.891406) can1 21A#4B00CE006000019E
(1533603734.891611) can1 160#0000081201319C51
(1533603734.891656) can1 21B#4BFFF80000000067
(1533603734.892134) can1 161#001E0000008007
(1533603734.892349) can1 21C#4BFFF80000000068
(1533603734.892842) can1 21D#4BFFF80000000069
(1533603734.893364) can1 21E#4BFFF8000000006A
(1533603734.893641) can1 21F#4BFFF8000000006B
(1533603734.894371) can1 220#4B02640000040CEB
(1533603734.894591) can1 221#4B00000000000076
(1533603734.895339) can1 222#4B00000000000077
(1533603734.895549) can1 223#4B00000000000078
(1533603734.896415) can1 224#4B00000000000079
(1533603734.896789) can1 225#4B0000000000007A
(1533603734.897353) can1 226#4B0000000000007B
(1533603734.897556) can1 227#4B0000000000007C
(1533603734.898301) can1 228#4B006412C4B5
(1533603734.898461) can1 229#4B006412C8BA
(1533603734.899313) can1 22A#4B006412483B
(1533603734.899551) can1 22B#4B000000007E
(1533603734.900305) can1 22C#4B000000007F
(1533603734.900552) can1 22D#4B0000000080
(1533603734.901308) can1 22E#4B0000000081
(1533603734.901541) can1 22F#4B0000000082
(1533603734.902303) can1 230#4B7FFF484F0099
(1533603734.902551) can1 231#4B01FEF000000277
(1533603734.903305) can1 232#4B00FE00FE00FE81
(1533603734.915919) can1 141#00000046
(1533603734.921633) can1 141#00000046
(1533603734.922257) can1 128#F40190830037
(1533603734.922957) can1 283#0000000000008C
(1533603734.931738) can1 344#0000010000000050
(1533603734.936306) can1 210#4C00B6FF63FFE15E
(1533603734.936550) can1 211#4CFFF8000000005E
(1533603734.937340) can1 212#4CFFF8000000005F
(1533603734.937598) can1 213#4CFFF80000000060
(1533603734.938344) can1 214#4CFFF80000000061
(1533603734.938534) can1 215#4CFFF80000000062
(1533603734.939349) can1 216#4CFFF80000000063
(1533603734.939542) can1 217#4CFFF80000000064
(1533603734.940330) can1 218#4C00C6FF00000134
(1533603734.940564) can1 219#4C00BA01800001AB
(1533603734.941350) can1 21A#4C00CE006000019F
(1533603734.941545) can1 21B#4CFFF80000000068
(1533603734.942370) can1 21C#4CFFF80000000069
(1533603734.942526) can1 21D#4CFFF8000000006A
(1533603734.943332) can1 21E#4CFFF8000000006B
(1533603734.943534) can1 21F#4CFFF8000000006C
(1533603734.943832) can1 141#00000046
(1533603734.944316) can1 220#4CFE640000040CE8
(1533603734.944524) can1 221#4C00000000000077
(1533603734.945368) can1 222#4C00000000000078
(1533603734.945577) can1 223#4C00000000000079
(1533603734.946347) can1 224#4C0000000000007A
(1533603734.946619) can1 225#4C0000000000007B
(1533603734.947300) can1 226#4C0000000000007C
(1533603734.947617) can1 227#4C0000000000007D
(1533603734.948332) can1 228#4C006412C4B6
(1533603734.948518) can1 229#4C006412C8BB
(1533603734.949342) can1 22A#4C006412483C
(1533603734.949596) can1 22B#4C000000007F
(1533603734.950354) can1 22C#4C0000000080
(1533603734.950597) can1 22D#4C0000000081
(1533603734.951352) can1 22E#4C0000000082
(1533603734.951602) can1 22F#4C0000000083
(1533603734.952332) can1 123#0108090D40008A
(1533603734.952586) can1 230#4C7FFF4850009B
(1533603734.953298) can1 231#4C01FEF000000278
(1533603734.953543) can1 232#4C00FE00FE00FE82
(1533603734.953993) can1 128#F40190830037
(1533603734.954541) can1 3D0#2680808080808001
(1533603734.954714) can1 3D1#2680808080808002
(1533603734.954751) can1 283#0000000000008C
(1533603734.955385) can1 3D2#2680808080808003
(1533603734.955622) can1 3D3#2680808080808004
(1533603734.973708) can1 141#00000046
(1533603734.974764) can1 160#0000081201319C51
(1533603734.975516) can1 161#001E0000008007
(1533603734.985527) can1 141#00000046
(1533603734.986280) can1 210#4D00B6FF63FFF16F
(1533603734.986425) can1 128#F40190830037
(1533603734.986515) can1 211#4DFFF8000000005F
(1533603734.987055) can1 283#0000000000008C
(1533603734.987323) can1 212#4DFFF80000000060
(1533603734.987692) can1 344#0000010000000050
(1533603734.987838) can1 213#4DFFF80000000061
(1533603734.988308) can1 214#4DFFF80000000062
(1533603734.988484) can1 365#00000080FC0008
(1533603734.988514) can1 215#4DFFF80000000063
(1533603734.989053) can1 366#007207FF09FE00
(1533603734.989515) can1 216#4DFFF80000000064
(1533603734.989759) can1 217#4DFFF80000000065
(1533603734.990351) can1 218#4D00C6FF00000135
(1533603734.990558) can1 219#4D00BA01800001AC
(1533603734.991344) can1 21A#4D00CE00600001A0
(1533603734.991550) can1 21B#4DFFF80000000069
(1533603734.992347) can1 21C#4DFFF8000000006A
(1533603734.992552) can1 21D#4DFFF8000000006B
(1533603734.993365) can1 21E#4DFFF8000000006C
(1533603734.993550) can1 21F#4DFFF8000000006D
(1533603734.994311) can1 220#4D02640000040CED
(1533603734.994561) can1 221#4D00000000000078
(1533603734.995341) can1 222#4D00000000000079
(1533603734.995543) can1 223#4D0000000000007A
(1533603734.996380) can1 224#4D0000000000007B
(1533603734.996587) can1 225#4D0000000000007C
(1533603734.997381) can1 226#4D0000000000007D
(1533603734.997619) can1 227#4D0000000000007E
(1533603734.998329) can1 228#4D006412C4B7
(1533603734.998506) can1 229#4D006412C8BC
(1533603734.999324) can1 22A#4D006412483D
(1533603734.999571) can1 22B#4D0000000080
(1533603735.000318) can1 22C#4D0000000081
(1533603735.000557) can1 22D#4D0000000082
(1533603735.001294) can1 22E#4D0000000083
(1533603735.001558) can1 22F#4D0000000084
(1533603735.002319) can1 230#4D7FFF4851009D
(1533603735.002552) can1 231#4D01FEF000000279
(1533603735.003287) can1 232#4D00FE00FE00FE83
(1533603735.007674) can1 141#00000046
(1533603735.016044) can1 128#F40190830037
(1533603735.016650) can1 283#0000000000008C
(1533603735.026584) can1 141#00000046
(1533603735.036281) can1 210#4E00B6FF63FFF170
(1533603735.036530) can1 211#4EFFF80000000060
(1533603735.036832) can1 344#0000010000000050
(1533603735.037335) can1 212#4EFFF80000000061
(1533603735.037524) can1 160#0000081201319C51
(1533603735.037580) can1 213#4EFFF80000000062
(1533603735.038120) can1 161#001E0000008007
(1533603735.038389) can1 214#4EFFF80000000063
(1533603735.038809) can1 215#4EFFF80000000064
(1533603735.039364) can1 216#4EFFF80000000065
(1533603735.039597) can1 217#4EFFF80000000066
(1533603735.040387) can1 218#4E00C6FF00000136
(1533603735.040559) can1 219#4E00BA01800001AD
(1533603735.041315) can1 21A#4E00CE00600001A1
(1533603735.041519) can1 21B#4EFFF8000000006A
(1533603735.042279) can1 21C#4EFFF8000000006B
(1533603735.042528) can1 21D#4EFFF8000000006C
(1533603735.043313) can1 21E#4EFFF8000000006D
(1533603735.043517) can1 21F#4EFFF8000000006E
(1533603735.044301) can1 220#4E00640000040CEC
(1533603735.044547) can1 221#4E00000000000079
(1533603735.045294) can1 222#4E0000000000007A
(1533603735.045524) can1 223#4E0000000000007B
(1533603735.046330) can1 224#4E0000000000007C
(1533603735.046573) can1 225#4E0000000000007D
(1533603735.047326) can1 226#4E0000000000007E
(1533603735.047573) can1 227#4E0000000000007F
(1533603735.048279) can1 228#4E006412C4B8
(1533603735.048527) can1 229#4E006412C8BD
(1533603735.049279) can1 22A#4E006412483E
(1533603735.049529) can1 22B#4E0000000081
(1533603735.050285) can1 22C#4E0000000082
(1533603735.050525) can1 22D#4E0000000083
(1533603735.051229) can1 22E#4E0000000084
(1533603735.051505) can1 22F#4E0000000085
(1533603735.051603) can1 141#00000046
(1533603735.052127) can1 128#F40190830037
(1533603735.052284) can1 123#0108090D40008A
(1533603735.052758) can1 230#4E7FFF4852009F
(1533603735.052761) can1 283#0000000000008C
(1533603735.053359) can1 231#4E01FEF00000027A
(1533603735.053602) can1 232#4E00FE00FE00FE84
(1533603735.054291) can1 3D0#2780808080808002
(1533603735.054612) can1 3D1#2780808080808003
(1533603735.055333) can1 3D2#2780808080808004
(1533603735.055613) can1 3D3#2780808080808005
(1533603735.069001) can1 141#00000046
(1533603735.078945) can1 128#F40190830037
(1533603735.079670) can1 283#0000000000008C
(1533603735.086312) can1 210#4F00B6FF63FFE161
(1533603735.086546) can1 211#4FFFF80000000061
(1533603735.087339) can1 212#4FFFF80000000062
(1533603735.087550) can1 213#4FFFF80000000063
(1533603735.088330) can1 214#4FFFF80000000064
(1533603735.088528) can1 215#4FFFF80000000065
(1533603735.089241) can1 141#00000046
(1533603735.089380) can1 216#4FFFF80000000066
(1533603735.089744) can1 217#4FFFF80000000067
(1533603735.089799) can1 344#0000010000000050
(1533603735.090356) can1 218#4F00C6FF00000137
(1533603735.090589) can1 219#4F00BA01800001AE
(1533603735.091292) can1 21A#4F00CE00600001A2
(1533603735.091562) can1 21B#4FFFF8000000006B
(1533603735.092303) can1 21C#4FFFF8000000006C
(1533603735.092595) can1 21D#4FFFF8000000006D
(1533603735.093355) can1 21E#4FFFF8000000006E
(1533603735.093600) can1 21F#4FFFF8000000006F
(1533603735.094331) can1 220#4FFE640000040CEB
(1533603735.094538) can1 221#4F0000000000007A
(1533603735.095300) can1 222#4F0000000000007B
(1533603735.095545) can1 223#4F0000000000007C
(1533603735.096366) can1 224#4F0000000000007D
(1533603735.096618) can1 225#4F0000000000007E
(1533603735.097340) can1 226#4F0000000000007F
(1533603735.097600) can1 227#4F00000000000080
(1533603735.098259) can1 228#4F006412C4B9
(1533603735.098445) can1 229#4F006412C8BE
(1533603735.099333) can1 22A#4F006412483F
(1533603735.099558) can1 22B#4F0000000082
(1533603735.100332) can1 22C#4F0000000083
(1533603735.100547) can1 22D#4F0000000084
(1533603735.101305) can1 22E#4F0000000085
(1533603735.101539) can1 22F#4F0000000086
(1533603735.102270) can1 230#4F7FFF485300A1
(1533603735.102527) can1 231#4F01FEF00000027B
(1533603735.103272) can1 232#4F00FE00FE00FE85
(1533603735.113968) can1 141#00000046
(1533603735.114654) can1 128#F40190830037
(1533603735.115182) can1 283#0000000000008C
(1533603735.115771) can1 160#0000081201319C51
(1533603735.116416) can1 161#001E0000008007
(1533603735.132081) can1 141#00000046
(1533603735.136314) can1 210#5000B6FF63FFF172
(1533603735.136494) can1 211#50FFF80000000062
(1533603735.137298) can1 212#50FFF80000000063
(1533603735.137499) can1 213#50FFF80000000064
(1533603735.138313) can1 214#50FFF80000000065
(1533603735.138493) can1 215#50FFF80000000066
(1533603735.139310) can1 216#50FFF80000000067
(1533603735.139581) can1 217#50FFF80000000068
(1533603735.140342) can1 218#5000C6FF00000138
(1533603735.140536) can1 219#5000BA01800001AF
(1533603735.141371) can1 21A#5000CE00600001A3
(1533603735.141555) can1 21B#50FFF8000000006C
(1533603735.142312) can1 21C#50FFF8000000006D
(1533603735.142386) can1 128#F40190830037
(1533603735.142540) can1 21D#50FFF8000000006E
(1533603735.143302) can1 21E#50FFF8000000006F
(1533603735.143555) can1 21F#50FFF80000000070
(1533603735.144285) can1 220#5002640000040CF0
(1533603735.144508) can1 221#500000000000007B
(1533603735.145275) can1 222#500000000000007C
(1533603735.145505) can1 223#500000000000007D
(1533603735.146321) can1 224#500000000000007E
(1533603735.146574) can1 225#500000000000007F
(1533603735.147314) can1 226#5000000000000080
(1533603735.147556) can1 227#5000000000000081
(1533603735.148308) can1 228#50006412C4BA
(1533603735.148454) can1 229#50006412C8BF
(1533603735.149261) can1 22A#500064124840
(1533603735.149511) can1 22B#500000000083
(1533603735.150264) can1 22C#500000000084
(1533603735.150489) can1 22D#500000000085
(1533603735.151245) can1 22E#500000000086
(1533603735.151489) can1 22F#500000000087
(1533603735.152246) can1 123#0108090D40008A
(1533603735.152512) can1 230#507FFF485400A3
(1533603735.153264) can1 231#5001FEF00000027C
(1533603735.153508) can1 232#5000FE00FE00FE86
(1533603735.154268) can1 3D0#2880808080808003
(1533603735.154554) can1 3D1#2880808080808004
(1533603735.155315) can1 3D2#2880808080808005
(1533603735.155510) can1 3D3#2880808080808006
(1533603735.163136) can1 283#0000000000008C
(1533603735.164362) can1 344#0000010000000050
(1533603735.165322) can1 141#00000046
(1533603735.172800) can1 141#00000046
(1533603735.173290) can1 128#F40190830037
(1533603735.173715) can1 283#0000000000008C
(1533603735.183322) can1 160#0000081201319C51
(1533603735.186259) can1 210#5100B6FF63FFF173
(1533603735.186391) can1 161#001E0000008007
(1533603735.186484) can1 211#51FFF80000000063
(1533603735.187307) can1 212#51FFF80000000064
(1533603735.187512) can1 213#51FFF80000000065
(1533603735.188310) can1 214#51FFF80000000066
(1533603735.188522) can1 215#51FFF80000000067
(1533603735.189285) can1 216#51FFF80000000068
(1533603735.189535) can1 217#51FFF80000000069
(1533603735.190373) can1 218#5100C6FF00000139
(1533603735.190530) can1 219#5100BA01800001B0
(1533603735.191321) can1 21A#5100CE00600001A4
(1533603735.191521) can1 21B#51FFF8000000006D
(1533603735.192361) can1 21C#51FFF8000000006E
(1533603735.192600) can1 21D#51FFF8000000006F
(1533603735.193256) can1 21E#51FFF80000000070
(1533603735.193501) can1 21F#51FFF80000000071
(1533603735.193779) can1 141#00000046
(1533603735.194262) can1 220#5100640000040CEF
(1533603735.194490) can1 221#510000000000007C
(1533603735.194621) can1 344#0000010000000050
(1533603735.195222) can1 222#510000000000007D
(1533603735.195352) can1 365#00000080FC0008
(1533603735.195489) can1 223#510000000000007E
(1533603735.196049) can1 366#007207FF09FE00
(1533603735.196270) can1 224#510000000000007F
(1533603735.196738) can1 225#5100000000000080
(1533603735.197321) can1 226#5100000000000081
(1533603735.197582) can1 227#5100000000000082
(1533603735.198246) can1 228#51006412C4BB
(1533603735.198474) can1 229#51006412C8C0
(1533603735.199286) can1 22A#510064124841
(1533603735.199515) can1 22B#510000000084
(1533603735.200256) can1 22C#510000000085
(1533603735.200534) can1 22D#510000000086
(1533603735.201327) can1 22E#510000000087
(1533603735.201506) can1 22F#510000000088
(1533603735.202280) can1 230#517FFF485500A5
(1533603735.202523) can1 231#5101FEF00000027D
(1533603735.203254) can1 232#5100FE00FE00FE87
(1533603735.203952) can1 128#F40190830037
(1533603735.227275) can1 283#0000000000008C
(1533603735.228623) can1 141#00000046
(1533603735.234835) can1 141#00000046
(1533603735.235370) can1 128#F40190830037
(1533603735.235855) can1 283#0000000000008C
(1533603735.236386) can1 210#5200B6FF63FFE164
(1533603735.236604) can1 211#52FFF80000000064
(1533603735.237267) can1 212#52FFF80000000065
(1533603735.237517) can1 213#52FFF80000000066
(1533603735.238274) can1 214#52FFF80000000067
(1533603735.238506) can1 215#52FFF80000000068
(1533603735.239322) can1 216#52FFF80000000069
(1533603735.239560) can1 217#52FFF8000000006A
(1533603735.240325) can1 218#5200C6FF0000013A
(1533603735.240509) can1 219#5200BA01800001B1
(1533603735.241271) can1 21A#5200CE00600001A5
(1533603735.241522) can1 21B#52FFF8000000006E
(1533603735.242285) can1 21C#52FFF8000000006F
(1533603735.242563) can1 21D#52FFF80000000070
(1533603735.243278) can1 21E#52FFF80000000071
(1533603735.243511) can1 21F#52FFF80000000072
(1533603735.244293) can1 220#52FE640000040CEE
(1533603735.244528) can1 221#520000000000007D
(1533603735.244592) can1 344#0000010000000050
(1533603735.245289) can1 222#520000000000007E
(1533603735.245567) can1 223#520000000000007F
(1533603735.246348) can1 224#5200000000000080
(1533603735.246593) can1 225#5200000000000081
(1533603735.247356) can1 226#5200000000000082
(1533603735.247576) can1 227#5200000000000083
(1533603735.248207) can1 228#52006412C4BC
(1533603735.248416) can1 229#52006412C8C1
(1533603735.249232) can1 22A#520064124842
(1533603735.249475) can1 22B#520000000085
(1533603735.250229) can1 22C#520000000086
(1533603735.250490) can1 22D#520000000087
(1533603735.251195) can1 22E#520000000088
(1533603735.251472) can1 22F#520000000089
(1533603735.252242) can1 123#0108090D40008A
(1533603735.252479) can1 230#527FFF485600A7
(1533603735.253290) can1 231#5201FEF00000027E
(1533603735.253470) can1 232#5200FE00FE00FE88
(1533603735.254284) can1 3D0#2980808080808004
(1533603735.254541) can1 3D1#2980808080808005
(1533603735.255273) can1 3D2#2980808080808006
(1533603735.255475) can1 3D3#2980808080808007
(1533603735.259568) can1 141#00000046
(1533603735.260015) can1 160#0000081201319C51
(1533603735.260567) can1 161#001E0000008007
(1533603735.265572) can1 128#F40190830037
(1533603735.266089) can1 283#0000000000008C
(1533603735.276165) can1 141#00000046
(1533603735.286308) can1 210#5300B6FF63FFF175
(1533603735.286512) can1 211#53FFF80000000065
(1533603735.287300) can1 212#53FFF80000000066
(1533603735.287509) can1 213#53FFF80000000067
(1533603735.288241) can1 214#53FFF80000000068
(1533603735.288485) can1 215#53FFF80000000069
(1533603735.289290) can1 216#53FFF8000000006A
(1533603735.289536) can1 217#53FFF8000000006B
(1533603735.290291) can1 218#5300C6FF0000013B
(1533603735.290485) can1 219#5300BA01800001B2
(1533603735.291253) can1 21A#5300CE00600001A6
(1533603735.291485) can1 21B#53FFF8000000006F
(1533603735.292290) can1 21C#53FFF80000000070
(1533603735.292536) can1 21D#53FFF80000000071
(1533603735.293240) can1 21E#53FFF80000000072
(1533603735.293485) can1 21F#53FFF80000000073
(1533603735.294252) can1 220#5302640000040CF3
(1533603735.294485) can1 221#530000000000007E
(1533603735.295258) can1 222#530000000000007F
(1533603735.295484) can1 223#5300000000000080
(1533603735.296289) can1 224#5300000000000081
(1533603735.296529) can1 225#5300000000000082
(1533603735.297289) can1 226#5300000000000083
(1533603735.297469) can1 141#00000046
(1533603735.297573) can1 227#5300000000000084
(1533603735.298173) can1 128#F40190830037
(1533603735.298289) can1 228#53006412C4BD
(1533603735.298633) can1 229#53006412C8C2
(1533603735.298863) can1 283#0000000000008C
(1533603735.299314) can1 22A#530064124843
(1533603735.299562) can1 22B#530000000086
(1533603735.299659) can1 344#0000010000000050
(1533603735.300267) can1 22C#530000000087
(1533603735.300514) can1 22D#530000000088
(1533603735.301266) can1 22E#530000000089
(1533603735.301528) can1 22F#53000000008A
(1533603735.302258) can1 230#537FFF485700A9
(1533603735.302509) can1 231#5301FEF00000027F
(1533603735.303267) can1 232#5300FE00FE00FE89
(1533603735.318907) can1 141#00000046
(1533603735.328771) can1 128#F40190830037
(1533603735.329669) can1 283#0000000000008C
(1533603735.330055) can1 160#0000081201319C51
(1533603735.330474) can1 161#001E0000008007
(1533603735.336226) can1 210#5400B6FF63FFE166
(1533603735.336464) can1 211#54FFF80000000066
(1533603735.337226) can1 212#54FFF80000000067
(1533603735.337464) can1 213#54FFF80000000068
(1533603735.338274) can1 214#54FFF80000000069
(1533603735.338461) can1 215#54FFF8000000006A
(1533603735.338812) can1 141#00000046
(1533603735.339278) can1 216#54FFF8000000006B
(1533603735.339522) can1 217#54FFF8000000006C
(1533603735.340239) can1 218#5400C8FF0000013E
(1533603735.340508) can1 219#5400BA01800001B3
(1533603735.341227) can1 21A#5400CE00600001A7
(1533603735.341473) can1 21B#54FFF80000000070
(1533603735.342237) can1 21C#54FFF80000000071
(1533603735.342473) can1 21D#54FFF80000000072
(1533603735.343239) can1 21E#54FFF80000000073
(1533603735.343463) can1 21F#54FFF80000000074
(1533603735.344284) can1 220#54FE640000040CF0
(1533603735.344469) can1 221#540000000000007F
(1533603735.345237) can1 222#5400000000000080
(1533603735.345507) can1 223#5400000000000081
(1533603735.346275) can1 224#5400000000000082
(1533603735.346505) can1 225#5400000000000083
(1533603735.347272) can1 226#5400000000000084
(1533603735.347505) can1 227#5400000000000085
(1533603735.348223) can1 228#54006412C4BE
(1533603735.348393) can1 229#54006412C8C3
(1533603735.348949) can1 344#0000010000000050
(1533603735.349473) can1 22A#540064124844
(1533603735.349635) can1 22B#540000000087
(1533603735.350202) can1 22C#540000000088
(1533603735.350473) can1 22D#540000000089
(1533603735.351229) can1 22E#54000000008A
(1533603735.351462) can1 22F#54000000008B
(1533603735.352226) can1 123#0108090D40008A
(1533603735.352462) can1 230#547FFF485800AB
(1533603735.353225) can1 231#5401FEF000000280
(1533603735.353462) can1 232#5400FE00FE00FE8A
(1533603735.354242) can1 3D0#2A80808080808005
(1533603735.354519) can1 3D1#2A80808080808006
(1533603735.355234) can1 3D2#2A80808080808007
(1533603735.355504) can1 3D3#2A80808080808008
(1533603735.359554) can1 141#00000046
(1533603735.360221) can1 128#F40190830037
(1533603735.360888) can1 283#0000000000008C
(1533603735.380337) can1 141#00000046
(1533603735.386247) can1 210#5500B6FF63FFE167
(1533603735.386511) can1 211#55FFF80000000067
(1533603735.387269) can1 212#55FFF80000000068
(1533603735.387518) can1 213#55FFF80000000069
(1533603735.388419) can1 214#55FFF8000000006A
(1533603735.388466) can1 215#55FFF8000000006B
(1533603735.389268) can1 216#55FFF8000000006C
(1533603735.389521) can1 217#55FFF8000000006D
(1533603735.390284) can1 218#5500C8FF0000013F
(1533603735.390518) can1 219#5500BA01800001B4
(1533603735.391223) can1 21A#5500CE00600001A8
(1533603735.391468) can1 21B#55FFF80000000071
(1533603735.392274) can1 21C#55FFF80000000072
(1533603735.392452) can1 21D#55FFF80000000073
(1533603735.393269) can1 21E#55FFF80000000074
(1533603735.393516) can1 21F#55FFF80000000075
(1533603735.394251) can1 220#5500640000040CF3
(1533603735.394468) can1 221#5500000000000080
(1533603735.395227) can1 222#5500000000000081
(1533603735.395476) can1 223#5500000000000082
(1533603735.396275) can1 224#5500000000000083
(1533603735.396514) can1 225#5500000000000084
(1533603735.397242) can1 226#5500000000000085
(1533603735.397300) can1 128#F40190830037
(1533603735.397448) can1 227#5500000000000086
(1533603735.397863) can1 283#0000000000008C
(1533603735.398322) can1 228#55006412C4BF
(1533603735.398547) can1 229#55006412C8C4
(1533603735.399216) can1 22A#550064124845
(1533603735.399455) can1 22B#550000000088
(1533603735.400216) can1 22C#550000000089
(1533603735.400481) can1 22D#55000000008A
(1533603735.401249) can1 22E#55000000008B
(1533603735.401454) can1 22F#55000000008C
(1533603735.401869) can1 141#00000046
(1533603735.402276) can1 230#557FFF485900AD
(1533603735.402485) can1 231#5501FEF000000281
(1533603735.402600) can1 344#0000010000000050
(1533603735.403247) can1 232#5500FE00FE00FE8B
(1533603735.403485) can1 160#0000081201319C51
(1533603735.404160) can1 161#001E0000008007
(1533603735.404920) can1 365#00000080FC0008
(1533603735.405625) can1 366#007207FF09FE00
(1533603735.406261) can1 4CB#0C00000000000000
(1533603735.423019) can1 141#00000046
(1533603735.423639) can1 128#F40190830037
(1533603735.424262) can1 283#0000000000008C
(1533603735.436206) can1 210#5600B6FF63FFE168
(1533603735.436445) can1 211#56FFF80000000068
(1533603735.437205) can1 212#56FFF80000000069
(1533603735.437444) can1 213#56FFF8000000006A
(1533603735.438207) can1 214#56FFF8000000006B
(1533603735.438445) can1 215#56FFF8000000006C
(1533603735.439292) can1 216#56FFF8000000006D
(1533603735.439477) can1 217#56FFF8000000006E
(1533603735.440321) can1 218#5600C6FF0000013E
(1533603735.440477) can1 219#5600BA01800001B5
(1533603735.441253) can1 21A#5600CE00600001A9
(1533603735.441469) can1 21B#56FFF80000000072
(1533603735.442233) can1 21C#56FFF80000000073
(1533603735.442493) can1 21D#56FFF80000000074
(1533603735.442855) can1 141#00000046
(1533603735.443377) can1 21E#56FFF80000000075
(1533603735.443601) can1 21F#56FFF80000000076
(1533603735.444263) can1 220#5600640000040CF4
(1533603735.444486) can1 221#5600000000000081
(1533603735.445251) can1 222#5600000000000082
(1533603735.445453) can1 223#5600000000000083
(1533603735.446269) can1 224#5600000000000084
(1533603735.446523) can1 225#5600000000000085
(1533603735.447287) can1 226#5600000000000086
(1533603735.447520) can1 227#5600000000000087
(1533603735.448226) can1 228#56006412C4C0
(1533603735.448474) can1 229#56006412C8C5
(1533603735.449228) can1 22A#560064124846
(1533603735.449476) can1 22B#560000000089
(1533603735.450226) can1 22C#56000000008A
(1533603735.450462) can1 22D#56000000008B
(1533603735.451201) can1 22E#56000000008C
(1533603735.451446) can1 22F#56000000008D
(1533603735.452195) can1 123#0108090D40008A
(1533603735.452441) can1 230#567FFF485A00AF
(1533603735.453246) can1 231#5601FEF000000282
(1533603735.453435) can1 232#5600FE00FE00FE8C
(1533603735.453977) can1 128#F40190830037
(1533603735.454203) can1 283#0000000000008C
(1533603735.454432) can1 344#0000010000000050
(1533603735.454535) can1 3D0#2B80808080808006
(1533603735.455162) can1 3D1#2B80808080808007
(1533603735.455379) can1 3D2#2B80808080808008
(1533603735.455674) can1 3D3#2B80808080808009
(1533603735.463005) can1 141#00000046
(1533603735.476044) can1 160#0000081201319C51
(1533603735.476692) can1 161#001E0000008007
(1533603735.484077) can1 141#00000046
(1533603735.484508) can1 128#F40190830037
(1533603735.484898) can1 283#0000000000008C
(1533603735.486244) can1 210#5700B6FF63FFE169
(1533603735.486481) can1 211#57FFF80000000069
(1533603735.487268) can1 212#57FFF8000000006A
(1533603735.487530) can1 213#57FFF8000000006B
(1533603735.488286) can1 214#57FFF8000000006C
(1533603735.488541) can1 215#57FFF8000000006D
(1533603735.489296) can1 216#57FFF8000000006E
(1533603735.489539) can1 217#57FFF8000000006F
(1533603735.490309) can1 218#5700C6FF0000013F
(1533603735.490434) can1 219#5700BA01800001B6
(1533603735.491203) can1 21A#5700CE00600001AA
(1533603735.491496) can1 21B#57FFF80000000073
(1533603735.492211) can1 21C#57FFF80000000074
(1533603735.492485) can1 21D#57FFF80000000075
(1533603735.493250) can1 21E#57FFF80000000076
(1533603735.493498) can1 21F#57FFF80000000077
(1533603735.494219) can1 220#5700640000040CF5
(1533603735.494449) can1 221#5700000000000082
(1533603735.495234) can1 222#5700000000000083
(1533603735.495437) can1 223#5700000000000084
(1533603735.496251) can1 224#5700000000000085
(1533603735.496499) can1 225#5700000000000086
(1533603735.497207) can1 226#5700000000000087
(1533603735.497481) can1 227#5700000000000088
(1533603735.498190) can1 228#57006412C4C1
(1533603735.498439) can1 229#57006412C8C6
(1533603735.499189) can1 22A#570064124847
(1533603735.499435) can1 22B#57000000008A
(1533603735.500188) can1 22C#57000000008B
(1533603735.500435) can1 22D#57000000008C
(1533603735.501273) can1 22E#57000000008D
(1533603735.501509) can1 22F#57000000008E
(1533603735.502271) can1 230#577FFF485B00B1
(1533603735.502479) can1 231#5701FEF000000283
(1533603735.503278) can1 232#5700FE00FE00FE8D
(1533603735.505036) can1 141#00000046
(1533603735.505515) can1 344#0000010000000050
(1533603735.516245) can1 128#F40190830037
(1533603735.516634) can1 283#0000000000008C
(1533603735.525625) can1 141#00000046
(1533603735.536190) can1 210#5800B6FF63FFF17A
(1533603735.536429) can1 211#58FFF8000000006A
(1533603735.537241) can1 212#58FFF8000000006B
(1533603735.537419) can1 213#58FFF8000000006C
(1533603735.538239) can1 214#58FFF8000000006D
(1533603735.538439) can1 215#58FFF8000000006E
(1533603735.539205) can1 216#58FFF8000000006F
(1533603735.539540) can1 217#58FFF80000000070
(1533603735.540279) can1 218#5800C6FF00000140
(1533603735.540500) can1 219#5800BA0160000197
(1533603735.541299) can1 21A#5800CE00600001AB
(1533603735.541497) can1 21B#58FFF80000000074
(1533603735.542300) can1 21C#58FFF80000000075
(1533603735.542498) can1 21D#58FFF80000000076
(1533603735.543300) can1 21E#58FFF80000000077
(1533603735.543499) can1 21F#58FFF80000000078
(1533603735.544288) can1 220#5802640000040CF8
(1533603735.544556) can1 221#5800000000000083
(1533603735.545267) can1 222#5800000000000084
(1533603735.545509) can1 223#5800000000000085
(1533603735.546023) can1 141#00000046
(1533603735.546235) can1 224#5800000000000086
(1533603735.546521) can1 128#F40190830037
(1533603735.546633) can1 225#5800000000000087
(1533603735.546879) can1 283#0000000000008C
(1533603735.547278) can1 160#0000081201319C51
(1533603735.547442) can1 226#5800000000000088
(1533603735.547672) can1 161#001E0000008007
(1533603735.547838) can1 227#5800000000000089
(1533603735.548344) can1 228#58006412C4C2
(1533603735.548537) can1 229#58006412C8C7
(1533603735.549222) can1 22A#580064124848
(1533603735.549464) can1 22B#58000000008B
(1533603735.550223) can1 22C#58000000008C
(1533603735.550460) can1 22D#58000000008D
(1533603735.551216) can1 22E#58000000008E
(1533603735.551440) can1 22F#58000000008F
(1533603735.552197) can1 123#0108090D40008A
(1533603735.552429) can1 230#587FFF485C00B3
(1533603735.553240) can1 231#5801FEF000000284
(1533603735.553420) can1 232#5800FE00FE00FE8E
(1533603735.554257) can1 3D0#2C80808080808007
(1533603735.554486) can1 3D1#2C80808080808008
(1533603735.555203) can1 3D2#2C80808080808009
(1533603735.555431) can1 3D3#2C8080808080800A
(1533603735.560020) can1 344#0000010000000050
(1533603735.566678) can1 141#00000046
(1533603735.577017) can1 128#F40190830037
(1533603735.577422) can1 283#0000000000008C
(1533603735.586229) can1 210#5900B6FF63FFE16B
(1533603735.586421) can1 211#59FFF8000000006B
(1533603735.587164) can1 141#00000046
(1533603735.587310) can1 212#59FFF8000000006C
(1533603735.587709) can1 213#59FFF8000000006D
(1533603735.588249) can1 214#59FFF8000000006E
(1533603735.588490) can1 215#59FFF8000000006F
(1533603735.589291) can1 216#59FFF80000000070
(1533603735.589536) can1 217#59FFF80000000071
(1533603735.590267) can1 218#5900C6FF00000141
(1533603735.590477) can1 219#5900BA0160000198
(1533603735.591291) can1 21A#5900CE00600001AC
(1533603735.591420) can1 21B#59FFF80000000075
(1533603735.592237) can1 21C#59FFF80000000076
(1533603735.592484) can1 21D#59FFF80000000077
(1533603735.593239) can1 21E#59FFF80000000078
(1533603735.593482) can1 21F#59FFF80000000079
(1533603735.594192) can1 220#59FE640000040CF5
(1533603735.594421) can1 221#5900000000000084
(1533603735.595234) can1 222#5900000000000085
(1533603735.595414) can1 223#5900000000000086
(1533603735.596220) can1 224#5900000000000087
(1533603735.596468) can1 225#5900000000000088
(1533603735.597217) can1 226#5900000000000089
(1533603735.597481) can1 227#590000000000008A
(1533603735.598144) can1 228#59006412C4C3
(1533603735.598373) can1 229#59006412C8C8
(1533603735.599211) can1 22A#590064124849
(1533603735.599442) can1 22B#59000000008C
(1533603735.600211) can1 22C#59000000008D
(1533603735.600451) can1 22D#59000000008E
(1533603735.601214) can1 22E#59000000008F
(1533603735.601451) can1 22F#590000000090
(1533603735.602214) can1 230#597FFF485D00B5
(1533603735.602459) can1 231#5901FEF000000285
(1533603735.603221) can1 232#5900FE00FE00FE8F
(1533603735.607889) can1 141#00000046
(1533603735.608514) can1 128#F40190830037
(1533603735.608957) can1 283#0000000000008C
(1533603735.609497) can1 344#0000010000000050
(1533603735.610012) can1 365#00000080FC0008
(1533603735.610511) can1 366#007207FF09FE00
(1533603735.618283) can1 160#0000081201319C51
(1533603735.618806) can1 161#001E0000008007
(1533603735.628607) can1 141#00000046
(1533603735.636212) can1 210#5A00B6FF63FFE16C
(1533603735.636449) can1 211#5AFFF8000000006C
(1533603735.637211) can1 212#5AFFF8000000006D
(1533603735.637450) can1 213#5AFFF8000000006E
(1533603735.638211) can1 214#5AFFF8000000006F
(1533603735.638480) can1 215#5AFFF80000000070
(1533603735.639246) can1 216#5AFFF80000000071
(1533603735.639271) can1 128#F40190830037
(1533603735.639523) can1 217#5AFFF80000000072
(1533603735.640066) can1 283#0000000000008C
(1533603735.640274) can1 218#5A00C6FF00000142
(1533603735.640718) can1 219#5A00BA01800001B9
(1533603735.641238) can1 21A#5A00CE00600001AD
(1533603735.641452) can1 21B#5AFFF80000000076
(1533603735.642237) can1 21C#5AFFF80000000077
(1533603735.642447) can1 21D#5AFFF80000000078
(1533603735.643250) can1 21E#5AFFF80000000079
(1533603735.643462) can1 21F#5AFFF8000000007A
(1533603735.644243) can1 220#5A00640000040CF8
(1533603735.644545) can1 221#5A00000000000085
(1533603735.645223) can1 222#5A00000000000086
(1533603735.645459) can1 223#5A00000000000087
(1533603735.646406) can1 224#5A00000000000088
(1533603735.646448) can1 225#5A00000000000089
(1533603735.647464) can1 226#5A0000000000008A
(1533603735.647471) can1 227#5A0000000000008B
(1533603735.648181) can1 228#5A006412C4C4
(1533603735.648347) can1 229#5A006412C8C9
(1533603735.649244) can1 22A#5A006412484A
(1533603735.649460) can1 22B#5A000000008D
(1533603735.649947) can1 141#00000046
(1533603735.650305) can1 22C#5A000000008E
(1533603735.650501) can1 22D#5A000000008F
(1533603735.651216) can1 22E#5A0000000090
(1533603735.651474) can1 22F#5A0000000091
(1533603735.652231) can1 123#0108090D40008A
(1533603735.652444) can1 230#5A7FFF485E00B7
(1533603735.653182) can1 231#5A01FEF000000286
(1533603735.653427) can1 232#5A00FE00FE00FE90
(1533603735.654239) can1 3D0#2D80808080808008
(1533603735.654470) can1 3D1#2D80808080808009
(1533603735.655270) can1 3D2#2D8080808080800A
(1533603735.655501) can1 3D3#2D8080808080800B
(1533603735.660857) can1 344#0000010000000050
(1533603735.669593) can1 141#00000046
(1533603735.669746) can1 128#F40190830037
(1533603735.669937) can1 283#0000000000008C
(1533603735.686242) can1 210#5B00B6FF63FFE16D
(1533603735.686502) can1 211#5BFFF8000000006D
(1533603735.687272) can1 212#5BFFF8000000006E
(1533603735.687495) can1 213#5BFFF8000000006F
(1533603735.688312) can1 214#5BFFF80000000070
(1533603735.688460) can1 215#5BFFF80000000071
(1533603735.689323) can1 216#5BFFF80000000072
(1533603735.689479) can1 217#5BFFF80000000073
(1533603735.690141) can1 141#00000046
(1533603735.690268) can1 218#5B00C6FF00000143
(1533603735.690399) can1 160#0000081201319C51
(1533603735.690624) can1 161#001E0000008007
(1533603735.690740) can1 219#5B00BA01800001BA
(1533603735.691332) can1 21A#5B00CE00600001AE
(1533603735.691549) can1 21B#5BFFF80000000077
(1533603735.692220) can1 21C#5BFFF80000000078
(1533603735.692497) can1 21D#5BFFF80000000079
(1533603735.693179) can1 21E#5BFFF8000000007A
(1533603735.693414) can1 21F#5BFFF8000000007B
(1533603735.694177) can1 220#5B00640000040CF9
(1533603735.694414) can1 221#5B00000000000086
(1533603735.695195) can1 222#5B00000000000087
(1533603735.695404) can1 223#5B00000000000088
(1533603735.696214) can1 224#5B00000000000089
(1533603735.696447) can1 225#5B0000000000008A
(1533603735.697213) can1 226#5B0000000000008B
(1533603735.697458) can1 227#5B0000000000008C
(1533603735.698184) can1 228#5B006412C4C5
(1533603735.698321) can1 229#5B006412C8CA
(1533603735.699167) can1 22A#5B006412484B
(1533603735.699413) can1 22B#5B000000008E
(1533603735.700175) can1 22C#5B000000008F
(1533603735.700233) can1 128#F40190830037
(1533603735.700431) can1 22D#5B0000000090
(1533603735.700533) can1 283#0000000000008C
(1533603735.701180) can1 22E#5B0000000091
(1533603735.701412) can1 22F#5B0000000092
(1533603735.702179) can1 230#5B7FFF485F00B9
(1533603735.702403) can1 231#5B01FEF000000287
(1533603735.703195) can1 232#5B00FE00FE00FE91
(1533603735.711157) can1 141#00000046
(1533603735.711810) can1 344#0000010000000050
(1533603735.732130) can1 141#00000046
(1533603735.732840) can1 128#F40190830037
(1533603735.733549) can1 283#0000000000008C
(1533603735.736215) can1 210#5C00B6FF63FFE16E
(1533603735.736411) can1 211#5CFFF8000000006E
(1533603735.737216) can1 212#5CFFF8000000006F
(1533603735.737455) can1 213#5CFFF80000000070
(1533603735.738214) can1 214#5CFFF80000000071
(1533603735.738409) can1 215#5CFFF80000000072
(1533603735.739168) can1 216#5CFFF80000000073
(1533603735.739457) can1 217#5CFFF80000000074
(1533603735.740219) can1 218#5C00C6FF00000144
(1533603735.740460) can1 219#5C00BA01800001BB
(1533603735.741205) can1 21A#5C00CE00600001AF
(1533603735.741486) can1 21B#5CFFF80000000078
(1533603735.742209) can1 21C#5CFFF80000000079
(1533603735.742460) can1 21D#5CFFF8000000007A
(1533603735.743236) can1 21E#5CFFF8000000007B
(1533603735.743522) can1 21F#5CFFF8000000007C
(1533603735.744278) can1 220#5C00640000040CFA
(1533603735.744458) can1 221#5C00000000000087
(1533603735.745238) can1 222#5C00000000000088
(1533603735.745459) can1 223#5C00000000000089
(1533603735.746276) can1 224#5C0000000000008A
(1533603735.746507) can1 225#5C0000000000008B
(1533603735.747260) can1 226#5C0000000000008C
(1533603735.747490) can1 227#5C0000000000008D
(1533603735.748205) can1 228#5C006412C4C6
(1533603735.748375) can1 229#5C006412C8CB
(1533603735.749198) can1 22A#5C006412484C
(1533603735.749440) can1 22B#5C000000008F
(1533603735.750178) can1 22C#5C0000000090
(1533603735.750434) can1 22D#5C0000000091
(1533603735.751217) can1 22E#5C0000000092
(1533603735.751436) can1 22F#5C0000000093
(1533603735.752192) can1 123#0108090D40008A
(1533603735.752404) can1 230#5C7FFF486000BB
(1533603735.752735) can1 141#00000046
(1533603735.753229) can1 231#5C01FEF000000288
(1533603735.753448) can1 232#5C00FE00FE00FE92
(1533603735.754261) can1 3D0#2E80808080808009
(1533603735.754512) can1 3D1#2E8080808080800A
(1533603735.755183) can1 3D2#2E8080808080800B
(1533603735.755453) can1 3D3#2E8080808080800C
(1533603735.772199) can1 128#F40190830037
(1533603735.772826) can1 283#0000000000008C
(1533603735.773545) can1 344#0000010000000050
(1533603735.774141) can1 160#0000081201319C51
(1533603735.775464) can1 161#001E0000008007
(1533603735.776394) can1 141#00000046
(1533603735.786231) can1 210#5D00B6FF63FFF17F
(1533603735.786418) can1 211#5DFFF8000000006F
(1533603735.787239) can1 212#5DFFF80000000070
(1533603735.787469) can1 213#5DFFF80000000071
(1533603735.788231) can1 214#5DFFF80000000072
(1533603735.788427) can1 215#5DFFF80000000073
(1533603735.789229) can1 216#5DFFF80000000074
(1533603735.789466) can1 217#5DFFF80000000075
(1533603735.790207) can1 218#5D00C6FF00000145
(1533603735.790443) can1 219#5D00BA01800001BC
(1533603735.791221) can1 21A#5D00CE00600001B0
(1533603735.791429) can1 21B#5DFFF80000000079
(1533603735.792247) can1 21C#5DFFF8000000007A
(1533603735.792480) can1 21D#5DFFF8000000007B
(1533603735.793238) can1 21E#5DFFF8000000007C
(1533603735.793470) can1 21F#5DFFF8000000007D
(1533603735.794215) can1 220#5D02640000040CFD
(1533603735.794424) can1 221#5D00000000000088
(1533603735.794591) can1 141#00000046
(1533603735.795235) can1 222#5D00000000000089
(1533603735.795385) can1 223#5D0000000000008A
(1533603735.796192) can1 224#5D0000000000008B
(1533603735.796443) can1 225#5D0000000000008C
(1533603735.797202) can1 226#5D0000000000008D
(1533603735.797446) can1 227#5D0000000000008E
(1533603735.798152) can1 228#5D006412C4C7
(1533603735.798401) can1 229#5D006412C8CC
(1533603735.799157) can1 22A#5D006412484D
(1533603735.799400) can1 22B#5D0000000090
(1533603735.800157) can1 22C#5D0000000091
(1533603735.800400) can1 22D#5D0000000092
(1533603735.801164) can1 22E#5D0000000093
(1533603735.801387) can1 22F#5D0000000094
(1533603735.802141) can1 230#5D7FFF486100BD
(1533603735.802384) can1 231#5D01FEF000000289
(1533603735.803150) can1 232#5D00FE00FE00FE93
(1533603735.811125) can1 128#F40190830037
(1533603735.811771) can1 283#0000000000008C
(1533603735.815227) can1 141#00000046
(1533603735.816521) can1 344#0000010000000050
(1533603735.817170) can1 365#00000080FC0008
(1533603735.817808) can1 366#007207FF09FE00
(1533603735.825718) can1 128#F40190830037
(1533603735.826489) can1 283#0000000000008C
(1533603735.835972) can1 141#00000046
(1533603735.836180) can1 210#5E00B6FF63FFF180
(1533603735.836595) can1 211#5EFFF80000000070
(1533603735.837168) can1 212#5EFFF80000000071
(1533603735.837395) can1 213#5EFFF80000000072
(1533603735.837934) can1 160#0000081201319C51
(1533603735.838196) can1 214#5EFFF80000000073
(1533603735.838567) can1 161#001E0000008007
(1533603735.838687) can1 215#5EFFF80000000074
(1533603735.839196) can1 216#5EFFF80000000075
(1533603735.839438) can1 217#5EFFF80000000076
(1533603735.840194) can1 218#5E00C6FF00000146
(1533603735.840439) can1 219#5E00BA01800001BD
(1533603735.841200) can1 21A#5E00CE00600001B1
(1533603735.841448) can1 21B#5EFFF8000000007A
(1533603735.842223) can1 21C#5EFFF8000000007B
(1533603735.842497) can1 21D#5EFFF8000000007C
(1533603735.843192) can1 21E#5EFFF8000000007D
(1533603735.843502) can1 21F#5EFFF8000000007E
(1533603735.844219) can1 220#5E00640000040CFC
(1533603735.844449) can1 221#5E00000000000089
(1533603735.845234) can1 222#5E0000000000008A
(1533603735.845438) can1 223#5E0000000000008B
(1533603735.846268) can1 224#5E0000000000008C
(1533603735.846474) can1 225#5E0000000000008D
(1533603735.847254) can1 226#5E0000000000008E
(1533603735.847473) can1 227#5E0000000000008F
(1533603735.848197) can1 228#5E006412C4C8
(1533603735.848334) can1 229#5E006412C8CD
(1533603735.849203) can1 22A#5E006412484E
(1533603735.849420) can1 22B#5E0000000091
(1533603735.850211) can1 22C#5E0000000092
(1533603735.850446) can1 22D#5E0000000093
(1533603735.851215) can1 22E#5E0000000094
(1533603735.851437) can1 22F#5E0000000095
(1533603735.852216) can1 123#0108090D40008A
(1533603735.852430) can1 230#5E7FFF486200BF
(1533603735.853226) can1 231#5E01FEF00000028A
(1533603735.853441) can1 232#5E00FE00FE00FE94
(1533603735.854218) can1 3D0#2F8080808080800A
(1533603735.854471) can1 3D1#2F8080808080800B
(1533603735.855225) can1 3D2#2F8080808080800C
(1533603735.855480) can1 3D3#2F8080808080800D
(1533603735.856417) can1 141#00000046
(1533603735.871286) can1 128#F40190830037
(1533603735.872027) can1 283#0000000000008C
(1533603735.872668) can1 344#0000010000000050
(1533603735.877278) can1 141#00000046
(1533603735.886219) can1 210#5F00B6FF63FFF181
(1533603735.886478) can1 211#5FFFF80000000071
(1533603735.887246) can1 212#5FFFF80000000072
(1533603735.887448) can1 213#5FFFF80000000073
(1533603735.887658) can1 128#F40190830037
(1533603735.888214) can1 214#5FFFF80000000074
(1533603735.888363) can1 283#0000000000008C
(1533603735.888463) can1 215#5FFFF80000000075
(1533603735.889175) can1 216#5FFFF80000000076
(1533603735.889419) can1 217#5FFFF80000000077
(1533603735.890223) can1 218#5F00C6FF00000147
(1533603735.890469) can1 219#5F00BA01800001BE
(1533603735.891186) can1 21A#5F00CE00600001B2
(1533603735.891463) can1 21B#5FFFF8000000007B
(1533603735.892196) can1 21C#5FFFF8000000007C
(1533603735.892423) can1 21D#5FFFF8000000007D
(1533603735.893312) can1 21E#5FFFF8000000007E
(1533603735.893439) can1 21F#5FFFF8000000007F
(1533603735.894172) can1 220#5F00640000040CFD
(1533603735.894422) can1 221#5F0000000000008A
(1533603735.895184) can1 222#5F0000000000008B
(1533603735.895530) can1 223#5F0000000000008C
(1533603735.896384) can1 224#5F0000000000008D
(1533603735.896422) can1 225#5F0000000000008E
(1533603735.897193) can1 226#5F0000000000008F
(1533603735.897440) can1 227#5F00000000000090
(1533603735.898153) can1 228#5F006412C4C9
(1533603735.898203) can1 141#00000046
(1533603735.898400) can1 229#5F006412C8CE
(1533603735.899160) can1 22A#5F006412484F
(1533603735.899380) can1 22B#5F0000000092
(1533603735.900134) can1 22C#5F0000000093
(1533603735.900384) can1 22D#5F0000000094
(1533603735.901138) can1 22E#5F0000000095
(1533603735.901384) can1 22F#5F0000000096
(1533603735.902139) can1 230#5F7FFF486300C1
(1533603735.902383) can1 231#5F01FEF00000028B
(1533603735.903191) can1 232#5F00FE00FE00FE95
(1533603735.910758) can1 160#0000081201319C51
(1533603735.911451) can1 161#001E0000008007
(1533603735.918901) can1 141#00000046
(1533603735.920254) can1 128#F40190830037
(1533603735.921263) can1 283#0000000000008C
(1533603735.921906) can1 344#0000010000000050
(1533603735.936179) can1 210#6000B6FF63FFF182
(1533603735.936423) can1 211#60FFF80000000072
(1533603735.937135) can1 212#60FFF80000000073
(1533603735.937419) can1 213#60FFF80000000074
(1533603735.938132) can1 214#60FFF80000000075
(1533603735.938418) can1 215#60FFF80000000076
(1533603735.939132) can1 216#60FFF80000000077
(1533603735.939414) can1 217#60FFF80000000078
(1533603735.939451) can1 141#00000046
(1533603735.940174) can1 218#6000C6FF00000148
(1533603735.940424) can1 219#6000BA01800001BF
(1533603735.941157) can1 21A#6000CE00600001B3
(1533603735.941377) can1 21B#6002F804700000F3
(1533603735.942185) can1 21C#6002E8FAF000005A
(1533603735.942425) can1 21D#60FFF8000000007E
(1533603735.943178) can1 21E#60FFF8000000007F
(1533603735.943419) can1 21F#60FFF80000000080
(1533603735.944178) can1 220#6000640000040CFE
(1533603735.944426) can1 221#600000000000008B
(1533603735.945158) can1 222#600000000000008C
(1533603735.945362) can1 223#600000000000008D
(1533603735.946178) can1 224#600000000000008E
(1533603735.946422) can1 225#600000000000008F
(1533603735.947181) can1 226#6000000000000090
(1533603735.947429) can1 227#6000000000000091
(1533603735.948140) can1 228#60006412C4CA
(1533603735.948380) can1 229#60006412C8CF
(1533603735.949130) can1 22A#600064124850
(1533603735.949377) can1 22B#60000090C8EB
(1533603735.950134) can1 22C#60000070C8CC
(1533603735.950376) can1 22D#600000000095
(1533603735.950434) can1 128#F40190830037
(1533603735.950991) can1 283#0000000000008C
(1533603735.951108) can1 22E#600000000096
(1533603735.951576) can1 22F#600000000097
(1533603735.952146) can1 123#0108090D40008A
(1533603735.952380) can1 230#607FFF486400C3
(1533603735.953185) can1 231#6001FEF00000028C
(1533603735.953399) can1 232#6000FE00FE00FE96
(1533603735.954209) can1 3D0#308080808080800B
(1533603735.954460) can1 3D1#308080808080800C
(1533603735.955178) can1 3D2#308080808080800D
(1533603735.955450) can1 3D3#308080808080800E
(1533603735.970611) can1 141#00000046
(1533603735.971368) can1 344#0000010000000050
(1533603735.982826) can1 141#00000046
(1533603735.983508) can1 128#F40190830037
(1533603735.984097) can1 283#0000000000008C
(1533603735.984723) can1 160#0000081201319C51
(1533603735.985441) can1 161#001E0000008007
(1533603735.986138) can1 210#6100B6FF63FFF183
(1533603735.986393) can1 211#61FFF80000000073
(1533603735.987135) can1 212#61FFF80000000074
(1533603735.987358) can1 213#61FFF80000000075
(1533603735.988159) can1 214#61FFF80000000076
(1533603735.988413) can1 215#61FFF80000000077
(1533603735.989180) can1 216#61FFF80000000078
(1533603735.989404) can1 217#61FFF80000000079
(1533603735.990170) can1 218#6100C6FF00000149
(1533603735.990346) can1 219#6100BA01800001C0
(1533603735.991170) can1 21A#6100CE00600001B4
(1533603735.991354) can1 21B#6102FC0480FFF0F7
(1533603735.992167) can1 21C#6102ECFAE0FFF03E
(1533603735.992400) can1 21D#61FFF8000000007F
(1533603735.993182) can1 21E#61FFF80000000080
(1533603735.993417) can1 21F#61FFF80000000081
(1533603735.994164) can1 220#6100640000040CFF
(1533603735.994391) can1 221#610000000000008C
(1533603735.995151) can1 222#610000000000008D
(1533603735.995390) can1 223#610000000000008E
(1533603735.996234) can1 224#610000000000008F
(1533603735.996438) can1 225#6100000000000090
(1533603735.997201) can1 226#6100000000000091
(1533603735.997437) can1 227#6100000000000092
(1533603735.998174) can1 228#61006412C4CB
(1533603735.998330) can1 229#61006412C8D0
(1533603735.999178) can1 22A#610064124851
(1533603735.999388) can1 22B#61F60090C8E2
(1533603736.000153) can1 22C#61F60070C8C3
(1533603736.000357) can1 22D#610000000096
(1533603736.001143) can1 22E#610000000097
(1533603736.001359) can1 22F#610000000098
(1533603736.002121) can1 230#617FFF486500C5
(1533603736.002368) can1 231#6101FEF00000028D
(1533603736.003120) can1 232#6100FE00FE00FE97
(1533603736.018226) can1 141#00000046
(1533603736.018823) can1 128#F40190830037
(1533603736.019453) can1 283#0000000000008C
(1533603736.022436) can1 141#00000046
(1533603736.023063) can1 344#0000010000000050
(1533603736.023695) can1 365#00000080FC0008
(1533603736.024220) can1 366#007207FF09FE00
(1533603736.036234) can1 210#6200B6FF63FFF184
(1533603736.036384) can1 211#62FFF80000000074
(1533603736.037221) can1 212#62FFF80000000075
(1533603736.037453) can1 213#62FFF80000000076
(1533603736.038192) can1 214#62FFF80000000077
(1533603736.038471) can1 215#62FFF80000000078
(1533603736.039136) can1 216#62FFF80000000079
(1533603736.039453) can1 217#62FFF8000000007A
(1533603736.040192) can1 218#6200C6FF0000014A
(1533603736.040386) can1 219#6200BA01800001C1
(1533603736.041173) can1 21A#6200CE00600001B5
(1533603736.041414) can1 21B#6202FC0480FFF800
(1533603736.042133) can1 21C#6202ECFAE0FFF847
(1533603736.042362) can1 21D#62FFF80000000080
(1533603736.043114) can1 21E#62FFF80000000081
(1533603736.043407) can1 21F#62FFF80000000082
(1533603736.044166) can1 220#6200640000040C00
(1533603736.044401) can1 221#620000000000008D
(1533603736.045160) can1 222#620000000000008E
(1533603736.045339) can1 223#620000000000008F
(1533603736.046160) can1 224#6200000000000090
(1533603736.046438) can1 225#6200000000000091
(1533603736.047124) can1 226#6200000000000092
(1533603736.047390) can1 227#6200000000000093
(1533603736.048139) can1 228#62006412C4CC
(1533603736.048347) can1 229#62006412C8D1
(1533603736.049107) can1 22A#620064124852
(1533603736.049345) can1 22B#62000090C8ED
(1533603736.050149) can1 22C#62000070C8CE
(1533603736.050348) can1 22D#620000000097
(1533603736.051121) can1 22E#620000000098
(1533603736.051348) can1 22F#620000000099
(1533603736.052113) can1 123#0108090D40008A
(1533603736.052361) can1 230#627FFF486600C7
(1533603736.053164) can1 231#6201FEF00000028E
(1533603736.053360) can1 232#6200FE00FE00FE98
(1533603736.054163) can1 3D0#318080808080800C
(1533603736.054405) can1 3D1#318080808080800D
(1533603736.055133) can1 3D2#318080808080800E
(1533603736.055357) can1 3D3#318080808080800F
(1533603736.058187) can1 141#00000046
(1533603736.058854) can1 128#F40190830037
(1533603736.059423) can1 283#0000000000008C
(1533603736.060074) can1 160#0000081201319C51
(1533603736.060714) can1 161#001E0000008007
(1533603736.063833) can1 141#00000046
(1533603736.074377) can1 128#F40190830037
(1533603736.074964) can1 283#0000000000008C
(1533603736.075584) can1 344#0000010000000050
(1533603736.084716) can1 141#00000046
(1533603736.086139) can1 210#6300B6FF63FFE175
(1533603736.086398) can1 211#63FFF80000000075
(1533603736.087227) can1 212#63FFF80000000076
(1533603736.087447) can1 213#63FFF80000000077
(1533603736.088205) can1 214#63FFF80000000078
(1533603736.088446) can1 215#63FFF80000000079
(1533603736.089203) can1 216#63FFF8000000007A
(1533603736.089440) can1 217#63FFF8000000007B
(1533603736.090186) can1 218#6300C6FF0000014B
(1533603736.090401) can1 219#6300BA01800001C2
(1533603736.091217) can1 21A#6300CE00600001B6
(1533603736.091389) can1 21B#6302FC0480FFF801
(1533603736.092226) can1 21C#6302ECFAE0FFF848
(1533603736.092445) can1 21D#63FFF80000000081
(1533603736.093212) can1 21E#63FFF80000000082
(1533603736.093433) can1 21F#63FFF80000000083
(1533603736.094182) can1 220#63FE640000040CFF
(1533603736.094384) can1 221#630000000000008E
(1533603736.095180) can1 222#630000000000008F
(1533603736.095376) can1 223#6300000000000090
(1533603736.096205) can1 224#6300000000000091
(1533603736.096464) can1 225#6300000000000092
(1533603736.097259) can1 226#6300000000000093
(1533603736.097430) can1 227#6300000000000094
(1533603736.098139) can1 228#63006412C4CD
(1533603736.098313) can1 229#63006412C8D2
(1533603736.099140) can1 22A#630064124853
(1533603736.099375) can1 22B#63000090C8EE
(1533603736.100138) can1 22C#63000070C8CF
(1533603736.100383) can1 22D#630000000098
(1533603736.101151) can1 22E#630000000099
(1533603736.101366) can1 22F#63000000009A
(1533603736.102126) can1 230#637FFF486700C9
(1533603736.102382) can1 231#6301FEF00000028F
(1533603736.103121) can1 232#6300FE00FE00FE99
(1533603736.120344) can1 141#00000046
(1533603736.121437) can1 128#F40190830037
(1533603736.122486) can1 283#0000000000008C
(1533603736.128674) can1 141#00000046
(1533603736.129377) can1 344#0000010000000050
(1533603736.129958) can1 160#0000081201319C51
(1533603736.130553) can1 161#001E0000008007
(1533603736.136146) can1 210#6400B6FF63FFF186
(1533603736.136405) can1 211#64FFF80000000076
(1533603736.137149) can1 212#64FFF80000000077
(1533603736.137448) can1 213#64FFF80000000078
(1533603736.138107) can1 214#64FFF80000000079
(1533603736.138405) can1 215#64FFF8000000007A
(1533603736.138803) can1 128#F40190830037
(1533603736.139304) can1 216#64FFF8000000007B
(1533603736.139454) can1 283#0000000000008C
(1533603736.139620) can1 217#64FFF8000000007C
(1533603736.140173) can1 218#6400C6FF0000014C
(1533603736.140419) can1 219#6400BA01800001C3
(1533603736.141197) can1 21A#6400CE00600001B7
(1533603736.141372) can1 21B#6402FC0480FFE0EA
(1533603736.142146) can1 21C#6402ECFAE0FFE031
(1533603736.142424) can1 21D#64FFF80000000082
(1533603736.143156) can1 21E#64FFF80000000083
(1533603736.143388) can1 21F#64FFF80000000084
(1533603736.144148) can1 220#6402640000040C04
(1533603736.144387) can1 221#640000000000008F
(1533603736.145102) can1 222#6400000000000090
(1533603736.145388) can1 223#6400000000000091
(1533603736.146143) can1 224#6400000000000092
(1533603736.146390) can1 225#6400000000000093
(1533603736.147148) can1 226#6400000000000094
(1533603736.147388) can1 227#6400000000000095
(1533603736.148093) can1 228#64006412C4CE
(1533603736.148342) can1 229#64006412C8D3
(1533603736.149098) can1 22A#640064124854
(1533603736.149342) can1 22B#64FC0080C8DB
(1533603736.150096) can1 22C#64FC0070C8CC
(1533603736.150341) can1 22D#640000000099
(1533603736.151096) can1 22E#64000000009A
(1533603736.151341) can1 22F#64000000009B
(1533603736.152096) can1 123#0108090D40008A
(1533603736.152320) can1 230#647FFF486800CB
(1533603736.153127) can1 231#6401FEF000000290
(1533603736.153327) can1 232#6400FE00FE00FE9A
(1533603736.154131) can1 3D0#328080808080800D
(1533603736.154383) can1 3D1#328080808080800E
(1533603736.155152) can1 3D2#328080808080800F
(1533603736.155374) can1 3D3#3280808080808010
(1533603736.158635) can1 141#00000046
(1533603736.169890) can1 141#00000046
(1533603736.170507) can1 128#F40190830037
(1533603736.171118) can1 283#0000000000008C
(1533603736.179916) can1 344#0000010000000050
(1533603736.186131) can1 210#6500B6FF63FFE177
(1533603736.186325) can1 211#65FFF80000000077
(1533603736.187120) can1 212#65FFF80000000078
(1533603736.187328) can1 213#65FFF80000000079
(1533603736.188132) can1 214#65FFF8000000007A
(1533603736.188326) can1 215#65FFF8000000007B
(1533603736.189137) can1 216#65FFF8000000007C
(1533603736.189371) can1 217#65FFF8000000007D
(1533603736.190141) can1 218#6500C6FF0000014D
(1533603736.190179) can1 141#00000046
(1533603736.190391) can1 219#6500BA01800001C4
(1533603736.191143) can1 21A#6500CE00600001B8
(1533603736.191331) can1 21B#6502FA0480FFE8F1
(1533603736.192143) can1 21C#6502EAFAE0FFE838
(1533603736.192408) can1 21D#65FFF80000000083
(1533603736.193160) can1 21E#65FFF80000000084
(1533603736.193422) can1 21F#65FFF80000000085
(1533603736.194136) can1 220#65FE640000040C01
(1533603736.194368) can1 221#6500000000000090
(1533603736.195150) can1 222#6500000000000091
(1533603736.195364) can1 223#6500000000000092
(1533603736.196204) can1 224#6500000000000093
(1533603736.196404) can1 225#6500000000000094
(1533603736.197186) can1 226#6500000000000095
(1533603736.197417) can1 227#6500000000000096
(1533603736.198120) can1 228#65006412C4CF
(1533603736.198362) can1 229#65006412C8D4
(1533603736.199090) can1 22A#650064124855
(1533603736.199354) can1 22B#65FE0080C8DE
(1533603736.200087) can1 22C#65FE0070C8CF
(1533603736.200343) can1 22D#65000000009A
(1533603736.200491) can1 128#F40190830037
(1533603736.201092) can1 22E#65000000009B
(1533603736.201241) can1 283#0000000000008C
(1533603736.201320) can1 22F#65000000009C
(1533603736.201962) can1 160#0000081201319C51
(1533603736.202099) can1 230#657FFF486900CD
(1533603736.202548) can1 231#6501FEF000000291
(1533603736.202641) can1 161#001E0000008007
(1533603736.203191) can1 232#6500FE00FE00FE9B
(1533603736.211326) can1 141#00000046
(1533603736.230853) can1 141#00000046
(1533603736.231518) can1 128#F40190830037
(1533603736.232141) can1 283#0000000000008C
(1533603736.232763) can1 344#0000010000000050
(1533603736.233382) can1 365#00000080FC0008
(1533603736.234049) can1 366#007207FF09FE00
(1533603736.236150) can1 210#6600B6FF63FFE178
(1533603736.236376) can1 211#66FFF80000000078
(1533603736.237149) can1 212#66FFF80000000079
(1533603736.237387) can1 213#66FFF8000000007A
(1533603736.238195) can1 214#66FFF8000000007B
(1533603736.238386) can1 215#66FFF8000000007C
(1533603736.239198) can1 216#66FFF8000000007D
(1533603736.239433) can1 217#66FFF8000000007E
(1533603736.240190) can1 218#6600C6FF0000014E
(1533603736.240411) can1 219#6600BA01800001C5
(1533603736.241166) can1 21A#6600CE00600001B9
(1533603736.241310) can1 21B#6602FA0480FFE8F2
(1533603736.242157) can1 21C#6602EAFAE0FFE839
(1533603736.242403) can1 21D#66FFF80000000084
(1533603736.243102) can1 21E#66FFF80000000085
(1533603736.243358) can1 21F#66FFF80000000086
(1533603736.244145) can1 220#6600640000040C04
(1533603736.244431) can1 221#6600000000000091
(1533603736.245105) can1 222#6600000000000092
(1533603736.245360) can1 223#6600000000000093
(1533603736.246130) can1 224#6600000000000094
(1533603736.246400) can1 225#6600000000000095
(1533603736.247164) can1 226#6600000000000096
(1533603736.247399) can1 227#6600000000000097
(1533603736.248112) can1 228#66006412C4D0
(1533603736.248249) can1 229#66006412C8D5
(1533603736.249063) can1 22A#660064124856
(1533603736.249329) can1 22B#66000080C8E1
(1533603736.250091) can1 22C#66000070C8D2
(1533603736.250354) can1 22D#66000000009B
(1533603736.251082) can1 22E#66000000009C
(1533603736.251327) can1 22F#66000000009D
(1533603736.252080) can1 123#0108090D40008A
(1533603736.252327) can1 230#667FFF486A00CF
(1533603736.253131) can1 231#6601FEF000000292
(1533603736.253326) can1 232#6600FE00FE00FE9C
(1533603736.254132) can1 3D0#338080808080800E
(1533603736.254368) can1 3D1#338080808080800F
(1533603736.255093) can1 3D2#3380808080808010
(1533603736.255379) can1 3D3#3380808080808011
(1533603736.260776) can1 141#00000046
(1533603736.261607) can1 128#F40190830037
(1533603736.262195) can1 283#0000000000008C
(1533603736.272220) can1 141#00000046
(1533603736.273004) can1 160#0000081201319C51
(1533603736.273707) can1 161#001E0000008007
(1533603736.282397) can1 344#0000010000000050
(1533603736.286070) can1 210#6700B6FF63FFE179
(1533603736.286318) can1 211#67FFF80000000079
(1533603736.287126) can1 212#67FFF8000000007A
(1533603736.287319) can1 213#67FFF8000000007B
(1533603736.288124) can1 214#67FFF8000000007C
(1533603736.288379) can1 215#67FFF8000000007D
(1533603736.289123) can1 216#67FFF8000000007E
(1533603736.289360) can1 217#67FFF8000000007F
(1533603736.290148) can1 218#6700C6FF0000014F
(1533603736.290401) can1 219#6700BA01800001C6
(1533603736.291118) can1 21A#6700CE00600001BA
(1533603736.291353) can1 21B#6702FA0480FFE8F3
(1533603736.292097) can1 21C#6702EAFAE0FFE83A
(1533603736.292309) can1 21D#67FFF80000000085
(1533603736.292852) can1 141#00000046
(1533603736.293101) can1 21E#67FFF80000000086
(1533603736.293497) can1 21F#67FFF80000000087
(1533603736.293609) can1 128#F40190830037
(1533603736.294125) can1 220#6700640000040C05
(1533603736.294371) can1 221#6700000000000092
(1533603736.294428) can1 283#0000000000008C
(1533603736.295132) can1 222#6700000000000093
(1533603736.295405) can1 223#6700000000000094
(1533603736.296182) can1 224#6700000000000095
(1533603736.296416) can1 225#6700000000000096
(1533603736.297145) can1 226#6700000000000097
(1533603736.297399) can1 227#6700000000000098
(1533603736.298123) can1 228#67006412C4D1
(1533603736.298288) can1 229#67006412C8D6
(1533603736.299107) can1 22A#670064124857
(1533603736.299342) can1 22B#67000080C8E2
(1533603736.300097) can1 22C#67000070C8D3
(1533603736.300352) can1 22D#67000000009C
(1533603736.301061) can1 22E#67000000009D
(1533603736.301340) can1 22F#67000000009E
(1533603736.302109) can1 230#677FFF486B00D1
(1533603736.302343) can1 231#6701FEF000000293
(1533603736.303052) can1 232#6700FE00FE00FE9D
(1533603736.319208) can1 141#00000046
(1533603736.323797) can1 128#F40190830037
(1533603736.324571) can1 283#0000000000008C
(1533603736.334082) can1 141#00000046
(1533603736.334835) can1 344#0000010000000050
(1533603736.336144) can1 210#6800B6FF63FFE17A
(1533603736.336413) can1 211#68FFF8000000007A
(1533603736.337173) can1 212#68FFF8000000007B
(1533603736.337357) can1 213#68FFF8000000007C
(1533603736.338155) can1 214#68FFF8000000007D
(1533603736.338381) can1 215#68FFF8000000007E
(1533603736.339142) can1 216#68FFF8000000007F
(1533603736.339376) can1 217#68FFF80000000080
(1533603736.340143) can1 218#6800C6FF00000150
(1533603736.340378) can1 219#6800BA01800001C7
(1533603736.341142) can1 21A#6800CE00600001BB
(1533603736.341329) can1 21B#6802FA0480FFE8F4
(1533603736.342169) can1 21C#6802EAFAE0FFE83B
(1533603736.342332) can1 21D#68FFF80000000086
(1533603736.343159) can1 21E#68FFF80000000087
(1533603736.343391) can1 21F#68FFF80000000088
(1533603736.344119) can1 220#6800640000040C06
(1533603736.344343) can1 221#6800000000000093
(1533603736.344425) can1 160#0000081201319C51
(1533603736.345097) can1 222#6800000000000094
(1533603736.345194) can1 161#001E0000008007
(1533603736.345350) can1 223#6800000000000095
(1533603736.346093) can1 224#6800000000000096
(1533603736.346357) can1 225#6800000000000097
(1533603736.347109) can1 226#6800000000000098
(1533603736.347355) can1 227#6800000000000099
(1533603736.348064) can1 228#68006412C4D2
(1533603736.348308) can1 229#68006412C8D7
(1533603736.349064) can1 22A#680064124858
(1533603736.349287) can1 22B#68000080C8E3
(1533603736.350045) can1 22C#68000070C8D4
(1533603736.350290) can1 22D#68000000009D
(1533603736.351046) can1 22E#68000000009E
(1533603736.351290) can1 22F#68000000009F
(1533603736.352096) can1 123#0108090D40008A
(1533603736.352298) can1 230#687FFF486C00D3
(1533603736.353108) can1 231#6801FEF000000294
(1533603736.353307) can1 232#6800FE00FE00FE9E
(1533603736.354113) can1 3D0#348080808080800F
(1533603736.354351) can1 3D1#3480808080808010
(1533603736.355118) can1 3D2#3480808080808011
(1533603736.355344) can1 3D3#3480808080808012
(1533603736.360682) can1 141#00000046
(1533603736.361384) can1 128#F40190830037
(1533603736.362032) can1 283#0000000000008C
(1533603736.375585) can1 141#00000046
(1533603736.385880) can1 128#F40190830037
(1533603736.386162) can1 210#6900B6FF63FFF18B
(1533603736.386568) can1 211#69FFF8000000007B
(1533603736.387163) can1 212#69FFF8000000007C
(1533603736.387358) can1 213#69FFF8000000007D
(1533603736.388047) can1 283#0000000000008C
(1533603736.388152) can1 214#69FFF8000000007E
(1533603736.388573) can1 215#69FFF8000000007F
(1533603736.389040) can1 344#0000010000000050
(1533603736.389217) can1 216#69FFF80000000080
(1533603736.389639) can1 217#69FFF80000000081
(1533603736.390117) can1 218#6900C6FF00000151
(1533603736.390320) can1 219#6900BA01800001C8
(1533603736.391124) can1 21A#6900CE00600001BC
(1533603736.391318) can1 21B#6903000480FFF004
(1533603736.392141) can1 21C#6902F0FAC0FFF02A
(1533603736.392326) can1 21D#69FFF80000000087
(1533603736.393146) can1 21E#69FFF80000000088
(1533603736.393383) can1 21F#69FFF80000000089
(1533603736.394088) can1 220#6902640000040C09
(1533603736.394333) can1 221#6900000000000094
(1533603736.395126) can1 222#6900000000000095
(1533603736.395356) can1 223#6900000000000096
(1533603736.396040) can1 141#00000046
(1533603736.396157) can1 224#6900000000000097
(1533603736.396502) can1 225#6900000000000098
(1533603736.397071) can1 226#6900000000000099
(1533603736.397388) can1 227#690000000000009A
(1533603736.398100) can1 228#69006412C4D3
(1533603736.398273) can1 229#69006412C8D8
(1533603736.399086) can1 22A#690064124859
(1533603736.399331) can1 22B#69080080C8EC
(1533603736.400089) can1 22C#69080070C8DD
(1533603736.400326) can1 22D#69000000009E
(1533603736.401098) can1 22E#69000000009F
(1533603736.401337) can1 22F#6900000000A0
(1533603736.402099) can1 230#697FFF486D00D5
(1533603736.402342) can1 231#6901FEF000000295
(1533603736.403117) can1 232#6900FE00FE00FE9F
(1533603736.424131) can1 141#00000046
(1533603736.424999) can1 128#F40190830037
(1533603736.425627) can1 283#0000000000008C
(1533603736.426349) can1 160#0000081201319C51
(1533603736.427673) can1 161#001E0000008007
(1533603736.436129) can1 210#6A00B6FF63FFF18C
(1533603736.436331) can1 211#6AFFF8000000007C
(1533603736.437078) can1 212#6AFFF8000000007D
(1533603736.437358) can1 213#6AFFF8000000007E
(1533603736.437895) can1 141#00000046
(1533603736.438125) can1 214#6AFFF8000000007F
(1533603736.438557) can1 215#6AFFF80000000080
(1533603736.438639) can1 344#0000010000000050
(1533603736.439201) can1 216#6AFFF80000000081
(1533603736.439291) can1 365#00000080FC0008
(1533603736.439455) can1 217#6AFFF80000000082
(1533603736.439877) can1 366#007207FF09FE00
(1533603736.440304) can1 218#6A00C6FF00000152
(1533603736.440460) can1 4CB#0C00000000000000
(1533603736.440556) can1 219#6A00BA01800001C9
(1533603736.441117) can1 21A#6A00CE00600001BD
(1533603736.441299) can1 21B#6A0300048000081E
(1533603736.442106) can1 21C#6A02F0FAC0000844
(1533603736.442342) can1 21D#6AFFF80000000088
(1533603736.443098) can1 21E#6AFFF80000000089
(1533603736.443375) can1 21F#6AFFF8000000008A
(1533603736.444124) can1 220#6A00640000040C08
(1533603736.444369) can1 221#6A00000000000095
(1533603736.445097) can1 222#6A00000000000096
(1533603736.445359) can1 223#6A00000000000097
(1533603736.446154) can1 224#6A00000000000098
(1533603736.446517) can1 225#6A00000000000099
(1533603736.447148) can1 226#6A0000000000009A
(1533603736.447359) can1 227#6A0000000000009B
(1533603736.448046) can1 228#6A006412C4D4
(1533603736.448292) can1 229#6A006412C8D9
(1533603736.449045) can1 22A#6A006412485A
(1533603736.449268) can1 22B#6A020080C8E7
(1533603736.450083) can1 22C#6A020070C8D8
(1533603736.450281) can1 22D#6A000000009F
(1533603736.451050) can1 22E#6A00000000A0
(1533603736.451328) can1 22F#6A00000000A1
(1533603736.452048) can1 123#0108090D40008A
(1533603736.452326) can1 230#6A7FFF486E00D7
(1533603736.453055) can1 231#6A01FEF000000296
(1533603736.453288) can1 232#6A00FE00FE00FEA0
(1533603736.454119) can1 3D0#3580808080808010
(1533603736.454337) can1 3D1#3580808080808011
(1533603736.455105) can1 3D2#3580808080808012
(1533603736.455337) can1 3D3#3580808080808013
(1533603736.472867) can1 128#F40190830037
(1533603736.473881) can1 283#0000000000008C
(1533603736.474827) can1 141#00000046
(1533603736.479656) can1 141#00000046
(1533603736.480430) can1 128#F40190830037
(1533603736.481002) can1 283#0000000000008C
(1533603736.486123) can1 210#6B00B6FF63FFF18D
(1533603736.486355) can1 211#6BFFF8000000007D
(1533603736.487122) can1 212#6BFFF8000000007E
(1533603736.487354) can1 213#6BFFF8000000007F
(1533603736.488122) can1 214#6BFFF80000000080
(1533603736.488351) can1 215#6BFFF80000000081
(1533603736.489145) can1 216#6BFFF80000000082
(1533603736.489339) can1 217#6BFFF80000000083
(1533603736.489973) can1 344#0000010000000050
(1533603736.490087) can1 218#6B00C6FF00000153
(1533603736.490537) can1 219#6B00BA01600001AA
(1533603736.490687) can1 160#0000081201319C51
(1533603736.491221) can1 21A#6B00CE00600001BE
(1533603736.491457) can1 21B#6B0304048000001B
(1533603736.491513) can1 161#001E0000008007
(1533603736.492077) can1 21C#6B02F4FAC0000041
(1533603736.492341) can1 21D#6BFFF80000000089
(1533603736.493070) can1 21E#6BFFF8000000008A
(1533603736.493334) can1 21F#6BFFF8000000008B
(1533603736.494095) can1 220#6B02640000040C0B
(1533603736.494293) can1 221#6B00000000000096
(1533603736.495068) can1 222#6B00000000000097
(1533603736.495336) can1 223#6B00000000000098
(1533603736.496085) can1 224#6B00000000000099
(1533603736.496338) can1 225#6B0000000000009A
(1533603736.497093) can1 226#6B0000000000009B
(1533603736.497332) can1 227#6B0000000000009C
(1533603736.498037) can1 228#6B006412C4D5
(1533603736.498286) can1 229#6B006412C8DA
(1533603736.499040) can1 22A#6B006412485B
(1533603736.499286) can1 22B#6B020080C8E8
(1533603736.500045) can1 22C#6B020070C8D9
(1533603736.500285) can1 22D#6B00000000A0
(1533603736.501053) can1 22E#6B00000000A1
(1533603736.501278) can1 22F#6B00000000A2
(1533603736.502037) can1 230#6B7FFF486F00D9
(1533603736.502287) can1 231#6B01FEF000000297
(1533603736.503047) can1 232#6B00FE00FE00FEA1
(1533603736.508366) can1 141#00000046
(1533603736.511626) can1 128#F40190830037
(1533603736.512428) can1 283#0000000000008C
(1533603736.522009) can1 141#00000046
(1533603736.536120) can1 210#6C00B6FF63FFF18E
(1533603736.536322) can1 211#6CFFF8000000007E
(1533603736.537099) can1 212#6CFFF8000000007F
(1533603736.537334) can1 213#6CFFF80000000080
(1533603736.538078) can1 214#6CFFF80000000081
(1533603736.538318) can1 215#6CFFF80000000082
(1533603736.539083) can1 216#6CFFF80000000083
(1533603736.539319) can1 217#6CFFF80000000084
(1533603736.540076) can1 218#6C00C6FF00000154
(1533603736.540309) can1 219#6C00BA01800001CB
(1533603736.541048) can1 21A#6C00CE00600001BF
(1533603736.541324) can1 21B#6C03040480000824
(1533603736.542040) can1 21C#6C02F4FAC000084A
(1533603736.542267) can1 21D#6CFFF8000000008A
(1533603736.542754) can1 141#00000046
(1533603736.543223) can1 21E#6CFFF8000000008B
(1533603736.543477) can1 21F#6CFFF8000000008C
(1533603736.543483) can1 128#F40190830037
(1533603736.544020) can1 283#0000000000008C
(1533603736.544103) can1 220#6CFE640000040C08
(1533603736.544592) can1 221#6C00000000000097
(1533603736.544648) can1 344#0000010000000050
(1533603736.545186) can1 222#6C00000000000098
(1533603736.545459) can1 223#6C00000000000099
(1533603736.546093) can1 224#6C0000000000009A
(1533603736.546370) can1 225#6C0000000000009B
(1533603736.547106) can1 226#6C0000000000009C
(1533603736.547321) can1 227#6C0000000000009D
(1533603736.548062) can1 228#6C006412C4D6
(1533603736.548317) can1 229#6C006412C8DB
(1533603736.549062) can1 22A#6C006412485C
(1533603736.549308) can1 22B#6C020080C8E9
(1533603736.550049) can1 22C#6C020070C8DA
(1533603736.550323) can1 22D#6C00000000A1
(1533603736.551077) can1 22E#6C00000000A2
(1533603736.551285) can1 22F#6C00000000A3
(1533603736.552061) can1 123#0108090D40008A
(1533603736.552270) can1 230#6C7FFF487000DB
(1533603736.553113) can1 231#6C01FEF000000298
(1533603736.553372) can1 232#6C00FE00FE00FEA2
(1533603736.554086) can1 3D0#3680808080808011
(1533603736.554338) can1 3D1#3680808080808012
(1533603736.555052) can1 3D2#3680808080808013
(1533603736.555321) can1 3D3#3680808080808014
(1533603736.570112) can1 141#00000046
(1533603736.570784) can1 160#0000081201319C51
(1533603736.571389) can1 161#001E0000008007
(1533603736.574018) can1 128#F40190830037
(1533603736.574917) can1 283#0000000000008C
(1533603736.584099) can1 141#00000046
(1533603736.586117) can1 210#6D00B6FF63FFF18F
(1533603736.586293) can1 211#6DFFF8000000007F
(1533603736.587094) can1 212#6DFFF80000000080
(1533603736.587350) can1 213#6DFFF80000000081
(1533603736.588117) can1 214#6DFFF80000000082
(1533603736.588363) can1 215#6DFFF80000000083
(1533603736.589107) can1 216#6DFFF80000000084
(1533603736.589339) can1 217#6DFFF80000000085
(1533603736.590108) can1 218#6D00C6FF00000155
(1533603736.590330) can1 219#6D00BA01800001CC
(1533603736.591097) can1 21A#6D00CE00600001C0
(1533603736.591283) can1 21B#6D03040480000825
(1533603736.592073) can1 21C#6D02F4FAC000084B
(1533603736.592304) can1 21D#6DFFF8000000008B
(1533603736.593028) can1 21E#6DFFF8000000008C
(1533603736.593308) can1 21F#6DFFF8000000008D
(1533603736.594064) can1 220#6D00640000040C0B
(1533603736.594259) can1 221#6D00000000000098
(1533603736.595055) can1 222#6D00000000000099
(1533603736.595269) can1 223#6D0000000000009A
(1533603736.596074) can1 224#6D0000000000009B
(1533603736.596314) can1 225#6D0000000000009C
(1533603736.597070) can1 226#6D0000000000009D
(1533603736.597314) can1 227#6D0000000000009E
(1533603736.598020) can1 228#6D006412C4D7
(1533603736.598260) can1 229#6D006412C8DC
(1533603736.599011) can1 22A#6D006412485D
(1533603736.599253) can1 22B#6D000080C8E8
(1533603736.600008) can1 22C#6D000070C8D9
(1533603736.600254) can1 22D#6D00000000A2
(1533603736.601009) can1 22E#6D00000000A3
(1533603736.601266) can1 22F#6D00000000A4
(1533603736.602013) can1 230#6D7FFF487100DD
(1533603736.602258) can1 231#6D01FEF000000299
(1533603736.603052) can1 232#6D00FE00FE00FEA3
(1533603736.606901) can1 344#0000010000000050
(1533603736.607502) can1 141#00000046
(1533603736.608136) can1 128#F40190830037
(1533603736.608835) can1 283#0000000000008C
(1533603736.626439) can1 141#00000046
(1533603736.636074) can1 210#6E00B6FF63FFF190
(1533603736.636316) can1 211#6EFFF80000000080
(1533603736.637072) can1 212#6EFFF80000000081
(1533603736.637241) can1 128#F40190830037
(1533603736.637355) can1 213#6EFFF80000000082
(1533603736.638062) can1 214#6EFFF80000000083
(1533603736.638260) can1 283#0000000000008C
(1533603736.638317) can1 215#6EFFF80000000084
(1533603736.638857) can1 160#0000081201319C51
(1533603736.639066) can1 216#6EFFF80000000085
(1533603736.639477) can1 161#001E0000008007
(1533603736.639637) can1 217#6EFFF80000000086
(1533603736.640116) can1 218#6E00C6FF00000156
(1533603736.640339) can1 219#6E00BA01800001CD
(1533603736.641070) can1 21A#6E00CE00600001C1
(1533603736.641312) can1 21B#6E03040480000826
(1533603736.642062) can1 21C#6E02F4FAC000084C
(1533603736.642336) can1 21D#6EFFF8000000008C
(1533603736.643068) can1 21E#6EFFF8000000008D
(1533603736.643368) can1 21F#6EFFF8000000008E
(1533603736.644060) can1 220#6E00640000040C0C
(1533603736.644366) can1 221#6E00000000000099
(1533603736.645112) can1 222#6E0000000000009A
(1533603736.645307) can1 223#6E0000000000009B
(1533603736.646076) can1 224#6E0000000000009C
(1533603736.646300) can1 225#6E0000000000009D
(1533603736.647047) can1 226#6E0000000000009E
(1533603736.647308) can1 227#6E0000000000009F
(1533603736.647835) can1 141#00000046
(1533603736.648038) can1 228#6E006412C4D8
(1533603736.648385) can1 229#6E006412C8DD
(1533603736.648508) can1 344#0000010000000050
(1533603736.649031) can1 22A#6E006412485E
(1533603736.649119) can1 365#00000080FC0008
