(1539821133.557851) can1 210#5002F80020000185
(1539821133.558090) can1 211#50FFF80000000062
(1539821133.558803) can1 212#50FFF80000000063
(1539821133.559088) can1 213#50FFF80000000064
(1539821133.559425) can1 141#00000046
(1539821133.559557) can1 128#F40190830037
(1539821133.559698) can1 283#0000000000008C
(1539821133.559826) can1 214#50FFF80000000065
(1539821133.559883) can1 160#0000081201319C51
(1539821133.559984) can1 161#001E0000008007
(1539821133.560240) can1 215#50FFF80000000066
(1539821133.561182) can1 216#50FFF80000000067
(1539821133.561430) can1 217#50FFF80000000068
(1539821133.561842) can1 218#50059EFB40000858
(1539821133.562098) can1 219#50FFF8000000006A
(1539821133.562813) can1 21A#5002F800400001AF
(1539821133.563098) can1 21B#5006E0FBA00000F6
(1539821133.563804) can1 21C#500418FC8000000E
(1539821133.564088) can1 21D#5006D405800000D6
(1539821133.564801) can1 21E#50FFF8000000006F
(1539821133.565097) can1 21F#50FFF80000000070
(1539821133.565810) can1 220#50006400000404E6
(1539821133.566078) can1 221#500000000000007B
(1539821133.566802) can1 222#500000000000007C
(1539821133.567097) can1 223#500000000000007D
(1539821133.567803) can1 224#500000000000007E
(1539821133.568083) can1 225#500000000000007F
(1539821133.568850) can1 226#5000000000000080
(1539821133.569101) can1 227#5000000000000081
(1539821133.569800) can1 228#500000A04868
(1539821133.569996) can1 229#500000000081
(1539821133.570794) can1 22A#50006462448C
(1539821133.570989) can1 22B#5000648244AD
(1539821133.571779) can1 22C#5000647248A2
(1539821133.571995) can1 22D#500003704840
(1539821133.572803) can1 22E#500000000086
(1539821133.572973) can1 22F#500000000087
(1539821133.573805) can1 123#0108090D40008A
(1539821133.574021) can1 230#507FFF1154006C
(1539821133.574835) can1 231#5001FCF00000027A
(1539821133.575098) can1 232#5000FE00FE00FE86
(1539821133.575813) can1 3D0#A880808080808083
(1539821133.576098) can1 3D1#A880808080808084
(1539821133.576804) can1 3D2#A880808080808085
(1539821133.577090) can1 3D3#A880808080808086
(1539821133.578916) can1 141#00000046
(1539821133.589095) can1 128#F40190830037
(1539821133.589315) can1 283#0000000000008C
(1539821133.589436) can1 344#0000010000000050
(1539821133.599268) can1 141#00000046
(1539821133.607804) can1 210#5102F80020000186
(1539821133.608078) can1 211#51FFF80000000063
(1539821133.608801) can1 212#51FFF80000000064
(1539821133.609084) can1 213#51FFF80000000065
(1539821133.609802) can1 214#51FFF80000000066
(1539821133.610084) can1 215#51FFF80000000067
(1539821133.610837) can1 216#51FFF80000000068
(1539821133.611098) can1 217#51FFF80000000069
(1539821133.611806) can1 218#5105A2FB80000095
(1539821133.612088) can1 219#51FFF8000000006B
(1539821133.612802) can1 21A#5102F800400001B0
(1539821133.613097) can1 21B#5106E0FB800000D7
(1539821133.613813) can1 21C#510418FCA000002F
(1539821133.614098) can1 21D#5106D405600000B7
(1539821133.614805) can1 21E#51FFF80000000070
(1539821133.615088) can1 21F#51FFF80000000071
(1539821133.615804) can1 220#51006400000404E7
(1539821133.616080) can1 221#510000000000007C
(1539821133.616804) can1 222#510000000000007D
(1539821133.617085) can1 223#510000000000007E
(1539821133.617838) can1 224#510000000000007F
(1539821133.618098) can1 225#5100000000000080
(1539821133.618803) can1 226#5100000000000081
(1539821133.619088) can1 227#5100000000000082
(1539821133.619538) can1 141#00000046
(1539821133.619753) can1 128#F40190830037
(1539821133.619884) can1 283#0000000000008C
(1539821133.620003) can1 228#51000F904868
(1539821133.620308) can1 229#510000000082
(1539821133.620773) can1 22A#51006462448D
(1539821133.620973) can1 22B#5100648244AE
(1539821133.621753) can1 22C#5100647248A3
(1539821133.622006) can1 22D#510003704841
(1539821133.622762) can1 22E#510000000087
(1539821133.622973) can1 22F#510000000088
(1539821133.623803) can1 230#517FFF1155006E
(1539821133.624020) can1 231#5101FCF00000027B
(1539821133.624785) can1 232#5100FE00FE00FE87
(1539821133.629835) can1 160#0000081201319C51
(1539821133.629989) can1 161#001E0000008007
(1539821133.639855) can1 141#00000046
(1539821133.640088) can1 344#0000010000000050
(1539821133.649962) can1 128#F40190830037
(1539821133.650165) can1 283#0000000000008C
(1539821133.657805) can1 210#5202F80020000187
(1539821133.658100) can1 211#52FFF80000000064
(1539821133.658804) can1 212#52FFF80000000065
(1539821133.659082) can1 213#52FFF80000000066
(1539821133.659804) can1 214#52FFF80000000067
(1539821133.660077) can1 215#52FFF80000000068
(1539821133.660254) can1 141#00000046
(1539821133.660802) can1 216#52FFF80000000069
(1539821133.661076) can1 217#52FFF8000000006A
(1539821133.661832) can1 218#52059EFB80000092
(1539821133.662095) can1 219#52FFF8000000006C
(1539821133.662831) can1 21A#5202F800400001B1
(1539821133.663098) can1 21B#5206E0FB800000D8
(1539821133.663812) can1 21C#520418FCA0000030
(1539821133.664080) can1 21D#5206D405600000B8
(1539821133.664803) can1 21E#52FFF80000000071
(1539821133.665098) can1 21F#52FFF80000000072
(1539821133.665811) can1 220#52006400000404E8
(1539821133.666081) can1 221#520000000000007D
(1539821133.666802) can1 222#520000000000007E
(1539821133.667098) can1 223#520000000000007F
(1539821133.667803) can1 224#5200000000000080
(1539821133.668082) can1 225#5200000000000081
(1539821133.668802) can1 226#5200000000000082
(1539821133.669100) can1 227#5200000000000083
(1539821133.669762) can1 228#52001C904876
(1539821133.669974) can1 229#520000000083
(1539821133.670786) can1 22A#52006462448E
(1539821133.670994) can1 22B#5200648244AF
(1539821133.671802) can1 22C#5200647248A4
(1539821133.671972) can1 22D#520003704842
(1539821133.672758) can1 22E#520000000088
(1539821133.672974) can1 22F#520000000089
(1539821133.673783) can1 123#0108090D40008A
(1539821133.673999) can1 230#527FFF11560070
(1539821133.674808) can1 231#5201FCF00000027C
(1539821133.675092) can1 232#5200FE00FE00FE88
(1539821133.675804) can1 3D0#A980808080808084
(1539821133.676090) can1 3D1#A980808080808085
(1539821133.676804) can1 3D2#A980808080808086
(1539821133.677081) can1 3D3#A980808080808087
(1539821133.680404) can1 141#00000046
(1539821133.680616) can1 128#F40190830037
(1539821133.680858) can1 283#0000000000008C
(1539821133.690679) can1 344#0000010000000050
(1539821133.700837) can1 141#00000046
(1539821133.701118) can1 160#0000081201319C51
(1539821133.701186) can1 161#001E0000008007
(1539821133.707831) can1 210#5302F80020000188
(1539821133.708098) can1 211#53FFF80000000065
(1539821133.708803) can1 212#53FFF80000000066
(1539821133.709082) can1 213#53FFF80000000067
(1539821133.709810) can1 214#53FFF80000000068
(1539821133.710098) can1 215#53FFF80000000069
(1539821133.710812) can1 216#53FFF8000000006A
(1539821133.710950) can1 128#F40190830037
(1539821133.711097) can1 217#53FFF8000000006B
(1539821133.711155) can1 283#0000000000008C
(1539821133.711803) can1 218#53059CFB80000091
(1539821133.712083) can1 219#53FFF8000000006D
(1539821133.712837) can1 21A#5302F80020000192
(1539821133.713098) can1 21B#5306DEFB800000D7
(1539821133.713811) can1 21C#530418FCA0000031
(1539821133.714080) can1 21D#5306D205600000B7
(1539821133.714805) can1 21E#53FFF80000000072
(1539821133.715090) can1 21F#53FFF80000000073
(1539821133.715806) can1 220#53006400000404E9
(1539821133.716084) can1 221#530000000000007E
(1539821133.716802) can1 222#530000000000007F
(1539821133.717098) can1 223#5300000000000080
(1539821133.717815) can1 224#5300000000000081
(1539821133.718089) can1 225#5300000000000082
(1539821133.718805) can1 226#5300000000000083
(1539821133.719082) can1 227#5300000000000084
(1539821133.719765) can1 228#530028904883
(1539821133.719976) can1 229#530000000084
(1539821133.720807) can1 22A#53006462448F
(1539821133.720973) can1 22B#5300648244B0
(1539821133.721204) can1 141#00000046
(1539821133.721782) can1 22C#5300647248A5
(1539821133.721999) can1 22D#530003704843
(1539821133.722808) can1 22E#530000000089
(1539821133.722974) can1 22F#53000000008A
(1539821133.723783) can1 230#537FFF11570072
(1539821133.724099) can1 231#5301FCF00000027D
(1539821133.724812) can1 232#5300FE00FE00FE89
(1539821133.741577) can1 141#00000046
(1539821133.741777) can1 128#F40190830037
(1539821133.741940) can1 283#0000000000008C
(1539821133.742079) can1 344#0000010000000050
(1539821133.742218) can1 365#00000080FC0008
(1539821133.742351) can1 366#007207FF09FE00
(1539821133.757796) can1 210#5402F60020000187
(1539821133.758098) can1 211#54FFF80000000066
(1539821133.758831) can1 212#54FFF80000000067
(1539821133.759111) can1 213#54FFF80000000068
(1539821133.759804) can1 214#54FFF80000000069
(1539821133.760083) can1 215#54FFF8000000006A
(1539821133.760803) can1 216#54FFF8000000006B
(1539821133.761102) can1 217#54FFF8000000006C
(1539821133.761829) can1 218#54059CFB8000089A
(1539821133.761886) can1 141#00000046
(1539821133.762089) can1 219#54FFF8000000006E
(1539821133.762804) can1 21A#5402F80020000193
(1539821133.763098) can1 21B#5406DCFB800000D6
(1539821133.763813) can1 21C#540416FC80000010
(1539821133.764098) can1 21D#5406D205600000B8
(1539821133.764804) can1 21E#54FFF80000000073
(1539821133.765088) can1 21F#54FFF80000000074
(1539821133.765802) can1 220#54FE6400000404E8
(1539821133.766084) can1 221#540000000000007F
(1539821133.766838) can1 222#5400000000000080
(1539821133.767077) can1 223#5400000000000081
(1539821133.767850) can1 224#5400000000000082
(1539821133.768088) can1 225#5400000000000083
(1539821133.768802) can1 226#5400000000000084
(1539821133.769123) can1 227#5400000000000085
(1539821133.769760) can1 228#54003190488D
(1539821133.769976) can1 229#540000000085
(1539821133.770779) can1 22A#540064624490
(1539821133.770991) can1 22B#5400648244B1
(1539821133.771806) can1 22C#5400647248A6
(1539821133.771974) can1 128#F40190830037
(1539821133.772110) can1 22D#540003704844
(1539821133.772205) can1 283#0000000000008C
(1539821133.772370) can1 160#0000081201319C51
(1539821133.772524) can1 161#001E0000008007
(1539821133.773149) can1 22E#54000000008A
(1539821133.773354) can1 22F#54000000008B
(1539821133.773803) can1 123#0108090D40008A
(1539821133.774027) can1 230#547FFF11580074
(1539821133.774830) can1 231#5401FCF00000027E
(1539821133.775089) can1 232#5400FE00FE00FE8A
(1539821133.775795) can1 3D0#AA80808080808085
(1539821133.776090) can1 3D1#AA80808080808086
(1539821133.776804) can1 3D2#AA80808080808087
(1539821133.777090) can1 3D3#AA80808080808088
(1539821133.781889) can1 141#00000046
(1539821133.792191) can1 344#0000010000000050
(1539821133.802274) can1 141#00000046
(1539821133.802487) can1 128#F40190830037
(1539821133.802620) can1 283#0000000000008C
(1539821133.807827) can1 210#5502F8002000018A
(1539821133.808098) can1 211#55FFF80000000067
(1539821133.808802) can1 212#55FFF80000000068
(1539821133.809098) can1 213#55FFF80000000069
(1539821133.809811) can1 214#55FFF8000000006A
(1539821133.810099) can1 215#55FFF8000000006B
(1539821133.810837) can1 216#55FFF8000000006C
(1539821133.811099) can1 217#55FFF8000000006D
(1539821133.811804) can1 218#5505A0FBC00000D7
(1539821133.812082) can1 219#55FFF8000000006F
(1539821133.812802) can1 21A#5502F80020000194
(1539821133.813089) can1 21B#5506DCFB800000D7
(1539821133.813803) can1 21C#550416FC80000011
(1539821133.814099) can1 21D#5506D205600000B9
(1539821133.814814) can1 21E#55FFF80000000074
(1539821133.815101) can1 21F#55FFF80000000075
(1539821133.815807) can1 220#55026400000404ED
(1539821133.816102) can1 221#5500000000000080
(1539821133.816816) can1 222#5500000000000081
(1539821133.817100) can1 223#5500000000000082
(1539821133.817812) can1 224#5500000000000083
(1539821133.818100) can1 225#5500000000000084
(1539821133.818805) can1 226#5500000000000085
(1539821133.819084) can1 227#5500000000000086
(1539821133.819805) can1 228#550039904896
(1539821133.819962) can1 229#550000000086
(1539821133.820751) can1 22A#550064624491
(1539821133.820964) can1 22B#5500648244B2
(1539821133.821763) can1 22C#5500647248A7
(1539821133.821977) can1 22D#550003704845
(1539821133.822734) can1 141#00000046
(1539821133.822849) can1 22E#55000000008B
(1539821133.823148) can1 22F#55000000008C
(1539821133.823813) can1 230#557FFF11590076
(1539821133.824018) can1 231#5501FCF00000027F
(1539821133.824805) can1 232#5500FE00FE00FE8B
(1539821133.832929) can1 128#F40190830037
(1539821133.833177) can1 283#0000000000008C
(1539821133.842836) can1 141#00000046
(1539821133.843098) can1 344#0000010000000050
(1539821133.843332) can1 160#0000081201319C51
(1539821133.843534) can1 161#001E0000008007
(1539821133.857805) can1 210#5602F8002000018B
(1539821133.858085) can1 211#56FFF80000000068
(1539821133.858838) can1 212#56FFF80000000069
(1539821133.859099) can1 213#56FFF8000000006A
(1539821133.859804) can1 214#56FFF8000000006B
(1539821133.860083) can1 215#56FFF8000000006C
(1539821133.860803) can1 216#56FFF8000000006D
(1539821133.861099) can1 217#56FFF8000000006E
(1539821133.861811) can1 218#56059EFBA00000B6
(1539821133.862081) can1 219#56FFF80000000070
(1539821133.862804) can1 21A#5602F80020000195
(1539821133.863100) can1 21B#5606DEFB800000DA
(1539821133.863327) can1 141#00000046
(1539821133.863576) can1 128#F40190830037
(1539821133.863769) can1 283#0000000000008C
(1539821133.863891) can1 21C#560416FC600000F2
(1539821133.864233) can1 21D#5606D205600000BA
(1539821133.864804) can1 21E#56FFF80000000075
(1539821133.865084) can1 21F#56FFF80000000076
(1539821133.865789) can1 220#56006400000404EC
(1539821133.866098) can1 221#5600000000000081
(1539821133.866803) can1 222#5600000000000082
(1539821133.867086) can1 223#5600000000000083
(1539821133.867805) can1 224#5600000000000084
(1539821133.868082) can1 225#5600000000000085
(1539821133.868803) can1 226#5600000000000086
(1539821133.869099) can1 227#5600000000000087
(1539821133.869802) can1 228#56004080488E
(1539821133.869962) can1 229#560000000087
(1539821133.870811) can1 22A#560064624492
(1539821133.870999) can1 22B#5600648244B3
(1539821133.871755) can1 22C#5600647248A8
(1539821133.871959) can1 22D#560003704846
(1539821133.872803) can1 22E#56000000008C
(1539821133.872963) can1 22F#56000000008D
(1539821133.873803) can1 123#0108090D40008A
(1539821133.874017) can1 230#567FFF115A0078
(1539821133.874826) can1 231#5601FCF000000280
(1539821133.875098) can1 232#5600FE00FE00FE8C
(1539821133.875812) can1 3D0#AB80808080808086
(1539821133.876103) can1 3D1#AB80808080808087
(1539821133.876808) can1 3D2#AB80808080808088
(1539821133.877092) can1 3D3#AB80808080808089
(1539821133.883471) can1 141#00000046
(1539821133.893576) can1 128#F40190830037
(1539821133.893741) can1 283#0000000000008C
(1539821133.893882) can1 344#0000010000000050
(1539821133.903628) can1 141#00000046
(1539821133.907827) can1 210#5702F8002000018C
(1539821133.908099) can1 211#57FFF80000000069
(1539821133.908811) can1 212#57FFF8000000006A
(1539821133.909098) can1 213#57FFF8000000006B
(1539821133.909821) can1 214#57FFF8000000006C
(1539821133.910114) can1 215#57FFF8000000006D
(1539821133.910806) can1 216#57FFF8000000006E
(1539821133.911083) can1 217#57FFF8000000006F
(1539821133.911804) can1 218#57058CFAC00000C4
(1539821133.912099) can1 219#57FFF80000000071
(1539821133.912812) can1 21A#5702F80020000196
(1539821133.913026) can1 21B#5706DEFB800000DB
(1539821133.913811) can1 21C#570416FC80000013
(1539821133.913967) can1 160#0000081201319C51
(1539821133.914112) can1 21D#5706D205600000BB
(1539821133.914181) can1 161#001E0000008007
(1539821133.914802) can1 21E#57FFF80000000076
(1539821133.915089) can1 21F#57FFF80000000077
(1539821133.915815) can1 220#57006400000404ED
(1539821133.916079) can1 221#5700000000000082
(1539821133.916807) can1 222#5700000000000083
(1539821133.917102) can1 223#5700000000000084
(1539821133.917817) can1 224#5700000000000085
(1539821133.918100) can1 225#5700000000000086
(1539821133.918805) can1 226#5700000000000087
(1539821133.919085) can1 227#5700000000000088
(1539821133.919772) can1 228#57004780C816
(1539821133.919983) can1 229#570000000088
(1539821133.920787) can1 22A#570064624493
(1539821133.921005) can1 22B#5700648244B4
(1539821133.921808) can1 22C#5700647248A9
(1539821133.921956) can1 22D#570003704847
(1539821133.922804) can1 22E#57000000008D
(1539821133.923008) can1 22F#57000000008E
(1539821133.923804) can1 230#577FFF115B007A
(1539821133.924100) can1 231#5701FCF000000281
(1539821133.924157) can1 141#00000046
(1539821133.924286) can1 128#F40190830037
(1539821133.924532) can1 283#0000000000008C
(1539821133.925009) can1 232#5700FE00FE00FE8D
(1539821133.944475) can1 141#00000046
(1539821133.944723) can1 344#0000010000000050
(1539821133.944975) can1 365#00000080FC0008
(1539821133.945215) can1 366#007207FF09FE00
(1539821133.954395) can1 128#F40190830037
(1539821133.954553) can1 283#0000000000008C
(1539821133.957803) can1 210#5802F8002000018D
(1539821133.958085) can1 211#58FFF8000000006A
(1539821133.958814) can1 212#58FFF8000000006B
(1539821133.959099) can1 213#58FFF8000000006C
(1539821133.959831) can1 214#58FFF8000000006D
(1539821133.960098) can1 215#58FFF8000000006E
(1539821133.960812) can1 216#58FFF8000000006F
(1539821133.961100) can1 217#58FFF80000000070
(1539821133.961811) can1 218#58058AFAC00008CB
(1539821133.962090) can1 219#58FFF80000000072
(1539821133.962809) can1 21A#5802F80020000197
(1539821133.963090) can1 21B#5806DEFB800000DC
(1539821133.963804) can1 21C#580416FC80000014
(1539821133.964101) can1 21D#5806D205600000BC
(1539821133.964589) can1 141#00000046
(1539821133.964804) can1 21E#58FFF80000000077
(1539821133.965251) can1 21F#58FFF80000000078
(1539821133.965817) can1 220#58006400000404EE
(1539821133.966111) can1 221#5800000000000083
(1539821133.966806) can1 222#5800000000000084
(1539821133.967100) can1 223#5800000000000085
(1539821133.967817) can1 224#5800000000000086
(1539821133.968099) can1 225#5800000000000087
(1539821133.968804) can1 226#5800000000000088
(1539821133.969102) can1 227#5800000000000089
(1539821133.969803) can1 228#58004C80C81C
(1539821133.969972) can1 229#580000000089
(1539821133.970777) can1 22A#580064624494
(1539821133.970998) can1 22B#5800648244B5
(1539821133.971754) can1 22C#5800647248AA
(1539821133.971974) can1 22D#580003704848
(1539821133.972803) can1 22E#58000000008E
(1539821133.973009) can1 22F#58000000008F
(1539821133.973803) can1 123#0108090D40008A
(1539821133.974018) can1 230#587FFF115C007C
(1539821133.974816) can1 231#5801FCF000000282
(1539821133.975099) can1 232#5800FE00FE00FE8E
(1539821133.975823) can1 3D0#AC80808080808087
(1539821133.976080) can1 3D1#AC80808080808088
(1539821133.976806) can1 3D2#AC80808080808089
(1539821133.977087) can1 3D3#AC8080808080808A
(1539821133.984934) can1 141#00000046
(1539821133.985191) can1 128#F40190830037
(1539821133.985438) can1 283#0000000000008C
(1539821133.985632) can1 160#0000081201319C51
(1539821133.985826) can1 161#001E0000008007
(1539821133.995099) can1 344#0000010000000050
(1539821134.005788) can1 141#00000046
(1539821134.007834) can1 210#5902F8002000018E
(1539821134.008099) can1 211#59FFF8000000006B
(1539821134.008804) can1 212#59FFF8000000006C
(1539821134.009083) can1 213#59FFF8000000006D
(1539821134.009804) can1 214#59FFF8000000006E
(1539821134.010099) can1 215#59FFF8000000006F
(1539821134.010821) can1 216#59FFF80000000070
(1539821134.011099) can1 217#59FFF80000000071
(1539821134.011812) can1 218#590598FB40000053
(1539821134.012099) can1 219#59FFF80000000073
(1539821134.012802) can1 21A#5902F80020000198
(1539821134.013080) can1 21B#5906DEFB800000DD
(1539821134.013804) can1 21C#590416FC80000015
(1539821134.014085) can1 21D#5906D205600000BD
(1539821134.014838) can1 21E#59FFF80000000078
(1539821134.015128) can1 21F#59FFF80000000079
(1539821134.015558) can1 128#F40190830037
(1539821134.015766) can1 283#0000000000008C
(1539821134.015859) can1 220#59006400000404EF
(1539821134.016250) can1 221#5900000000000084
(1539821134.016814) can1 222#5900000000000085
(1539821134.017081) can1 223#5900000000000086
(1539821134.017806) can1 224#5900000000000087
(1539821134.018086) can1 225#5900000000000088
(1539821134.018808) can1 226#5900000000000089
(1539821134.019091) can1 227#590000000000008A
(1539821134.019770) can1 228#5900508048A1
(1539821134.019983) can1 229#59000000008A
(1539821134.020788) can1 22A#590064624495
(1539821134.020954) can1 22B#5900648244B6
(1539821134.021775) can1 22C#5900647248AB
(1539821134.021975) can1 22D#590003704849
(1539821134.022783) can1 22E#59000000008F
(1539821134.022991) can1 22F#590000000090
(1539821134.023805) can1 230#597FFF115D007E
(1539821134.024021) can1 231#5901FCF000000283
(1539821134.024787) can1 232#5900FE00FE00FE8F
(1539821134.025532) can1 141#00000046
(1539821134.045789) can1 141#00000046
(1539821134.046099) can1 128#F40190830037
(1539821134.046290) can1 283#0000000000008C
(1539821134.046596) can1 344#0000010000000050
(1539821134.055997) can1 160#0000081201319C51
(1539821134.056237) can1 161#001E0000008007
(1539821134.057806) can1 210#5A02F8002000018F
(1539821134.058086) can1 211#5AFFF8000000006C
(1539821134.058805) can1 212#5AFFF8000000006D
(1539821134.059081) can1 213#5AFFF8000000006E
(1539821134.059813) can1 214#5AFFF8000000006F
(1539821134.060100) can1 215#5AFFF80000000070
(1539821134.060812) can1 216#5AFFF80000000071
(1539821134.061081) can1 217#5AFFF80000000072
(1539821134.061818) can1 218#5A05A2FB8000009E
(1539821134.062099) can1 219#5AFFF80000000074
(1539821134.062805) can1 21A#5A02F800400001B9
(1539821134.063090) can1 21B#5A06DEFB800000DE
(1539821134.063803) can1 21C#5A0416FC80000016
(1539821134.064088) can1 21D#5A06D205600000BE
(1539821134.064805) can1 21E#5AFFF80000000079
(1539821134.065101) can1 21F#5AFFF8000000007A
(1539821134.065815) can1 220#5A006400000404F0
(1539821134.065979) can1 141#00000046
(1539821134.066100) can1 221#5A00000000000085
(1539821134.066789) can1 222#5A00000000000086
(1539821134.067081) can1 223#5A00000000000087
(1539821134.067808) can1 224#5A00000000000088
(1539821134.068090) can1 225#5A00000000000089
(1539821134.068811) can1 226#5A0000000000008A
(1539821134.069141) can1 227#5A0000000000008B
(1539821134.069802) can1 228#5A00538048A5
(1539821134.069961) can1 229#5A000000008B
(1539821134.070807) can1 22A#5A0064624496
(1539821134.070984) can1 22B#5A00648244B7
(1539821134.071787) can1 22C#5A00647248AC
(1539821134.072000) can1 22D#5A000370484A
(1539821134.072765) can1 22E#5A0000000090
(1539821134.072977) can1 22F#5A0000000091
(1539821134.073807) can1 123#0108090D40008A
(1539821134.074101) can1 230#5A7FFF115E0080
(1539821134.074805) can1 231#5A01FCF000000284
(1539821134.075090) can1 232#5A00FE00FE00FE90
(1539821134.075804) can1 3D0#AD80808080808088
(1539821134.076102) can1 3D1#AD80808080808089
(1539821134.076395) can1 128#F40190830037
(1539821134.076862) can1 3D2#AD8080808080808A
(1539821134.077082) can1 3D3#AD8080808080808B
(1539821134.080718) can1 283#0000000000008C
(1539821134.086276) can1 141#00000046
(1539821134.096430) can1 344#0000010000000050
(1539821134.106578) can1 141#00000046
(1539821134.106779) can1 128#F40190830037
(1539821134.106876) can1 283#0000000000008C
(1539821134.107827) can1 210#5B02F80020000190
(1539821134.108096) can1 211#5BFFF8000000006D
(1539821134.108830) can1 212#5BFFF8000000006E
(1539821134.109099) can1 213#5BFFF8000000006F
(1539821134.109812) can1 214#5BFFF80000000070
(1539821134.110083) can1 215#5BFFF80000000071
(1539821134.110804) can1 216#5BFFF80000000072
(1539821134.111099) can1 217#5BFFF80000000073
(1539821134.111812) can1 218#5B05A2FBA00008C7
(1539821134.112080) can1 219#5BFFF80000000075
(1539821134.112803) can1 21A#5B02F8002000019A
(1539821134.113099) can1 21B#5B06DEFB800000DF
(1539821134.113812) can1 21C#5B0416FC80000017
(1539821134.114099) can1 21D#5B06D205600000BF
(1539821134.114821) can1 21E#5BFFF8000000007A
(1539821134.115101) can1 21F#5BFFF8000000007B
(1539821134.115813) can1 220#5B006400000404F1
(1539821134.116080) can1 221#5B00000000000086
(1539821134.116803) can1 222#5B00000000000087
(1539821134.117100) can1 223#5B00000000000088
(1539821134.117815) can1 224#5B00000000000089
(1539821134.118100) can1 225#5B0000000000008A
(1539821134.118805) can1 226#5B0000000000008B
(1539821134.119090) can1 227#5B0000000000008C
(1539821134.119763) can1 228#5B00568048A9
(1539821134.119979) can1 229#5B000000008C
(1539821134.120759) can1 22A#5B0064624497
(1539821134.120978) can1 22B#5B00648244B8
(1539821134.121784) can1 22C#5B00647248AD
(1539821134.122000) can1 22D#5B000370484B
(1539821134.122808) can1 22E#5B0000000091
(1539821134.122975) can1 22F#5B0000000092
(1539821134.123783) can1 230#5B7FFF115F0082
(1539821134.124099) can1 231#5B01FCF000000285
(1539821134.124804) can1 232#5B00FE00FE00FE91
(1539821134.126880) can1 141#00000046
(1539821134.127179) can1 160#0000081201319C51
(1539821134.127430) can1 161#001E0000008007
(1539821134.138229) can1 128#F40190830037
(1539821134.138431) can1 283#0000000000008C
(1539821134.147090) can1 141#00000046
(1539821134.147346) can1 344#0000010000000050
(1539821134.147567) can1 365#00000080FC0008
(1539821134.147849) can1 366#007207FF09FE00
(1539821134.148096) can1 4CB#0C00000000000000
(1539821134.157805) can1 210#5C02F80020000191
(1539821134.158085) can1 211#5CFFF8000000006E
(1539821134.158842) can1 212#5CFFF8000000006F
(1539821134.159099) can1 213#5CFFF80000000070
(1539821134.159805) can1 214#5CFFF80000000071
(1539821134.160084) can1 215#5CFFF80000000072
(1539821134.160803) can1 216#5CFFF80000000073
(1539821134.161081) can1 217#5CFFF80000000074
(1539821134.161836) can1 218#5C059CFB4000005A
(1539821134.162099) can1 219#5CFFF80000000076
(1539821134.162838) can1 21A#5C02F8002000019B
(1539821134.163099) can1 21B#5C06E0FB800000E2
(1539821134.163812) can1 21C#5C0414FC600000F6
(1539821134.164027) can1 21D#5C06D405600000C2
(1539821134.164810) can1 21E#5CFFF8000000007B
(1539821134.165091) can1 21F#5CFFF8000000007C
(1539821134.165808) can1 220#5C006400000404F2
(1539821134.166083) can1 221#5C00000000000087
(1539821134.166806) can1 222#5C00000000000088
(1539821134.167077) can1 223#5C00000000000089
(1539821134.167335) can1 141#00000046
(1539821134.167663) can1 128#F40190830037
(1539821134.167827) can1 224#5C0000000000008A
(1539821134.167884) can1 283#0000000000008C
(1539821134.168249) can1 225#5C0000000000008B
(1539821134.168805) can1 226#5C0000000000008C
(1539821134.169084) can1 227#5C0000000000008D
(1539821134.169804) can1 228#5C00588048AC
(1539821134.169972) can1 229#5C000000008D
(1539821134.170804) can1 22A#5C0064624498
(1539821134.170974) can1 22B#5C00648244B9
(1539821134.171809) can1 22C#5C00647248AE
(1539821134.171975) can1 22D#5C000370484C
(1539821134.172784) can1 22E#5C0000000092
(1539821134.173000) can1 22F#5C0000000093
(1539821134.173808) can1 123#0108090D40008A
(1539821134.174009) can1 230#5C7FFF11600084
(1539821134.174804) can1 231#5C01FCF000000286
(1539821134.175099) can1 232#5C00FE00FE00FE92
(1539821134.175813) can1 3D0#AE80808080808089
(1539821134.176081) can1 3D1#AE8080808080808A
(1539821134.176809) can1 3D2#AE8080808080808B
(1539821134.177100) can1 3D3#AE8080808080808C
(1539821134.187621) can1 141#00000046
(1539821134.197747) can1 128#F40190830037
(1539821134.198008) can1 283#0000000000008C
(1539821134.198221) can1 344#0000010000000050
(1539821134.198430) can1 160#0000081201319C51
(1539821134.198662) can1 161#001E0000008007
(1539821134.207782) can1 141#00000046
(1539821134.207895) can1 210#5D02F60020000190
(1539821134.208248) can1 211#5DFFF8000000006F
(1539821134.208806) can1 212#5DFFF80000000070
(1539821134.209084) can1 213#5DFFF80000000071
(1539821134.209804) can1 214#5DFFF80000000072
(1539821134.210086) can1 215#5DFFF80000000073
(1539821134.210846) can1 216#5DFFF80000000074
(1539821134.211080) can1 217#5DFFF80000000075
(1539821134.211804) can1 218#5D0598FB00000017
(1539821134.212100) can1 219#5DFFF80000000077
(1539821134.212812) can1 21A#5D02F8002000019C
(1539821134.213099) can1 21B#5D06E0FB800000E3
(1539821134.213812) can1 21C#5D0412FC400000D5
(1539821134.214081) can1 21D#5D06D405600000C3
(1539821134.214813) can1 21E#5DFFF8000000007C
(1539821134.215100) can1 21F#5DFFF8000000007D
(1539821134.215812) can1 220#5DFE6400000404F1
(1539821134.216082) can1 221#5D00000000000088
(1539821134.216803) can1 222#5D00000000000089
(1539821134.217100) can1 223#5D0000000000008A
(1539821134.217805) can1 224#5D0000000000008B
(1539821134.218101) can1 225#5D0000000000008C
(1539821134.218832) can1 226#5D0000000000008D
(1539821134.219100) can1 227#5D0000000000008E
(1539821134.219781) can1 228#5D005A8048AF
(1539821134.219997) can1 229#5D000000008E
(1539821134.220807) can1 22A#5D0064624499
(1539821134.220966) can1 22B#5D00648244BA
(1539821134.221807) can1 22C#5D00647248AF
(1539821134.221976) can1 22D#5D000370484D
(1539821134.222790) can1 22E#5D0000000093
(1539821134.223009) can1 22F#5D0000000094
(1539821134.223790) can1 230#5D7FFF11610086
(1539821134.224099) can1 231#5D01FCF000000287
(1539821134.224803) can1 232#5D00FE00FE00FE93
(1539821134.228092) can1 141#00000046
(1539821134.228337) can1 128#F40190830037
(1539821134.228606) can1 283#0000000000008C
(1539821134.248329) can1 141#00000046
(1539821134.248535) can1 344#0000010000000050
(1539821134.257851) can1 210#5E02F80020000193
(1539821134.258103) can1 211#5EFFF80000000070
(1539821134.258492) can1 128#F40190830037
(1539821134.258629) can1 283#0000000000008C
(1539821134.258939) can1 212#5EFFF80000000071
(1539821134.259383) can1 213#5EFFF80000000072
(1539821134.259808) can1 214#5EFFF80000000073
(1539821134.260090) can1 215#5EFFF80000000074
(1539821134.260804) can1 216#5EFFF80000000075
(1539821134.261082) can1 217#5EFFF80000000076
(1539821134.261811) can1 218#5E0596FB0000081E
(1539821134.262085) can1 219#5EFFF80000000078
(1539821134.262805) can1 21A#5E02F8002000019D
(1539821134.263090) can1 21B#5E06E0FB800000E4
(1539821134.263805) can1 21C#5E0412FC400000D6
(1539821134.264090) can1 21D#5E06D405600000C4
(1539821134.264810) can1 21E#5EFFF8000000007D
(1539821134.265090) can1 21F#5EFFF8000000007E
(1539821134.265804) can1 220#5E026400000404F6
(1539821134.266086) can1 221#5E00000000000089
(1539821134.266807) can1 222#5E0000000000008A
(1539821134.267077) can1 223#5E0000000000008B
(1539821134.267805) can1 224#5E0000000000008C
(1539821134.268095) can1 225#5E0000000000008D
(1539821134.268589) can1 141#00000046
(1539821134.268698) can1 160#0000081201319C51
(1539821134.268805) can1 226#5E0000000000008E
(1539821134.268917) can1 161#001E0000008007
(1539821134.269682) can1 227#5E0000000000008F
(1539821134.269891) can1 229#5E000000008F
(1539821134.270100) can1 228#5E005C8048B2
(1539821134.270805) can1 22A#5E006462449A
(1539821134.270967) can1 22B#5E00648244BB
(1539821134.271804) can1 22C#5E00647248B0
(1539821134.272009) can1 22D#5E000370484E
(1539821134.272805) can1 22E#5E0000000094
(1539821134.273008) can1 22F#5E0000000095
(1539821134.273790) can1 123#0108090D40008A
(1539821134.274005) can1 230#5E7FFF11620088
(1539821134.274822) can1 231#5E01FCF000000288
(1539821134.275080) can1 232#5E00FE00FE00FE94
(1539821134.275836) can1 3D0#AF8080808080808A
(1539821134.276100) can1 3D1#AF8080808080808B
(1539821134.276804) can1 3D2#AF8080808080808C
(1539821134.277090) can1 3D3#AF8080808080808D
(1539821134.288654) can1 141#00000046
(1539821134.288850) can1 128#F40190830037
(1539821134.288948) can1 283#0000000000008C
(1539821134.298840) can1 344#0000010000000050
(1539821134.307835) can1 210#5F02F80020000194
(1539821134.308101) can1 211#5FFFF80000000071
(1539821134.308806) can1 212#5FFFF80000000072
(1539821134.309101) can1 213#5FFFF80000000073
(1539821134.309193) can1 141#00000046
(1539821134.309827) can1 214#5FFFF80000000074
(1539821134.310100) can1 215#5FFFF80000000075
(1539821134.310835) can1 216#5FFFF80000000076
(1539821134.311100) can1 217#5FFFF80000000077
(1539821134.311813) can1 218#5F0596FB0000081F
(1539821134.312082) can1 219#5FFFF80000000079
(1539821134.312804) can1 21A#5F02F8002000019E
(1539821134.313085) can1 21B#5F06E0FB800000E5
(1539821134.313841) can1 21C#5F0414FC600000F9
(1539821134.314100) can1 21D#5F06D405600000C5
(1539821134.314804) can1 21E#5FFFF8000000007E
(1539821134.315100) can1 21F#5FFFF8000000007F
(1539821134.315813) can1 220#5F006400000404F5
(1539821134.316100) can1 221#5F0000000000008A
(1539821134.316804) can1 222#5F0000000000008B
(1539821134.317090) can1 223#5F0000000000008C
(1539821134.317804) can1 224#5F0000000000008D
(1539821134.318086) can1 225#5F0000000000008E
(1539821134.318807) can1 226#5F0000000000008F
(1539821134.319100) can1 227#5F00000000000090
(1539821134.319769) can1 228#5F005D8048B4
(1539821134.319986) can1 229#5F0000000090
(1539821134.320788) can1 22A#5F006462449B
(1539821134.320965) can1 22B#5F00648244BC
(1539821134.321679) can1 128#F40190830037
(1539821134.321759) can1 22C#5F00647248B1
(1539821134.321862) can1 283#0000000000008C
(1539821134.322182) can1 22D#5F000370484F
(1539821134.322804) can1 22E#5F0000000095
(1539821134.323016) can1 22F#5F0000000096
(1539821134.323778) can1 230#5F7FFF1163008A
(1539821134.324086) can1 231#5F01FCF000000289
(1539821134.324804) can1 232#5F00FE00FE00FE95
(1539821134.330431) can1 141#00000046
(1539821134.340407) can1 160#0000081201319C51
(1539821134.340558) can1 161#001E0000008007
(1539821134.350630) can1 141#00000046
(1539821134.350827) can1 128#F40190830037
(1539821134.351010) can1 283#0000000000008C
(1539821134.351149) can1 344#0000010000000050
(1539821134.351275) can1 365#00000080FC0008
(1539821134.351455) can1 366#007207FF09FE00
(1539821134.357805) can1 210#6002F80020000195
(1539821134.358086) can1 211#60FFF80000000072
(1539821134.358843) can1 212#60FFF80000000073
(1539821134.359100) can1 213#60FFF80000000074
(1539821134.359819) can1 214#60FFF80000000075
(1539821134.360093) can1 215#60FFF80000000076
(1539821134.360806) can1 216#60FFF80000000077
(1539821134.361101) can1 217#60FFF80000000078
(1539821134.361814) can1 218#600596FB00000820
(1539821134.362082) can1 219#60FFF8000000007A
(1539821134.362813) can1 21A#6002F8002000019F
(1539821134.363101) can1 21B#6006E2FB800000E8
(1539821134.363813) can1 21C#600416FC600000FC
(1539821134.364090) can1 21D#6006D605600000C8
(1539821134.364804) can1 21E#60FFF8000000007F
(1539821134.365082) can1 21F#60FFF80000000080
(1539821134.365838) can1 220#60006400000404F6
(1539821134.366100) can1 221#600000000000008B
(1539821134.366805) can1 222#600000000000008C
(1539821134.367079) can1 223#600000000000008D
(1539821134.367804) can1 224#600000000000008E
(1539821134.368086) can1 225#600000000000008F
(1539821134.368840) can1 226#6000000000000090
(1539821134.369100) can1 227#6000000000000091
(1539821134.369762) can1 228#60005E8048B6
(1539821134.369975) can1 229#600000000091
(1539821134.370805) can1 22A#60006462449C
(1539821134.370978) can1 22B#6000648244BD
(1539821134.371412) can1 141#00000046
(1539821134.371781) can1 22C#6000647248B2
(1539821134.371997) can1 22D#600003704850
(1539821134.372806) can1 22E#600000000096
(1539821134.372976) can1 22F#600000000097
(1539821134.373784) can1 123#0108090D40008A
(1539821134.374084) can1 230#607FFF1164008C
(1539821134.374815) can1 231#6001FCF00000028A
(1539821134.375100) can1 232#6000FE00FE00FE96
(1539821134.375813) can1 3D0#B08080808080808B
(1539821134.376080) can1 3D1#B08080808080808C
(1539821134.376804) can1 3D2#B08080808080808D
(1539821134.377100) can1 3D3#B08080808080808E
(1539821134.382304) can1 128#F40190830037
(1539821134.382436) can1 283#0000000000008C
(1539821134.391566) can1 141#00000046
(1539821134.401680) can1 344#0000010000000050
(1539821134.407828) can1 210#6102F80020000196
(1539821134.408098) can1 211#61FFF80000000073
(1539821134.408810) can1 212#61FFF80000000074
(1539821134.409092) can1 213#61FFF80000000075
(1539821134.409806) can1 214#61FFF80000000076
(1539821134.410086) can1 215#61FFF80000000077
(1539821134.410840) can1 216#61FFF80000000078
(1539821134.411084) can1 217#61FFF80000000079
(1539821134.411731) can1 141#00000046
(1539821134.411844) can1 218#610596FB00000821
(1539821134.411956) can1 128#F40190830037
(1539821134.412086) can1 283#0000000000008C
(1539821134.412222) can1 160#0000081201319C51
(1539821134.412372) can1 161#001E0000008007
(1539821134.412484) can1 219#61FFF8000000007B
(1539821134.413351) can1 21A#6102F800400001C0
(1539821134.413605) can1 21B#6106E2FB800000E9
(1539821134.413873) can1 21C#610416FC8000001D
(1539821134.414092) can1 21D#6106D605600000C9
(1539821134.414805) can1 21E#61FFF80000000080
(1539821134.415101) can1 21F#61FFF80000000081
(1539821134.415813) can1 220#61006400000404F7
(1539821134.416082) can1 221#610000000000008C
(1539821134.416804) can1 222#610000000000008D
(1539821134.417100) can1 223#610000000000008E
(1539821134.417813) can1 224#610000000000008F
(1539821134.418081) can1 225#6100000000000090
(1539821134.418808) can1 226#6100000000000091
(1539821134.419087) can1 227#6100000000000092
(1539821134.419753) can1 228#61005F8048B8
(1539821134.419988) can1 229#610000000092
(1539821134.420792) can1 22A#61006462449D
(1539821134.420976) can1 22B#6100648244BE
(1539821134.421758) can1 22C#6100647248B3
(1539821134.421977) can1 22D#610003704851
(1539821134.422788) can1 22E#610000000097
(1539821134.423000) can1 22F#610000000098
(1539821134.423815) can1 230#617FFF1165008E
(1539821134.424018) can1 231#6101FCF00000028B
(1539821134.424812) can1 232#6100FE00FE00FE97
(1539821134.432379) can1 141#00000046
(1539821134.442432) can1 128#F40190830037
(1539821134.442630) can1 283#0000000000008C
(1539821134.452706) can1 141#00000046
(1539821134.452909) can1 344#0000010000000050
(1539821134.457807) can1 210#6202F80020000197
(1539821134.458087) can1 211#62FFF80000000074
(1539821134.458809) can1 212#62FFF80000000075
(1539821134.459085) can1 213#62FFF80000000076
(1539821134.459808) can1 214#62FFF80000000077
(1539821134.460104) can1 215#62FFF80000000078
(1539821134.460807) can1 216#62FFF80000000079
(1539821134.461100) can1 217#62FFF8000000007A
(1539821134.461825) can1 218#620596FB00000822
(1539821134.462083) can1 219#62FFF8000000007C
(1539821134.462816) can1 21A#6202F800400001C1
(1539821134.463100) can1 21B#6206E0FB800000E8
(1539821134.463813) can1 21C#620416FC8000001E
(1539821134.464117) can1 21D#6206D405600000C8
(1539821134.464808) can1 21E#62FFF80000000081
(1539821134.465100) can1 21F#62FFF80000000082
(1539821134.465813) can1 220#62006400000404F8
(1539821134.466087) can1 221#620000000000008D
(1539821134.466816) can1 222#620000000000008E
(1539821134.467100) can1 223#620000000000008F
(1539821134.467842) can1 224#6200000000000090
(1539821134.468100) can1 225#6200000000000091
(1539821134.468807) can1 226#6200000000000092
(1539821134.469089) can1 227#6200000000000093
(1539821134.469807) can1 228#6200608048BA
(1539821134.469976) can1 229#620000000093
(1539821134.470823) can1 22A#62006462449E
(1539821134.471002) can1 22B#6200648244BF
(1539821134.471764) can1 22C#6200647248B4
(1539821134.471978) can1 22D#620003704852
(1539821134.472809) can1 22E#620000000098
(1539821134.473001) can1 22F#620000000099
(1539821134.473137) can1 141#00000046
(1539821134.473179) can1 128#F40190830037
(1539821134.473291) can1 283#0000000000008C
(1539821134.473855) can1 123#0108090D40008A
(1539821134.474090) can1 230#627FFF11660090
(1539821134.474814) can1 231#6201FCF00000028C
(1539821134.475090) can1 232#6200FE00FE00FE98
(1539821134.475804) can1 3D0#B18080808080808C
(1539821134.476101) can1 3D1#B18080808080808D
(1539821134.476814) can1 3D2#B18080808080808E
(1539821134.477082) can1 3D3#B18080808080808F
(1539821134.483540) can1 160#0000081201319C51
(1539821134.483747) can1 161#001E0000008007
(1539821134.493183) can1 141#00000046
(1539821134.503306) can1 128#F40190830037
(1539821134.503485) can1 283#0000000000008C
(1539821134.503617) can1 344#0000010000000050
(1539821134.507806) can1 210#6302F80020000198
(1539821134.508103) can1 211#63FFF80000000075
(1539821134.508833) can1 212#63FFF80000000076
(1539821134.509101) can1 213#63FFF80000000077
(1539821134.509807) can1 214#63FFF80000000078
(1539821134.510090) can1 215#63FFF80000000079
(1539821134.510818) can1 216#63FFF8000000007A
(1539821134.511101) can1 217#63FFF8000000007B
(1539821134.511814) can1 218#63059EFB800000A3
(1539821134.512081) can1 219#63FFF8000000007D
(1539821134.512806) can1 21A#6302F800400001C2
(1539821134.513101) can1 21B#6306E0FB800000E9
(1539821134.513472) can1 141#00000046
(1539821134.513883) can1 21C#630416FC8000001F
(1539821134.514136) can1 21D#6306D405600000C9
(1539821134.514837) can1 21E#63FFF80000000082
(1539821134.515101) can1 21F#63FFF80000000083
(1539821134.515805) can1 220#63006400000404F9
(1539821134.516101) can1 221#630000000000008E
(1539821134.516813) can1 222#630000000000008F
(1539821134.517100) can1 223#6300000000000090
(1539821134.517806) can1 224#6300000000000091
(1539821134.518092) can1 225#6300000000000092
(1539821134.518810) can1 226#6300000000000093
(1539821134.519101) can1 227#6300000000000094
(1539821134.519755) can1 228#6300618048BC
(1539821134.519966) can1 229#630000000094
(1539821134.520809) can1 22A#63006462449F
(1539821134.520962) can1 22B#6300648244C0
(1539821134.521810) can1 22C#6300647248B5
(1539821134.521975) can1 22D#630003704853
(1539821134.522786) can1 22E#630000000099
(1539821134.523002) can1 22F#63000000009A
(1539821134.523810) can1 230#637FFF11670092
(1539821134.524101) can1 231#6301FCF00000028D
(1539821134.524814) can1 232#6300FE00FE00FE99
(1539821134.533933) can1 141#00000046
(1539821134.534183) can1 128#F40190830037
(1539821134.534313) can1 283#0000000000008C
(1539821134.554253) can1 141#00000046
(1539821134.554480) can1 344#0000010000000050
(1539821134.554620) can1 160#0000081201319C51
(1539821134.554755) can1 161#001E0000008007
(1539821134.554882) can1 365#00000080FC0008
(1539821134.555102) can1 366#007207FF09FE00
(1539821134.557806) can1 210#6402F80020000199
(1539821134.558087) can1 211#64FFF80000000076
(1539821134.558805) can1 212#64FFF80000000077
(1539821134.559091) can1 213#64FFF80000000078
(1539821134.559806) can1 214#64FFF80000000079
(1539821134.560091) can1 215#64FFF8000000007A
(1539821134.560821) can1 216#64FFF8000000007B
(1539821134.561102) can1 217#64FFF8000000007C
(1539821134.561806) can1 218#6405A0FBC00000E6
(1539821134.562085) can1 219#64FFF8000000007E
(1539821134.562807) can1 21A#6402F800400001C3
(1539821134.563085) can1 21B#6406E0FB800000EA
(1539821134.563805) can1 21C#640416FC60000000
(1539821134.564077) can1 21D#6406D405600000CA
(1539821134.564184) can1 128#F40190830037
(1539821134.564371) can1 283#0000000000008C
(1539821134.564930) can1 21E#64FFF80000000083
(1539821134.565134) can1 21F#64FFF80000000084
(1539821134.565834) can1 220#64006400000404FA
(1539821134.566100) can1 221#640000000000008F
(1539821134.566824) can1 222#6400000000000090
(1539821134.567082) can1 223#6400000000000091
(1539821134.567842) can1 224#6400000000000092
(1539821134.568099) can1 225#6400000000000093
(1539821134.568817) can1 226#6400000000000094
(1539821134.569102) can1 227#6400000000000095
(1539821134.569767) can1 228#6400628048BE
(1539821134.569979) can1 229#640000000095
(1539821134.570759) can1 22A#6400646244A0
(1539821134.570989) can1 22B#6400648244C1
(1539821134.571791) can1 22C#6400647248B6
(1539821134.572007) can1 22D#640003704854
(1539821134.572763) can1 22E#64000000009A
(1539821134.572974) can1 22F#64000000009B
(1539821134.573779) can1 123#0108090D40008A
(1539821134.573989) can1 230#647FFF11680094
(1539821134.574388) can1 141#00000046
(1539821134.574817) can1 231#6401FCF00000028E
(1539821134.575102) can1 232#6400FE00FE00FE9A
(1539821134.575814) can1 3D0#B28080808080808D
(1539821134.576101) can1 3D1#B28080808080808E
(1539821134.576805) can1 3D2#B28080808080808F
(1539821134.577091) can1 3D3#B280808080808090
(1539821134.594518) can1 141#00000046
(1539821134.594694) can1 128#F40190830037
(1539821134.594867) can1 283#0000000000008C
(1539821134.604682) can1 344#0000010000000050
(1539821134.607805) can1 210#6502F8002000019A
(1539821134.608101) can1 211#65FFF80000000077
(1539821134.608816) can1 212#65FFF80000000078
(1539821134.609101) can1 213#65FFF80000000079
(1539821134.609811) can1 214#65FFF8000000007A
(1539821134.610092) can1 215#65FFF8000000007B
(1539821134.610806) can1 216#65FFF8000000007C
(1539821134.611091) can1 217#65FFF8000000007D
(1539821134.611805) can1 218#6505A0FBC00008EF
(1539821134.612087) can1 219#65FFF8000000007F
(1539821134.612805) can1 21A#6502F800200001A4
(1539821134.613101) can1 21B#6506E0FB800000EB
(1539821134.613815) can1 21C#650414FC600000FF
(1539821134.614081) can1 21D#6506D405600000CB
(1539821134.614840) can1 21E#65FFF80000000084
(1539821134.615101) can1 21F#65FFF80000000085
(1539821134.615159) can1 141#00000046
(1539821134.615816) can1 220#65006400000404FB
(1539821134.616101) can1 221#6500000000000090
(1539821134.616805) can1 222#6500000000000091
(1539821134.617106) can1 223#6500000000000092
(1539821134.617805) can1 224#6500000000000093
(1539821134.618087) can1 225#6500000000000094
(1539821134.618806) can1 226#6500000000000095
(1539821134.619087) can1 227#6500000000000096
(1539821134.619791) can1 228#6500648048C1
(1539821134.619959) can1 229#650000000096
(1539821134.620790) can1 22A#6500646244A1
(1539821134.621004) can1 22B#6500648244C2
(1539821134.621761) can1 22C#6500647248B7
(1539821134.621979) can1 22D#650003704855
(1539821134.622787) can1 22E#65000000009B
(1539821134.623002) can1 22F#65000000009C
(1539821134.623811) can1 230#657FFF11690096
(1539821134.624025) can1 231#6501FCF00000028F
(1539821134.624808) can1 232#6500FE00FE00FE9B
(1539821134.625030) can1 128#F40190830037
(1539821134.625291) can1 283#0000000000008C
(1539821134.625530) can1 160#0000081201319C51
(1539821134.625721) can1 161#001E0000008007
(1539821134.635102) can1 141#00000046
(1539821134.655474) can1 141#00000046
(1539821134.655681) can1 128#F40190830037
(1539821134.655832) can1 283#0000000000008C
(1539821134.655990) can1 344#0000010000000050
(1539821134.657806) can1 210#6602F8002000019B
(1539821134.658087) can1 211#66FFF80000000078
(1539821134.658809) can1 212#66FFF80000000079
(1539821134.659101) can1 213#66FFF8000000007A
(1539821134.659814) can1 214#66FFF8000000007B
(1539821134.660103) can1 215#66FFF8000000007C
(1539821134.660809) can1 216#66FFF8000000007D
(1539821134.661092) can1 217#66FFF8000000007E
(1539821134.661807) can1 218#6605A0FBC00008F0
(1539821134.662082) can1 219#66FFF80000000080
(1539821134.662806) can1 21A#6602F800400001C5
(1539821134.663102) can1 21B#6606E2FB800000EE
(1539821134.663806) can1 21C#660414FC60000000
(1539821134.664087) can1 21D#6606D405800000EC
(1539821134.664808) can1 21E#66FFF80000000085
(1539821134.665092) can1 21F#66FFF80000000086
(1539821134.665806) can1 220#66006400000404FC
(1539821134.666083) can1 221#6600000000000091
(1539821134.666805) can1 222#6600000000000092
(1539821134.667098) can1 223#6600000000000093
(1539821134.667806) can1 224#6600000000000094
(1539821134.668087) can1 225#6600000000000095
(1539821134.668809) can1 226#6600000000000096
(1539821134.669092) can1 227#6600000000000097
(1539821134.669761) can1 228#6600648048C2
(1539821134.669978) can1 229#660000000097
(1539821134.670784) can1 22A#6600646244A2
(1539821134.670994) can1 22B#6600648244C3
(1539821134.671807) can1 22C#6600647248B8
(1539821134.671977) can1 22D#660003704856
(1539821134.672805) can1 22E#66000000009C
(1539821134.673015) can1 22F#66000000009D
(1539821134.673807) can1 123#0108090D40008A
(1539821134.674007) can1 230#667FFF116A0098
(1539821134.674812) can1 231#6601FCF000000290
(1539821134.675103) can1 232#6600FE00FE00FE9C
(1539821134.675606) can1 141#00000046
(1539821134.675806) can1 3D0#B38080808080808E
(1539821134.676236) can1 3D1#B38080808080808F
(1539821134.676835) can1 3D2#B380808080808090
(1539821134.677101) can1 3D3#B380808080808091
(1539821134.685754) can1 128#F40190830037
(1539821134.685910) can1 283#0000000000008C
(1539821134.695981) can1 141#00000046
(1539821134.696280) can1 160#0000081201319C51
(1539821134.696473) can1 161#001E0000008007
(1539821134.706183) can1 344#0000010000000050
(1539821134.707805) can1 210#6702F800400001BC
(1539821134.708083) can1 211#67FFF80000000079
(1539821134.708808) can1 212#67FFF8000000007A
(1539821134.709091) can1 213#67FFF8000000007B
(1539821134.709820) can1 214#67FFF8000000007C
(1539821134.710104) can1 215#67FFF8000000007D
(1539821134.710818) can1 216#67FFF8000000007E
(1539821134.711092) can1 217#67FFF8000000007F
(1539821134.711808) can1 218#6705A4FC0000002E
(1539821134.712092) can1 219#67FFF80000000081
(1539821134.712806) can1 21A#6702F800400001C6
(1539821134.713101) can1 21B#6706E0FB800000ED
(1539821134.713814) can1 21C#670416FC60000003
(1539821134.714091) can1 21D#6706D205800000EB
(1539821134.714810) can1 21E#67FFF80000000086
(1539821134.715086) can1 21F#67FFF80000000087
(1539821134.715806) can1 220#67006400000404FD
(1539821134.716088) can1 221#6700000000000092
(1539821134.716289) can1 141#00000046
(1539821134.716563) can1 128#F40190830037
(1539821134.716837) can1 222#6700000000000093
(1539821134.716895) can1 283#0000000000008C
(1539821134.717249) can1 223#6700000000000094
(1539821134.717812) can1 224#6700000000000095
(1539821134.718092) can1 225#6700000000000096
(1539821134.718813) can1 226#6700000000000097
(1539821134.719102) can1 227#6700000000000098
(1539821134.719768) can1 228#6700648048C3
(1539821134.719980) can1 229#670000000098
(1539821134.720784) can1 22A#6700646244A3
(1539821134.721002) can1 22B#6700648244C4
(1539821134.721760) can1 22C#6700647248B9
(1539821134.721998) can1 22D#670003704857
(1539821134.722808) can1 22E#67000000009D
(1539821134.722976) can1 22F#67000000009E
(1539821134.723786) can1 230#677FFF116B009A
(1539821134.724087) can1 231#6701FCF000000291
(1539821134.724807) can1 232#6700FE00FE00FE9D
(1539821134.736538) can1 141#00000046
(1539821134.746804) can1 128#F40190830037
(1539821134.746932) can1 283#0000000000008C
(1539821134.756881) can1 141#00000046
(1539821134.757084) can1 344#0000010000000050
(1539821134.757230) can1 365#00000080FC0008
(1539821134.757351) can1 366#007207FF09FE00
(1539821134.758016) can1 210#6802F800400001BD
(1539821134.758257) can1 211#68FFF8000000007A
(1539821134.758831) can1 212#68FFF8000000007B
(1539821134.759101) can1 213#68FFF8000000007C
(1539821134.759815) can1 214#68FFF8000000007D
(1539821134.760082) can1 215#68FFF8000000007E
(1539821134.760805) can1 216#68FFF8000000007F
(1539821134.761089) can1 217#68FFF80000000080
(1539821134.761808) can1 218#6805A4FC00000837
(1539821134.762085) can1 219#68FFF80000000082
(1539821134.762808) can1 21A#6802F800400001C7
(1539821134.763088) can1 21B#6806E0FB600000CE
(1539821134.763807) can1 21C#680418FC80000026
(1539821134.764084) can1 21D#6806D405800000EE
(1539821134.764840) can1 21E#68FFF80000000087
(1539821134.765101) can1 21F#68FFF80000000088
(1539821134.765806) can1 220#68006400000404FE
(1539821134.766131) can1 221#6800000000000093
(1539821134.766787) can1 222#6800000000000094
(1539821134.766886) can1 160#0000081201319C51
(1539821134.767115) can1 223#6800000000000095
(1539821134.767225) can1 161#001E0000008007
(1539821134.767814) can1 224#6800000000000096
(1539821134.768092) can1 225#6800000000000097
(1539821134.768807) can1 226#6800000000000098
(1539821134.769082) can1 227#6800000000000099
(1539821134.769761) can1 228#6800648048C4
(1539821134.769977) can1 229#680000000099
(1539821134.770788) can1 22A#6800646244A4
(1539821134.770970) can1 22B#6800648244C5
(1539821134.771807) can1 22C#6800647248BA
(1539821134.771975) can1 22D#680003704858
(1539821134.772806) can1 22E#68000000009E
(1539821134.772977) can1 22F#68000000009F
(1539821134.773791) can1 123#0108090D40008A
(1539821134.774009) can1 230#687FFF116C009C
(1539821134.774813) can1 231#6801FCF000000292
(1539821134.775093) can1 232#6800FE00FE00FE9E
(1539821134.775808) can1 3D0#B48080808080808F
(1539821134.776092) can1 3D1#B480808080808090
(1539821134.776808) can1 3D2#B480808080808091
(1539821134.777089) can1 3D3#B480808080808092
(1539821134.777250) can1 141#00000046
(1539821134.777508) can1 128#F40190830037
(1539821134.777756) can1 283#0000000000008C
(1539821134.797399) can1 141#00000046
(1539821134.807645) can1 128#F40190830037
(1539821134.807800) can1 210#6902F800400001BE
(1539821134.807896) can1 283#0000000000008C
(1539821134.808174) can1 344#0000010000000050
(1539821134.808278) can1 211#69FFF8000000007B
(1539821134.809003) can1 212#69FFF8000000007C
(1539821134.809209) can1 213#69FFF8000000007D
(1539821134.809808) can1 214#69FFF8000000007E
(1539821134.810087) can1 215#69FFF8000000007F
(1539821134.810825) can1 216#69FFF80000000080
(1539821134.811102) can1 217#69FFF80000000081
(1539821134.811816) can1 218#6905A4FC00000838
(1539821134.812101) can1 219#69FFF80000000083
(1539821134.812815) can1 21A#6902F800600001E8
(1539821134.813083) can1 21B#6906E0FB800000EF
(1539821134.813806) can1 21C#690418FC80000027
(1539821134.814087) can1 21D#6906D405800000EF
(1539821134.814799) can1 21E#69FFF80000000088
(1539821134.815104) can1 21F#69FFF80000000089
(1539821134.815816) can1 220#69006400000404FF
(1539821134.816031) can1 221#6900000000000094
(1539821134.816791) can1 222#6900000000000095
(1539821134.817116) can1 223#6900000000000096
(1539821134.817835) can1 224#6900000000000097
(1539821134.817893) can1 141#00000046
(1539821134.818091) can1 225#6900000000000098
(1539821134.818823) can1 226#6900000000000099
(1539821134.819103) can1 227#690000000000009A
(1539821134.819756) can1 228#6900648048C5
(1539821134.819979) can1 229#69000000009A
(1539821134.820782) can1 22A#6900646244A5
(1539821134.820998) can1 22B#6900648244C6
(1539821134.821794) can1 22C#6900647248BB
(1539821134.822009) can1 22D#690003704859
(1539821134.822765) can1 22E#69000000009F
(1539821134.822978) can1 22F#6900000000A0
(1539821134.823787) can1 230#697FFF116D009E
(1539821134.824102) can1 231#6901FCF000000293
(1539821134.824817) can1 232#6900FE00FE00FE9F
(1539821134.837883) can1 141#00000046
(1539821134.838090) can1 128#F40190830037
(1539821134.838222) can1 283#0000000000008C
(1539821134.838331) can1 160#0000081201319C51
(1539821134.838537) can1 161#001E0000008007
(1539821134.857810) can1 210#6A02F800400001BF
(1539821134.858081) can1 211#6AFFF8000000007C
(1539821134.858169) can1 141#00000046
(1539821134.858405) can1 344#0000010000000050
(1539821134.858915) can1 212#6AFFF8000000007D
(1539821134.859149) can1 213#6AFFF8000000007E
(1539821134.859827) can1 214#6AFFF8000000007F
(1539821134.860083) can1 215#6AFFF80000000080
(1539821134.860806) can1 216#6AFFF80000000081
(1539821134.861101) can1 217#6AFFF80000000082
(1539821134.861809) can1 218#6A05A4FC00000839
(1539821134.862092) can1 219#6AFFF80000000084
(1539821134.862808) can1 21A#6A02F800600001E9
(1539821134.863085) can1 21B#6A06E0FB800000F0
(1539821134.863808) can1 21C#6A0416FC80000026
(1539821134.864092) can1 21D#6A06D405800000F0
(1539821134.864807) can1 21E#6AFFF80000000089
(1539821134.865088) can1 21F#6AFFF8000000008A
(1539821134.865807) can1 220#6A00640000040400
(1539821134.866103) can1 221#6A00000000000095
(1539821134.866815) can1 222#6A00000000000096
(1539821134.867083) can1 223#6A00000000000097
(1539821134.867806) can1 224#6A00000000000098
(1539821134.868115) can1 225#6A00000000000099
(1539821134.868415) can1 128#F40190830037
(1539821134.868595) can1 283#0000000000008C
(1539821134.868855) can1 226#6A0000000000009A
(1539821134.869353) can1 227#6A0000000000009B
(1539821134.869773) can1 228#6A00648048C6
(1539821134.869988) can1 229#6A000000009B
(1539821134.870797) can1 22A#6A00646244A6
(1539821134.871003) can1 22B#6A00648244C7
(1539821134.871762) can1 22C#6A00647248BC
(1539821134.871976) can1 22D#6A000370485A
(1539821134.872783) can1 22E#6A00000000A0
(1539821134.872999) can1 22F#6A00000000A1
(1539821134.873809) can1 123#0108090D40008A
(1539821134.874024) can1 230#6A7FFF116E00A0
(1539821134.874838) can1 231#6A01FCF000000294
(1539821134.875102) can1 232#6A00FE00FE00FEA0
(1539821134.875815) can1 3D0#B580808080808090
(1539821134.876082) can1 3D1#B580808080808091
(1539821134.876806) can1 3D2#B580808080808092
(1539821134.877103) can1 3D3#B580808080808093
(1539821134.878634) can1 141#00000046
(1539821134.898731) can1 141#00000046
(1539821134.899091) can1 128#F40190830037
(1539821134.899249) can1 283#0000000000008C
(1539821134.907807) can1 210#6B02F800400001C0
(1539821134.908088) can1 211#6BFFF8000000007D
(1539821134.908800) can1 212#6BFFF8000000007E
(1539821134.909102) can1 213#6BFFF8000000007F
(1539821134.909159) can1 344#0000010000000050
(1539821134.909309) can1 160#0000081201319C51
(1539821134.909571) can1 161#001E0000008007
(1539821134.909830) can1 214#6BFFF80000000080
(1539821134.910306) can1 215#6BFFF80000000081
(1539821134.910862) can1 216#6BFFF80000000082
(1539821134.911083) can1 217#6BFFF80000000083
(1539821134.911794) can1 218#6B05A6FC40000074
(1539821134.912102) can1 219#6BFFF80000000085
(1539821134.912814) can1 21A#6B02F800400001CA
(1539821134.913104) can1 21B#6B06E0FB800000F1
(1539821134.913807) can1 21C#6B0416FC80000027
(1539821134.914087) can1 21D#6B06D405800000F1
(1539821134.914792) can1 21E#6BFFF8000000008A
(1539821134.915102) can1 21F#6BFFF8000000008B
(1539821134.915806) can1 220#6B00640000040401
(1539821134.916092) can1 221#6B00000000000096
(1539821134.916806) can1 222#6B00000000000097
(1539821134.917088) can1 223#6B00000000000098
(1539821134.917842) can1 224#6B00000000000099
(1539821134.918102) can1 225#6B0000000000009A
(1539821134.918810) can1 226#6B0000000000009B
(1539821134.919008) can1 141#00000046
(1539821134.919086) can1 227#6B0000000000009C
(1539821134.919786) can1 228#6B00648048C7
(1539821134.920002) can1 229#6B000000009C
(1539821134.920781) can1 22A#6B00646244A7
(1539821134.920999) can1 22B#6B00648244C8
(1539821134.921778) can1 22C#6B00647248BD
(1539821134.921998) can1 22D#6B000370485B
(1539821134.922765) can1 22E#6B00000000A1
(1539821134.922978) can1 22F#6B00000000A2
(1539821134.923788) can1 230#6B7FFF116F00A2
(1539821134.924102) can1 231#6B01FCF000000295
(1539821134.924816) can1 232#6B00FE00FE00FEA1
(1539821134.929003) can1 128#F40190830037
(1539821134.929184) can1 283#0000000000008C
(1539821134.939440) can1 141#00000046
(1539821134.957810) can1 210#6C02F600400001BF
(1539821134.958104) can1 211#6CFFF8000000007E
(1539821134.958808) can1 212#6CFFF8000000007F
(1539821134.959093) can1 213#6CFFF80000000080
(1539821134.959541) can1 141#00000046
(1539821134.959729) can1 128#F40190830037
(1539821134.959831) can1 283#0000000000008C
(1539821134.960009) can1 214#6CFFF80000000081
(1539821134.960090) can1 344#0000010000000050
(1539821134.960211) can1 365#00000080FC0008
(1539821134.960404) can1 215#6CFFF80000000082
(1539821134.960666) can1 366#007207FF09FE00
(1539821134.960882) can1 216#6CFFF80000000083
(1539821134.961399) can1 217#6CFFF80000000084
(1539821134.961877) can1 218#6C05A6FC60000095
(1539821134.962307) can1 219#6CFFF80000000086
(1539821134.962810) can1 21A#6C02F800400001CB
(1539821134.963089) can1 21B#6C06E0FB800000F2
(1539821134.963844) can1 21C#6C0414FC60000006
(1539821134.964102) can1 21D#6C06D405600000D2
(1539821134.964816) can1 21E#6CFFF8000000008B
(1539821134.965083) can1 21F#6CFFF8000000008C
(1539821134.965808) can1 220#6CFE640000040400
(1539821134.966103) can1 221#6C00000000000097
(1539821134.966819) can1 222#6C00000000000098
(1539821134.967104) can1 223#6C00000000000099
(1539821134.967810) can1 224#6C0000000000009A
(1539821134.968088) can1 225#6C0000000000009B
(1539821134.968812) can1 226#6C0000000000009C
(1539821134.969094) can1 227#6C0000000000009D
(1539821134.969765) can1 228#6C00648048C8
(1539821134.969978) can1 229#6C000000009D
(1539821134.970766) can1 22A#6C00646244A8
(1539821134.971005) can1 22B#6C00648244C9
(1539821134.971779) can1 22C#6C00647248BE
(1539821134.971994) can1 22D#6C000370485C
(1539821134.972808) can1 22E#6C00000000A2
(1539821134.972976) can1 22F#6C00000000A3
(1539821134.973780) can1 123#0108090D40008A
(1539821134.973994) can1 230#6C7FFF117000A4
(1539821134.974811) can1 231#6C01FCF000000296
(1539821134.975092) can1 232#6C00FE00FE00FEA2
(1539821134.975806) can1 3D0#B680808080808091
(1539821134.976092) can1 3D1#B680808080808092
(1539821134.976807) can1 3D2#B680808080808093
(1539821134.977088) can1 3D3#B680808080808094
(1539821134.979933) can1 141#00000046
(1539821134.980094) can1 160#0000081201319C51
(1539821134.980286) can1 161#001E0000008007
(1539821134.989882) can1 128#F40190830037
(1539821134.990102) can1 283#0000000000008C
(1539821135.000242) can1 141#00000046
(1539821135.007809) can1 210#6D02F800400001C2
(1539821135.008086) can1 211#6DFFF8000000007F
(1539821135.008807) can1 212#6DFFF80000000080
(1539821135.009092) can1 213#6DFFF80000000081
(1539821135.009818) can1 214#6DFFF80000000082
(1539821135.010088) can1 215#6DFFF80000000083
(1539821135.010340) can1 344#0000010000000050
(1539821135.010854) can1 216#6DFFF80000000084
(1539821135.011080) can1 217#6DFFF80000000085
(1539821135.011841) can1 218#6D05A6FC800000B6
(1539821135.012100) can1 219#6DFFF80000000087
(1539821135.012853) can1 21A#6D02F800200001AC
(1539821135.013102) can1 21B#6D06E0FB800000F3
(1539821135.013816) can1 21C#6D0412FC400000E5
(1539821135.014083) can1 21D#6D06D405600000D3
(1539821135.014806) can1 21E#6DFFF8000000008C
(1539821135.015103) can1 21F#6DFFF8000000008D
(1539821135.015815) can1 220#6D02640000040405
(1539821135.016084) can1 221#6D00000000000098
(1539821135.016806) can1 222#6D00000000000099
(1539821135.017102) can1 223#6D0000000000009A
(1539821135.017821) can1 224#6D0000000000009B
(1539821135.018102) can1 225#6D0000000000009C
(1539821135.018821) can1 226#6D0000000000009D
(1539821135.019093) can1 227#6D0000000000009E
(1539821135.019806) can1 228#6D00648048C9
(1539821135.019976) can1 229#6D000000009E
(1539821135.020518) can1 141#00000046
(1539821135.020778) can1 128#F40190830037
(1539821135.020909) can1 22A#6D00646244A9
(1539821135.020985) can1 283#0000000000008C
(1539821135.021341) can1 22B#6D00648244CA
(1539821135.021792) can1 22C#6D00647248BF
(1539821135.022009) can1 22D#6D000370485D
(1539821135.022765) can1 22E#6D00000000A3
(1539821135.022975) can1 22F#6D00000000A4
(1539821135.023810) can1 230#6D7FFF117100A6
(1539821135.024022) can1 231#6D01FCF000000297
(1539821135.024831) can1 232#6D00FE00FE00FEA3
(1539821135.040719) can1 141#00000046
(1539821135.050732) can1 128#F40190830037
(1539821135.051096) can1 283#0000000000008C
(1539821135.051195) can1 160#0000081201319C51
(1539821135.051541) can1 161#001E0000008007
(1539821135.057811) can1 210#6E02F800200001A3
(1539821135.058087) can1 211#6EFFF80000000080
(1539821135.058814) can1 212#6EFFF80000000081
(1539821135.059102) can1 213#6EFFF80000000082
(1539821135.059816) can1 214#6EFFF80000000083
(1539821135.060094) can1 215#6EFFF80000000084
(1539821135.060810) can1 216#6EFFF80000000085
(1539821135.060908) can1 141#00000046
(1539821135.061094) can1 217#6EFFF80000000086
(1539821135.061235) can1 344#0000010000000050
(1539821135.061808) can1 218#6E05A8FCA00000D9
(1539821135.062094) can1 219#6EFFF80000000088
(1539821135.062810) can1 21A#6E02F800200001AD
(1539821135.063105) can1 21B#6E06E0FB800000F4
(1539821135.063810) can1 21C#6E0412FC400000E6
(1539821135.064106) can1 21D#6E06D405600000D4
(1539821135.064821) can1 21E#6EFFF8000000008D
(1539821135.065104) can1 21F#6EFFF8000000008E
(1539821135.065818) can1 220#6E00640000040404
(1539821135.066104) can1 221#6E00000000000099
(1539821135.066825) can1 222#6E0000000000009A
(1539821135.067083) can1 223#6E0000000000009B
(1539821135.067808) can1 224#6E0000000000009C
(1539821135.068088) can1 225#6E0000000000009D
(1539821135.068850) can1 226#6E0000000000009E
(1539821135.069106) can1 227#6E0000000000009F
(1539821135.069778) can1 228#6E00648048CA
(1539821135.069994) can1 229#6E000000009F
(1539821135.070807) can1 22A#6E00646244AA
(1539821135.070976) can1 22B#6E00648244CB
(1539821135.071759) can1 22C#6E00647248C0
(1539821135.072007) can1 22D#6E000370485E
(1539821135.072814) can1 22E#6E00000000A4
(1539821135.072978) can1 22F#6E00000000A5
(1539821135.073789) can1 123#0108090D40008A
(1539821135.074003) can1 230#6E7FFF117200A8
(1539821135.074811) can1 231#6E01FCF000000298
(1539821135.075094) can1 232#6E00FE00FE00FEA4
(1539821135.075807) can1 3D0#B780808080808092
(1539821135.076088) can1 3D1#B780808080808093
(1539821135.076842) can1 3D2#B780808080808094
(1539821135.077102) can1 3D3#B780808080808095
(1539821135.081233) can1 141#00000046
(1539821135.081444) can1 128#F40190830037
(1539821135.081622) can1 283#0000000000008C
(1539821135.101585) can1 141#00000046
(1539821135.107807) can1 210#6F02F800200001A4
(1539821135.108089) can1 211#6FFFF80000000081
(1539821135.108842) can1 212#6FFFF80000000082
(1539821135.109103) can1 213#6FFFF80000000083
(1539821135.109815) can1 214#6FFFF80000000084
(1539821135.110085) can1 215#6FFFF80000000085
(1539821135.110814) can1 216#6FFFF80000000086
(1539821135.111102) can1 217#6FFFF80000000087
(1539821135.111749) can1 128#F40190830037
(1539821135.111856) can1 218#6F05A8FCA00000DA
(1539821135.111993) can1 283#0000000000008C
(1539821135.112183) can1 344#0000010000000050
(1539821135.112299) can1 219#6F0584F9F0000004
(1539821135.112963) can1 21A#6F02F800200001AE
(1539821135.113183) can1 21B#6F06E2FB800000F7
(1539821135.113839) can1 21C#6F0412FC400000E7
(1539821135.114103) can1 21D#6F06D605600000D7
(1539821135.114815) can1 21E#6F04FE0B300000D4
(1539821135.115102) can1 21F#6FFFF8000000008F
(1539821135.115807) can1 220#6F00640000040405
(1539821135.116024) can1 221#6F0000000000009A
(1539821135.116838) can1 222#6F0000000000009B
(1539821135.117103) can1 223#6F0000000000009C
(1539821135.117815) can1 224#6F0000000000009D
(1539821135.118084) can1 225#6F0000000000009E
(1539821135.118812) can1 226#6F0000000000009F
(1539821135.119092) can1 227#6F000000000000A0
(1539821135.119806) can1 228#6F00648048CB
(1539821135.119975) can1 229#6F000080C8E8
(1539821135.120778) can1 22A#6F00646244AB
(1539821135.120992) can1 22B#6F00648244CC
(1539821135.121774) can1 22C#6F00647248C1
(1539821135.121875) can1 141#00000046
(1539821135.121993) can1 22D#6F000370485F
(1539821135.122086) can1 160#0000081201319C51
(1539821135.122205) can1 161#001E0000008007
(1539821135.122815) can1 22E#6F000020C88D
(1539821135.123025) can1 22F#6F00000000A6
(1539821135.123794) can1 230#6F7FFF117300AA
(1539821135.124104) can1 231#6F01FCF000000299
(1539821135.124819) can1 232#6F00FE00FE00FEA5
(1539821135.142232) can1 141#00000046
(1539821135.142444) can1 128#F40190830037
(1539821135.142556) can1 283#0000000000008C
(1539821135.157813) can1 210#7002F800200001A5
(1539821135.158114) can1 211#70FFF80000000082
(1539821135.158811) can1 212#70FFF80000000083
(1539821135.159084) can1 213#70FFF80000000084
(1539821135.159808) can1 214#70FFF80000000085
(1539821135.160089) can1 215#70FFF80000000086
(1539821135.160809) can1 216#70FFF80000000087
(1539821135.161086) can1 217#70FFF80000000088
(1539821135.161817) can1 218#7005A8FCA00008E3
(1539821135.162032) can1 219#700586F9E00000F7
(1539821135.162499) can1 141#00000046
(1539821135.162641) can1 344#0000010000000050
(1539821135.162775) can1 365#00000080FC0008
(1539821135.162856) can1 21A#7002F800200001AF
(1539821135.162947) can1 366#007207FF09FE00
(1539821135.163149) can1 21B#7006E2FB800000F8
(1539821135.163336) can1 4CB#0C00000000000000
(1539821135.163855) can1 21C#700412FC400000E8
(1539821135.164290) can1 21D#7006D605600000D8
(1539821135.164808) can1 21E#7005000B200000C8
(1539821135.165094) can1 21F#70042AFE70000035
(1539821135.165807) can1 220#7000640000040406
(1539821135.166103) can1 221#700000000000009B
(1539821135.166809) can1 222#700000000000009C
(1539821135.167087) can1 223#700000000000009D
(1539821135.167808) can1 224#700000000000009E
(1539821135.168103) can1 225#700000000000009F
(1539821135.168806) can1 226#70000000000000A0
(1539821135.169089) can1 227#70000000000000A1
(1539821135.169761) can1 228#7000648048CC
(1539821135.169962) can1 229#70000080C8E9
(1539821135.170807) can1 22A#7000646244AC
(1539821135.170960) can1 22B#7000648244CD
(1539821135.171753) can1 22C#7000647248C2
(1539821135.172009) can1 22D#700003704860
(1539821135.172464) can1 128#F40190830037
(1539821135.172769) can1 283#0000000000008C
(1539821135.172880) can1 22E#70000030C89E
(1539821135.173309) can1 22F#7000398248AA
(1539821135.173809) can1 123#0108090D40008A
(1539821135.174025) can1 230#707FFF117400AC
(1539821135.174838) can1 231#7001FCF00000029A
(1539821135.175103) can1 232#7000FE00FE00FEA6
(1539821135.175815) can1 3D0#B880808080808093
(1539821135.176103) can1 3D1#B880808080808094
(1539821135.176807) can1 3D2#B880808080808095
(1539821135.177093) can1 3D3#B880808080808096
(1539821135.182669) can1 141#00000046
(1539821135.192832) can1 160#0000081201319C51
(1539821135.193184) can1 161#001E0000008007
(1539821135.203006) can1 141#00000046
(1539821135.203308) can1 128#F40190830037
(1539821135.203615) can1 283#0000000000008C
(1539821135.207838) can1 210#7102F800200001A6
(1539821135.208103) can1 211#71FFF80000000083
(1539821135.208806) can1 212#71FFF80000000084
(1539821135.209093) can1 213#71FFF80000000085
(1539821135.209816) can1 214#71FFF80000000086
(1539821135.210103) can1 215#71FFF80000000087
(1539821135.210817) can1 216#71FFF80000000088
(1539821135.211104) can1 217#71FFF80000000089
(1539821135.211817) can1 218#7105A8FC800000BC
(1539821135.212085) can1 219#710586F9E00000F8
(1539821135.212809) can1 21A#7102F80000000190
(1539821135.213120) can1 21B#7106E2FBA0000019
(1539821135.213183) can1 344#0000010000000050
(1539821135.213796) can1 21C#710412FC200000C9
(1539821135.214103) can1 21D#7106D605800000F9
(1539821135.214816) can1 21E#7104FE0B200000C6
(1539821135.215084) can1 21F#71042AFE60000026
(1539821135.215806) can1 220#7100640000040407
(1539821135.216089) can1 221#710000000000009C
(1539821135.216834) can1 222#710000000000009D
(1539821135.217104) can1 223#710000000000009E
(1539821135.217815) can1 224#710000000000009F
(1539821135.218093) can1 225#71000000000000A0
(1539821135.218812) can1 226#71000000000000A1
(1539821135.219106) can1 227#71000000000000A2
(1539821135.219753) can1 228#7100648048CD
(1539821135.219958) can1 229#71000080C8EA
(1539821135.220807) can1 22A#7100646244AD
(1539821135.220976) can1 22B#7100648244CE
(1539821135.221773) can1 22C#7100647248C3
(1539821135.222019) can1 22D#710003804871
(1539821135.222816) can1 22E#71000030C89F
(1539821135.222981) can1 22F#7100408248B2
(1539821135.223482) can1 141#00000046
(1539821135.223902) can1 230#717FFF117500AE
(1539821135.224155) can1 231#7101FCF00000029B
(1539821135.224820) can1 232#7100FE00FE00FEA7
(1539821135.233400) can1 128#F40190830037
(1539821135.233592) can1 283#0000000000008C
(1539821135.243550) can1 141#00000046
(1539821135.257812) can1 210#7202F800200001A7
(1539821135.258105) can1 211#72FFF80000000084
(1539821135.258818) can1 212#72FFF80000000085
(1539821135.259103) can1 213#72FFF80000000086
(1539821135.259816) can1 214#72FFF80000000087
(1539821135.260031) can1 215#72FFF80000000088
(1539821135.260834) can1 216#72FFF80000000089
(1539821135.261102) can1 217#72FFF8000000008A
(1539821135.261830) can1 218#7205A6FC800000BB
(1539821135.262100) can1 219#720584F9E00000F7
(1539821135.262837) can1 21A#7202F80000000191
(1539821135.263103) can1 21B#7206E4FBA000001C
(1539821135.263810) can1 21C#720412FC200000CA
(1539821135.264091) can1 21D#7206D605800000FA
(1539821135.264810) can1 21E#7205000B200000CA
(1539821135.265090) can1 21F#72042AFE60000027
(1539821135.265558) can1 141#00000046
(1539821135.265747) can1 128#F40190830037
(1539821135.265832) can1 220#7200640000040408
(1539821135.265929) can1 283#0000000000008C
(1539821135.266093) can1 344#0000010000000050
(1539821135.266182) can1 160#0000081201319C51
(1539821135.266433) can1 221#720000000000009D
(1539821135.266621) can1 161#001E0000008007
(1539821135.266885) can1 222#720000000000009E
(1539821135.267810) can1 223#720000000000009F
(1539821135.268087) can1 224#72000000000000A0
(1539821135.268354) can1 225#72000000000000A1
(1539821135.268809) can1 226#72000000000000A2
(1539821135.269090) can1 227#72000000000000A3
(1539821135.269807) can1 228#7200648048CE
(1539821135.269968) can1 229#72000080C8EB
(1539821135.270799) can1 22A#7200646244AE
(1539821135.270958) can1 22B#7200648244CF
(1539821135.271784) can1 22C#7200647248C4
(1539821135.272000) can1 22D#720003704862
(1539821135.272760) can1 22E#72000030C8A0
(1539821135.272960) can1 22F#7200478248BA
(1539821135.273810) can1 123#0108090D40008A
(1539821135.274022) can1 230#727FFF117600B0
(1539821135.274832) can1 231#7201FCF00000029C
(1539821135.275083) can1 232#7200FE00FE00FEA8
(1539821135.275808) can1 3D0#B980808080808094
(1539821135.276103) can1 3D1#B980808080808095
(1539821135.276816) can1 3D2#B980808080808096
(1539821135.277084) can1 3D3#B980808080808097
(1539821135.286711) can1 141#00000046
(1539821135.293994) can1 128#F40190830037
(1539821135.294184) can1 283#0000000000008C
(1539821135.304331) can1 141#00000046
(1539821135.307792) can1 210#7302F800200001A8
(1539821135.308103) can1 211#73FFF80000000085
(1539821135.308812) can1 212#73FFF80000000086
(1539821135.309094) can1 213#73FFF80000000087
(1539821135.309807) can1 214#73FFF80000000088
(1539821135.310103) can1 215#73FFF80000000089
(1539821135.310829) can1 216#73FFF8000000008A
(1539821135.311081) can1 217#73FFF8000000008B
(1539821135.311838) can1 218#7305A8FC800000BE
(1539821135.312103) can1 219#730584F9E00000F8
(1539821135.312810) can1 21A#7302F80000000192
(1539821135.313042) can1 21B#7306E4FBA000001D
(1539821135.313840) can1 21C#730412FC200000CB
(1539821135.314105) can1 21D#7306D605800000FB
(1539821135.314194) can1 344#0000010000000050
(1539821135.314808) can1 21E#7305000B200000CB
(1539821135.315104) can1 21F#73042AFE60000028
(1539821135.315818) can1 220#7300640000040409
(1539821135.316032) can1 221#730000000000009E
(1539821135.316858) can1 222#730000000000009F
(1539821135.317088) can1 223#73000000000000A0
(1539821135.317808) can1 224#73000000000000A1
(1539821135.318090) can1 225#73000000000000A2
(1539821135.318854) can1 226#73000000000000A3
(1539821135.319093) can1 227#73000000000000A4
(1539821135.319757) can1 228#7300648048CF
(1539821135.319976) can1 229#73000080C8EC
(1539821135.320819) can1 22A#7300646244AF
(1539821135.321008) can1 22B#7300648244D0
(1539821135.321764) can1 22C#7300647248C5
(1539821135.321969) can1 22D#730003804873
(1539821135.322754) can1 22E#73000030C8A1
(1539821135.322967) can1 22F#73004C8248C0
(1539821135.323808) can1 230#737FFF117700B2
(1539821135.324024) can1 231#7301FCF00000029D
(1539821135.324814) can1 232#7300FE00FE00FEA9
(1539821135.328193) can1 141#00000046
(1539821135.328408) can1 128#F40190830037
(1539821135.328617) can1 283#0000000000008C
(1539821135.334831) can1 160#0000081201319C51
(1539821135.335023) can1 161#001E0000008007
(1539821135.344733) can1 141#00000046
(1539821135.354935) can1 128#F40190830037
(1539821135.355170) can1 283#0000000000008C
(1539821135.357808) can1 210#7402F80000000189
(1539821135.358089) can1 211#74FFF80000000086
(1539821135.358798) can1 212#74FFF80000000087
(1539821135.359104) can1 213#74FFF80000000088
(1539821135.359817) can1 214#74FFF80000000089
(1539821135.360133) can1 215#74FFF8000000008A
(1539821135.360807) can1 216#74FFF8000000008B
(1539821135.361085) can1 217#74FFF8000000008C
(1539821135.361808) can1 218#7405A8FCA00000DF
(1539821135.362103) can1 219#740584F9C00000D9
(1539821135.362816) can1 21A#7402F80000000193
(1539821135.363084) can1 21B#7406E4FB800000FE
(1539821135.363808) can1 21C#740412FC200000CC
(1539821135.364103) can1 21D#7406D605800000FC
(1539821135.364818) can1 21E#7405000B200000CC
(1539821135.365085) can1 21F#74042AFE40000009
(1539821135.365810) can1 220#74FE640000040408
(1539821135.366103) can1 221#740000000000009F
(1539821135.366378) can1 141#00000046
(1539821135.366524) can1 344#0000010000000050
(1539821135.366698) can1 365#00000080FC0008
(1539821135.366810) can1 366#007207FF09FE00
(1539821135.367093) can1 222#74000000000000A0
(1539821135.367508) can1 223#74000000000000A1
(1539821135.367981) can1 224#74000000000000A2
(1539821135.368238) can1 225#74000000000000A3
(1539821135.368812) can1 226#74000000000000A4
(1539821135.369107) can1 227#74000000000000A5
(1539821135.369769) can1 228#7400648048D0
(1539821135.369982) can1 229#74000080C8ED
(1539821135.370761) can1 22A#740064124460
(1539821135.370978) can1 22B#7400648244D1
(1539821135.371788) can1 22C#7400647248C6
(1539821135.372004) can1 22D#740003804874
(1539821135.372761) can1 22E#74000030C8A2
(1539821135.372961) can1 22F#7400508248C5
(1539821135.373810) can1 123#0108090D40008A
(1539821135.374017) can1 230#747FFF117800B4
(1539821135.374818) can1 231#7401FCF00000029E
(1539821135.375103) can1 232#7400FE00FE00FEAA
(1539821135.375808) can1 3D0#BA80808080808095
(1539821135.376093) can1 3D1#BA80808080808096
(1539821135.376807) can1 3D2#BA80808080808097
(1539821135.377094) can1 3D3#BA80808080808098
(1539821135.387559) can1 141#00000046
(1539821135.387808) can1 128#F40190830037
(1539821135.388002) can1 283#0000000000008C
(1539821135.405734) can1 141#00000046
(1539821135.405891) can1 160#0000081201319C51
(1539821135.406103) can1 161#001E0000008007
(1539821135.407808) can1 210#7502F8000000018A
(1539821135.408089) can1 211#75FFF80000000087
(1539821135.408811) can1 212#75FFF80000000088
(1539821135.409103) can1 213#75FFF80000000089
(1539821135.409809) can1 214#75FFF8000000008A
(1539821135.410087) can1 215#75FFF8000000008B
(1539821135.410811) can1 216#75FFF8000000008C
(1539821135.411093) can1 217#75FFF8000000008D
(1539821135.411808) can1 218#7505A6FC6000009E
(1539821135.412104) can1 219#750582F9C00000D8
(1539821135.412816) can1 21A#7502F80000000194
(1539821135.413090) can1 21B#7506E4FB800000FF
(1539821135.413784) can1 21C#750412FC200000CD
(1539821135.414025) can1 21D#7506D605800000FD
(1539821135.414802) can1 21E#7505040B000000B1
(1539821135.415106) can1 21F#75042AFE4000000A
(1539821135.415808) can1 220#750264000004040D
(1539821135.415866) can1 128#F40190830037
(1539821135.416105) can1 221#75000000000000A0
(1539821135.416183) can1 283#0000000000008C
(1539821135.416352) can1 344#0000010000000050
(1539821135.416960) can1 222#75000000000000A1
(1539821135.417241) can1 223#75000000000000A2
(1539821135.417807) can1 224#75000000000000A3
(1539821135.418088) can1 225#75000000000000A4
(1539821135.418809) can1 226#75000000000000A5
(1539821135.419104) can1 227#75000000000000A6
(1539821135.419758) can1 228#7500647048C1
(1539821135.419978) can1 229#75000080C8EE
(1539821135.420755) can1 22A#7500646244B1
(1539821135.420969) can1 22B#7500648244D2
(1539821135.421771) can1 22C#7500647248C7
(1539821135.421980) can1 22D#750003804875
(1539821135.422780) can1 22E#75000030C8A3
(1539821135.423000) can1 22F#7500538248C9
(1539821135.423809) can1 230#757FFF117900B6
(1539821135.424103) can1 231#7501FCF00000029F
(1539821135.424816) can1 232#7500FE00FE00FEAB
(1539821135.429843) can1 141#00000046
(1539821135.446105) can1 141#00000046
(1539821135.446268) can1 128#F40190830037
(1539821135.446504) can1 283#0000000000008C
(1539821135.457814) can1 210#7602F8000000018B
(1539821135.458123) can1 211#76FFF80000000088
(1539821135.458811) can1 212#76FFF80000000089
(1539821135.459094) can1 213#76FFF8000000008A
(1539821135.459808) can1 214#76FFF8000000008B
(1539821135.460085) can1 215#76FFF8000000008C
(1539821135.460809) can1 216#76FFF8000000008D
(1539821135.461093) can1 217#76FFF8000000008E
(1539821135.461809) can1 218#7605A6FC800000BF
(1539821135.462089) can1 219#76057EF9C00000D5
(1539821135.462808) can1 21A#7602F80000000195
(1539821135.463104) can1 21B#7606E4FBA0000020
(1539821135.463816) can1 21C#760412FC200000CE
(1539821135.464084) can1 21D#7606D605800000FE
(1539821135.464808) can1 21E#7605020B000000B0
(1539821135.465104) can1 21F#76042AFE4000000B
(1539821135.465819) can1 220#76FE64000004040A
(1539821135.466104) can1 221#76000000000000A1
(1539821135.466831) can1 222#76000000000000A2
(1539821135.467098) can1 223#76000000000000A3
(1539821135.467815) can1 224#76000000000000A4
(1539821135.468097) can1 225#76000000000000A5
(1539821135.468819) can1 226#76000000000000A6
(1539821135.469105) can1 227#76000000000000A7
(1539821135.469811) can1 228#7600647048C2
(1539821135.469869) can1 141#00000046
(1539821135.469968) can1 229#76000080C8EF
(1539821135.470096) can1 344#0000010000000050
(1539821135.470809) can1 22A#760064124462
(1539821135.471010) can1 22B#7600648244D3
(1539821135.471765) can1 22C#7600647248C8
(1539821135.471964) can1 22D#760003804876
(1539821135.472808) can1 22E#76000030C8A4
(1539821135.472961) can1 22F#7600568248CD
(1539821135.473808) can1 123#0108090D40008A
(1539821135.474013) can1 230#767FFF117A00B8
(1539821135.474810) can1 231#7601FCF0000002A0
(1539821135.475090) can1 232#7600FE00FE00FEAC
(1539821135.475847) can1 3D0#BB80808080808096
(1539821135.476142) can1 3D1#BB80808080808097
(1539821135.476184) can1 128#F40190830037
(1539821135.476332) can1 283#0000000000008C
(1539821135.476444) can1 160#0000081201319C51
(1539821135.476584) can1 161#001E0000008007
(1539821135.477354) can1 3D2#BB80808080808098
(1539821135.477567) can1 3D3#BB80808080808099
(1539821135.487626) can1 141#00000046
(1539821135.507695) can1 141#00000046
(1539821135.507808) can1 210#7702F8000000018C
(1539821135.507881) can1 128#F40190830037
(1539821135.508103) can1 283#0000000000008C
(1539821135.508457) can1 211#77FFF80000000089
(1539821135.508890) can1 212#77FFF8000000008A
(1539821135.509150) can1 213#77FFF8000000008B
(1539821135.509818) can1 214#77FFF8000000008C
(1539821135.510105) can1 215#77FFF8000000008D
(1539821135.510839) can1 216#77FFF8000000008E
(1539821135.511086) can1 217#77FFF8000000008F
(1539821135.511809) can1 218#7705A6FC800000C0
(1539821135.512105) can1 219#770560F8A0000097
(1539821135.512818) can1 21A#7702F80000000196
(1539821135.513104) can1 21B#7706E2FB800000FF
(1539821135.513821) can1 21C#770412FC200000CF
(1539821135.514104) can1 21D#7706D405800000FD
(1539821135.514811) can1 21E#7705000B000000AF
(1539821135.515093) can1 21F#77042AFE4000000C
(1539821135.515810) can1 220#770064000004040D
(1539821135.516106) can1 221#77000000000000A2
(1539821135.516818) can1 222#77000000000000A3
(1539821135.517085) can1 223#77000000000000A4
(1539821135.517733) can1 344#0000010000000050
(1539821135.517855) can1 224#77000000000000A5
(1539821135.518308) can1 225#77000000000000A6
(1539821135.518810) can1 226#77000000000000A7
(1539821135.519084) can1 227#77000000000000A8
(1539821135.519755) can1 228#7700647048C3
(1539821135.519970) can1 229#77000080C8F0
(1539821135.520776) can1 22A#770064124463
(1539821135.520978) can1 22B#7700648244D4
(1539821135.521790) can1 22C#7700647248C9
(1539821135.521996) can1 22D#770003804877
(1539821135.522780) can1 22E#77000030C8A5
(1539821135.522993) can1 22F#7700588248D0
(1539821135.523795) can1 230#777FFF117B00BA
(1539821135.524089) can1 231#7701FCF0000002A1
(1539821135.524808) can1 232#7700FE00FE00FEAD
(1539821135.530919) can1 141#00000046
(1539821135.538814) can1 128#F40190830037
(1539821135.538958) can1 283#0000000000008C
(1539821135.549095) can1 141#00000046
(1539821135.549220) can1 160#0000081201319C51
(1539821135.549333) can1 161#001E0000008007
(1539821135.557814) can1 210#7802F6000000018B
(1539821135.558104) can1 211#78FFF8000000008A
(1539821135.558811) can1 212#78FFF8000000008B
(1539821135.559090) can1 213#78FFF8000000008C
(1539821135.559794) can1 214#78FFF8000000008D
(1539821135.560104) can1 215#78FFF8000000008E
(1539821135.560809) can1 216#78FFF8000000008F
(1539821135.561088) can1 217#78FFF80000000090
(1539821135.561808) can1 218#7805A6FC800008C9
(1539821135.562090) can1 219#78055EF8A000089E
(1539821135.562814) can1 21A#7802F80000000197
(1539821135.563094) can1 21B#7806E0FB800000FE
(1539821135.563808) can1 21C#780412FC200000D0
(1539821135.564090) can1 21D#7806D405800000FE
(1539821135.564793) can1 21E#7805000B000008B8
(1539821135.565104) can1 21F#780428FE4000000B
(1539821135.565817) can1 220#78FE64000004040C
(1539821135.566088) can1 221#78000000000000A3
(1539821135.566810) can1 222#78000000000000A4
(1539821135.567095) can1 223#78000000000000A5
(1539821135.567812) can1 224#78000000000000A6
(1539821135.568098) can1 225#78000000000000A7
(1539821135.568810) can1 226#78000000000000A8
(1539821135.569095) can1 227#78000000000000A9
(1539821135.569562) can1 141#00000046
(1539821135.569823) can1 228#7800647048C4
(1539821135.569880) can1 128#F40190830037
(1539821135.570104) can1 283#0000000000008C
(1539821135.570264) can1 344#0000010000000050
(1539821135.570370) can1 229#78000080C8F1
(1539821135.570477) can1 365#00000080FC0008
(1539821135.570684) can1 366#007207FF09FE00
(1539821135.571088) can1 22A#780064124464
(1539821135.571456) can1 22B#7800648244D5
(1539821135.571881) can1 22C#7800647248CA
(1539821135.572089) can1 22D#780003804878
(1539821135.572790) can1 22E#78000030C8A6
(1539821135.573027) can1 22F#78005A8248D3
(1539821135.573813) can1 123#0108090D40008A
(1539821135.574027) can1 230#787FFF117C00BC
(1539821135.574796) can1 231#7801FCF0000002A2
(1539821135.575107) can1 232#7800FE00FE00FEAE
(1539821135.575812) can1 3D0#BC80808080808097
(1539821135.576108) can1 3D1#BC80808080808098
(1539821135.576825) can1 3D2#BC80808080808099
(1539821135.577097) can1 3D3#BC8080808080809A
(1539821135.589686) can1 141#00000046
(1539821135.599936) can1 128#F40190830037
(1539821135.600197) can1 283#0000000000008C
(1539821135.607811) can1 210#7902F4000000018A
(1539821135.608089) can1 211#79FFF8000000008B
(1539821135.608810) can1 212#79FFF8000000008C
(1539821135.609106) can1 213#79FFF8000000008D
(1539821135.609819) can1 214#79FFF8000000008E
(1539821135.610126) can1 215#79FFF8000000008F
(1539821135.610186) can1 141#00000046
(1539821135.610808) can1 216#79FFF80000000090
(1539821135.611090) can1 217#79FFF80000000091
(1539821135.611794) can1 218#7905A6FC600000A2
(1539821135.612104) can1 219#790570F90000000A
(1539821135.612809) can1 21A#7902F80000000198
(1539821135.613094) can1 21B#7906E0FB800000FF
(1539821135.613808) can1 21C#790412FC200000D1
(1539821135.614090) can1 21D#7906D405800000FF
(1539821135.614820) can1 21E#7905040B000000B5
(1539821135.615096) can1 21F#790428FE4000000C
(1539821135.615842) can1 220#7904640000040413
(1539821135.616104) can1 221#79000000000000A4
(1539821135.616809) can1 222#79000000000000A5
(1539821135.617085) can1 223#79000000000000A6
(1539821135.617833) can1 224#79000000000000A7
(1539821135.618095) can1 225#79000000000000A8
(1539821135.618799) can1 226#79000000000000A9
(1539821135.619095) can1 227#79000000000000AA
(1539821135.619746) can1 228#7900647048C5
(1539821135.619967) can1 229#79000080C8F2
(1539821135.620240) can1 344#0000010000000050
(1539821135.620480) can1 160#0000081201319C51
(1539821135.620719) can1 161#001E0000008007
(1539821135.621152) can1 22A#7900646244B5
(1539821135.621372) can1 22B#7900648244D6
(1539821135.621785) can1 22C#7900647248CB
(1539821135.621991) can1 22D#790003804879
(1539821135.622792) can1 22E#79000030C8A7
(1539821135.622958) can1 22F#79005C8248D6
(1539821135.623789) can1 230#797FFF117D00BE
(1539821135.624091) can1 231#7901FCF0000002A3
(1539821135.624809) can1 232#7900FE00FE00FEAF
(1539821135.630608) can1 141#00000046
(1539821135.630874) can1 128#F40190830037
(1539821135.631195) can1 283#0000000000008C
(1539821135.650942) can1 141#00000046
(1539821135.657814) can1 210#7A02F6000000018D
(1539821135.658121) can1 211#7AFFF8000000008C
(1539821135.658816) can1 212#7AFFF8000000008D
(1539821135.659105) can1 213#7AFFF8000000008E
(1539821135.659809) can1 214#7AFFF8000000008F
(1539821135.660090) can1 215#7AFFF80000000090
(1539821135.660838) can1 216#7AFFF80000000091
(1539821135.661134) can1 217#7AFFF80000000092
(1539821135.661209) can1 128#F40190830037
(1539821135.661319) can1 283#0000000000008C
(1539821135.661882) can1 218#7A05A6FC40000083
(1539821135.662092) can1 219#7A0578F920000033
(1539821135.662795) can1 21A#7A02F80000000199
(1539821135.663104) can1 21B#7A06E0FB80000000
(1539821135.663817) can1 21C#7A0414FC400000F4
(1539821135.664032) can1 21D#7A06D205800000FE
(1539821135.664816) can1 21E#7A050A0AE000009B
(1539821135.665032) can1 21F#7A0428FE40000815
(1539821135.665814) can1 220#7A00640000040410
(1539821135.666104) can1 221#7A000000000000A5
(1539821135.666814) can1 222#7A000000000000A6
(1539821135.667087) can1 223#7A000000000000A7
(1539821135.667811) can1 224#7A000000000000A8
(1539821135.668091) can1 225#7A000000000000A9
(1539821135.668811) can1 226#7A000000000000AA
(1539821135.669096) can1 227#7A000000000000AB
(1539821135.669778) can1 228#7A00647048C6
(1539821135.669991) can1 229#7A000080C8F3
(1539821135.670796) can1 22A#7A00646244B6
(1539821135.671013) can1 22B#7A00648244D7
(1539821135.671489) can1 141#00000046
(1539821135.671781) can1 344#0000010000000050
(1539821135.671898) can1 22C#7A00647248CC
(1539821135.672309) can1 22D#7A000380487A
(1539821135.672764) can1 22E#7A000030C8A8
(1539821135.672981) can1 22F#7A005D8248D8
(1539821135.673789) can1 123#0108090D40008A
(1539821135.673995) can1 230#7A7FFF117E00C0
(1539821135.674810) can1 231#7A01FCF0000002A4
(1539821135.675105) can1 232#7A00FE00FE00FEB0
(1539821135.675820) can1 3D0#BD80808080808098
(1539821135.676104) can1 3D1#BD80808080808099
(1539821135.676820) can1 3D2#BD8080808080809A
(1539821135.677104) can1 3D3#BD8080808080809B
(1539821135.691534) can1 141#00000046
(1539821135.691751) can1 128#F40190830037
(1539821135.691851) can1 283#0000000000008C
(1539821135.691990) can1 160#0000081201319C51
(1539821135.692216) can1 161#001E0000008007
(1539821135.707821) can1 210#7B02F80000000190
(1539821135.708105) can1 211#7BFFF8000000008D
(1539821135.708835) can1 212#7BFFF8000000008E
(1539821135.709104) can1 213#7BFFF8000000008F
(1539821135.709810) can1 214#7BFFF80000000090
(1539821135.710091) can1 215#7BFFF80000000091
(1539821135.710844) can1 216#7BFFF80000000092
(1539821135.711105) can1 217#7BFFF80000000093
(1539821135.711809) can1 218#7B05A6FC40000084
(1539821135.711966) can1 141#00000046
(1539821135.712102) can1 219#7B057CF960000078
(1539821135.712809) can1 21A#7B02F8000000019A
(1539821135.713090) can1 21B#7B06E0FB80000001
(1539821135.713794) can1 21C#7B0414FC400000F5
(1539821135.714104) can1 21D#7B06D40580000001
(1539821135.714819) can1 21E#7B050A0AE000009C
(1539821135.715087) can1 21F#7B0428FE40000816
(1539821135.715814) can1 220#7B00640000040411
(1539821135.716031) can1 221#7B000000000000A6
(1539821135.716795) can1 222#7B000000000000A7
(1539821135.717106) can1 223#7B000000000000A8
(1539821135.717810) can1 224#7B000000000000A9
(1539821135.718096) can1 225#7B000000000000AA
(1539821135.718811) can1 226#7B000000000000AB
(1539821135.719104) can1 227#7B000000000000AC
(1539821135.719758) can1 228#7B00647048C7
(1539821135.719978) can1 229#7B000080C8F4
(1539821135.720762) can1 22A#7B00646244B7
(1539821135.720971) can1 22B#7B00648244D8
(1539821135.721772) can1 22C#7B00647248CD
(1539821135.721986) can1 22D#7B000370486B
(1539821135.722176) can1 128#F40190830037
(1539821135.722333) can1 283#0000000000008C
(1539821135.722471) can1 344#0000010000000050
(1539821135.722833) can1 22E#7B000030C8A9
(1539821135.723252) can1 22F#7B005E8248DA
(1539821135.723816) can1 230#7B7FFF117F00C2
(1539821135.724028) can1 231#7B01FCF0000002A5
(1539821135.724809) can1 232#7B00FE00FE00FEB1
(1539821135.732089) can1 141#00000046
(1539821135.752436) can1 141#00000046
(1539821135.752601) can1 128#F40190830037
(1539821135.752708) can1 283#0000000000008C
(1539821135.757813) can1 210#7C02F80000000191
(1539821135.758108) can1 211#7CFFF8000000008E
(1539821135.758823) can1 212#7CFFF8000000008F
(1539821135.759104) can1 213#7CFFF80000000090
(1539821135.759809) can1 214#7CFFF80000000091
(1539821135.760095) can1 215#7CFFF80000000092
(1539821135.760809) can1 216#7CFFF80000000093
(1539821135.761104) can1 217#7CFFF80000000094
(1539821135.761811) can1 218#7C05A6FC4000088D
(1539821135.762108) can1 219#7C057CF940000861
(1539821135.762484) can1 160#0000081201319C51
(1539821135.762734) can1 161#001E0000008007
(1539821135.763251) can1 21A#7C02F800200001BB
(1539821135.763466) can1 21B#7C06E0FB80000002
(1539821135.763815) can1 21C#7C0416FC80000038
(1539821135.764095) can1 21D#7C06D60580000004
(1539821135.764809) can1 21E#7C050A0AE00008A5
(1539821135.765090) can1 21F#7C0428FE40000817
(1539821135.765844) can1 220#7C00640000040412
(1539821135.766113) can1 221#7C000000000000A7
(1539821135.766832) can1 222#7C000000000000A8
(1539821135.767097) can1 223#7C000000000000A9
(1539821135.767812) can1 224#7C000000000000AA
(1539821135.768096) can1 225#7C000000000000AB
(1539821135.768818) can1 226#7C000000000000AC
(1539821135.769108) can1 227#7C000000000000AD
(1539821135.769788) can1 228#7C00647048C8
(1539821135.769988) can1 229#7C000080C8F5
(1539821135.770768) can1 22A#7C00646244B8
(1539821135.770981) can1 22B#7C00648244D9
(1539821135.771757) can1 22C#7C00647248CE
(1539821135.772013) can1 22D#7C000380487C
(1539821135.772809) can1 22E#7C000030C8AA
(1539821135.772867) can1 141#00000046
(1539821135.772970) can1 22F#7C005F8248DC
(1539821135.773095) can1 344#0000010000000050
(1539821135.773279) can1 365#00000080FC0008
(1539821135.773413) can1 366#007207FF09FE00
(1539821135.773857) can1 123#0108090D40008A
(1539821135.774087) can1 230#7C7FFF118000C4
(1539821135.774844) can1 231#7C01FCF0000002A6
(1539821135.775105) can1 232#7C00FE00FE00FEB2
(1539821135.775808) can1 3D0#BE80808080808099
(1539821135.776095) can1 3D1#BE8080808080809A
(1539821135.776810) can1 3D2#BE8080808080809B
(1539821135.777097) can1 3D3#BE8080808080809C
(1539821135.782810) can1 128#F40190830037
(1539821135.783087) can1 283#0000000000008C
(1539821135.792834) can1 141#00000046
(1539821135.807842) can1 210#7D02F800200001B2
(1539821135.808105) can1 211#7DFFF8000000008F
(1539821135.808834) can1 212#7DFFF80000000090
(1539821135.809105) can1 213#7DFFF80000000091
(1539821135.809811) can1 214#7DFFF80000000092
(1539821135.810090) can1 215#7DFFF80000000093
(1539821135.810816) can1 216#7DFFF80000000094
(1539821135.811106) can1 217#7DFFF80000000095
(1539821135.811812) can1 218#7D05A6FC4000088E
(1539821135.812089) can1 219#7D057CF940000862
(1539821135.812810) can1 21A#7D02F800200001BC
(1539821135.813107) can1 21B#7D06E0FB600000E3
(1539821135.813397) can1 141#00000046
(1539821135.813646) can1 128#F40190830037
(1539821135.813786) can1 21C#7D0418FC8000003B
(1539821135.813882) can1 283#0000000000008C
(1539821135.814255) can1 21D#7D06D60580000005
(1539821135.814820) can1 21E#7D050A0AE00008A6
(1539821135.815088) can1 21F#7D0428FE40000818
(1539821135.815810) can1 220#7D00640000040413
(1539821135.816105) can1 221#7D000000000000A8
(1539821135.816820) can1 222#7D000000000000A9
(1539821135.817087) can1 223#7D000000000000AA
(1539821135.817812) can1 224#7D000000000000AB
(1539821135.818091) can1 225#7D000000000000AC
(1539821135.818848) can1 226#7D000000000000AD
(1539821135.819105) can1 227#7D000000000000AE
(1539821135.819770) can1 228#7D00647048C9
(1539821135.819983) can1 229#7D000080C8F6
(1539821135.820761) can1 22A#7D00646244B9
(1539821135.820981) can1 22B#7D00648244DA
(1539821135.821758) can1 22C#7D00647248CF
(1539821135.821970) can1 22D#7D000370486D
(1539821135.822801) can1 22E#7D000030C8AB
(1539821135.823011) can1 22F#7D00608248DE
(1539821135.823475) can1 344#0000010000000050
(1539821135.823936) can1 230#7D7FFF118100C6
(1539821135.824176) can1 231#7D01FCF0000002A7
(1539821135.824809) can1 232#7D00FE00FE00FEB3
(1539821135.833590) can1 141#00000046
(1539821135.833856) can1 160#0000081201319C51
(1539821135.834104) can1 161#001E0000008007
(1539821135.843710) can1 128#F40190830037
(1539821135.843960) can1 283#0000000000008C
(1539821135.853746) can1 141#00000046
(1539821135.857812) can1 210#7E02F800200001B3
(1539821135.858091) can1 211#7EFFF80000000090
(1539821135.858844) can1 212#7EFFF80000000091
(1539821135.859105) can1 213#7EFFF80000000092
(1539821135.859818) can1 214#7EFFF80000000093
(1539821135.860085) can1 215#7EFFF80000000094
(1539821135.860811) can1 216#7EFFF80000000095
(1539821135.861085) can1 217#7EFFF80000000096
(1539821135.861811) can1 218#7E05A0FBC0000000
(1539821135.862092) can1 219#7E056EF8C00000CC
(1539821135.862798) can1 21A#7E02F800200001BD
(1539821135.863105) can1 21B#7E06E0FB600000E4
(1539821135.863820) can1 21C#7E0416FC8000003A
(1539821135.864105) can1 21D#7E06D60580000006
(1539821135.864809) can1 21E#7E05220A40000017
(1539821135.865095) can1 21F#7E042AFE60000033
(1539821135.865811) can1 220#7E00640000040414
(1539821135.866091) can1 221#7E000000000000A9
(1539821135.866816) can1 222#7E000000000000AA
(1539821135.867095) can1 223#7E000000000000AB
(1539821135.867809) can1 224#7E000000000000AC
(1539821135.868091) can1 225#7E000000000000AD
(1539821135.868846) can1 226#7E000000000000AE
(1539821135.869106) can1 227#7E000000000000AF
(1539821135.869770) can1 228#7E00647048CA
(1539821135.869985) can1 229#7E000080C8F7
(1539821135.870766) can1 22A#7E00646244BA
(1539821135.870963) can1 22B#7E00648244DB
(1539821135.871757) can1 22C#7E00647248D0
(1539821135.872006) can1 22D#7E000370486E
(1539821135.872765) can1 22E#7E000030C8AC
(1539821135.873015) can1 22F#7E00618248E0
(1539821135.873812) can1 123#0108090D40008A
(1539821135.874105) can1 230#7E7FFF118200C8
(1539821135.874184) can1 141#00000046
(1539821135.874310) can1 128#F40190830037
(1539821135.874367) can1 283#0000000000008C
(1539821135.874543) can1 344#0000010000000050
(1539821135.874907) can1 231#7E01FCF0000002A8
(1539821135.875402) can1 232#7E00FE00FE00FEB4
(1539821135.875816) can1 3D0#BF8080808080809A
(1539821135.876107) can1 3D1#BF8080808080809B
(1539821135.876820) can1 3D2#BF8080808080809C
(1539821135.877089) can1 3D3#BF8080808080809D
(1539821135.894281) can1 141#00000046
(1539821135.904656) can1 128#F40190830037
(1539821135.904897) can1 283#0000000000008C
(1539821135.905175) can1 160#0000081201319C51
(1539821135.905277) can1 161#001E0000008007
(1539821135.907820) can1 210#7F02F60000000192
(1539821135.908095) can1 211#7FFFF80000000091
(1539821135.908835) can1 212#7FFFF80000000092
(1539821135.909104) can1 213#7FFFF80000000093
(1539821135.909812) can1 214#7FFFF80000000094
(1539821135.910096) can1 215#7FFFF80000000095
(1539821135.910810) can1 216#7FFFF80000000096
(1539821135.911091) can1 217#7FFFF80000000097
(1539821135.911810) can1 218#7F05A2FC00000044
(1539821135.912088) can1 219#7F0576F920000036
(1539821135.912810) can1 21A#7F02F8000000019E
(1539821135.913092) can1 21B#7F06E0FB80000005
(1539821135.913819) can1 21C#7F0414FC60000019
(1539821135.914106) can1 21D#7F06D60580000007
(1539821135.914647) can1 141#00000046
(1539821135.914833) can1 21E#7F05140A8000004A
(1539821135.915185) can1 21F#7F042AFE60000034
(1539821135.915810) can1 220#7F02640000040417
(1539821135.916105) can1 221#7F000000000000AA
(1539821135.916818) can1 222#7F000000000000AB
(1539821135.917034) can1 223#7F000000000000AC
(1539821135.917845) can1 224#7F000000000000AD
(1539821135.918106) can1 225#7F000000000000AE
(1539821135.918819) can1 226#7F000000000000AF
(1539821135.919085) can1 227#7F000000000000B0
(1539821135.919792) can1 228#7F00648048DB
(1539821135.920006) can1 229#7F000080C8F8
(1539821135.920764) can1 22A#7F00646244BB
(1539821135.921005) can1 22B#7F00648244DC
(1539821135.921780) can1 22C#7F00647248D1
(1539821135.921996) can1 22D#7F000370486F
(1539821135.922763) can1 22E#7F000030C8AD
(1539821135.922981) can1 22F#7F00629248F2
(1539821135.923790) can1 230#7F7FFF118300CA
(1539821135.924017) can1 231#7F01FCF0000002A9
(1539821135.924798) can1 232#7F00FE00FE00FEB5
(1539821135.924894) can1 344#0000010000000050
(1539821135.934736) can1 141#00000046
(1539821135.935021) can1 128#F40190830037
(1539821135.935240) can1 283#0000000000008C
(1539821135.955198) can1 141#00000046
(1539821135.957812) can1 210#8002F2000000018F
(1539821135.958093) can1 211#80FFF80000000092
(1539821135.958813) can1 212#80FFF80000000093
(1539821135.959106) can1 213#80FFF80000000094
(1539821135.959822) can1 214#80FFF80000000095
(1539821135.960108) can1 215#80FFF80000000096
(1539821135.960864) can1 216#80FFF80000000097
(1539821135.961098) can1 217#80FFF80000000098
(1539821135.961811) can1 218#8005A2FC00000045
(1539821135.962092) can1 219#800578F940000059
(1539821135.962803) can1 21A#8002F8000000019F
(1539821135.963107) can1 21B#8006E2FB80000008
(1539821135.963816) can1 21C#800412FC60000018
(1539821135.964106) can1 21D#8006D60580000008
(1539821135.964796) can1 21E#8005100AA0000067
(1539821135.965107) can1 21F#80042AFE60000035
(1539821135.965345) can1 128#F40190830037
(1539821135.965583) can1 283#0000000000008C
(1539821135.965839) can1 220#8000640000040416
(1539821135.966305) can1 221#80000000000000AB
(1539821135.966816) can1 222#80000000000000AC
(1539821135.967096) can1 223#80000000000000AD
(1539821135.967810) can1 224#80000000000000AE
(1539821135.968106) can1 225#80000000000000AF
(1539821135.968834) can1 226#80000000000000B0
(1539821135.969112) can1 227#80000000000000B1
(1539821135.969783) can1 228#8000647048CC
(1539821135.969983) can1 229#80000080C8F9
