(1539821181.135535) can1 160#0000081201319C51
(1539821181.135778) can1 161#001E0000008007
(1539821181.143093) can1 141#00000046
(1539821181.157938) can1 210#080A84FEA000004E
(1539821181.158118) can1 211#08116205A000003B
(1539821181.158921) can1 212#08FFF8000000001B
(1539821181.159163) can1 213#08FFF8000000001C
(1539821181.159869) can1 214#08FFF8000000001D
(1539821181.160181) can1 215#08FFF8000000001E
(1539821181.160892) can1 216#080F5201200000AA
(1539821181.161185) can1 217#08FFF80000000020
(1539821181.161920) can1 218#0802E403C00000D3
(1539821181.162168) can1 219#080F6C08100040FE
(1539821181.162941) can1 21A#080F9A016000083E
(1539821181.163118) can1 141#00000046
(1539821181.163286) can1 21B#080A80FEA0000055
(1539821181.163426) can1 128#F40190830037
(1539821181.163455) can1 283#0000000000008C
(1539821181.164095) can1 21C#080EC4FD40000845
(1539821181.164330) can1 21D#08057CFA400000EA
(1539821181.164921) can1 21E#080E3AF9C0000839
(1539821181.165163) can1 21F#08115E06000000A6
(1539821181.165938) can1 220#080064000004049E
(1539821181.166118) can1 221#080000000006043D
(1539821181.166924) can1 222#0800000000000034
(1539821181.167163) can1 223#0800000000000035
(1539821181.167939) can1 224#0800000000000036
(1539821181.168186) can1 225#0800000000000037
(1539821181.168926) can1 226#08FC63000004049F
(1539821181.169165) can1 227#0800000000000039
(1539821181.169868) can1 228#08026480C4E2
(1539821181.170059) can1 229#081600B24849
(1539821181.170903) can1 22A#080064A04886
(1539821181.171098) can1 22B#080064924475
(1539821181.171875) can1 22C#080064C248AA
(1539821181.172064) can1 22D#080000A0C4A1
(1539821181.172886) can1 22E#080003D24457
(1539821181.173063) can1 22F#080000B24839
(1539821181.173873) can1 123#0108090D40008A
(1539821181.174118) can1 230#087FFF150C00E0
(1539821181.174942) can1 231#0801FFF000000235
(1539821181.175118) can1 232#0800FE00FE00FE3E
(1539821181.175923) can1 3D0#84F5F90B808080D8
(1539821181.176167) can1 3D1#8480808080808060
(1539821181.176942) can1 3D2#8480808080808061
(1539821181.177119) can1 3D3#8480808080808062
(1539821181.183290) can1 141#00000046
(1539821181.183466) can1 344#0000010000000050
(1539821181.193583) can1 128#F40190830037
(1539821181.193753) can1 283#0000000000008C
(1539821181.203641) can1 141#00000046
(1539821181.203843) can1 160#0000081201319C51
(1539821181.204042) can1 161#001E0000008007
(1539821181.207871) can1 210#090A84FEA000004F
(1539821181.208129) can1 211#09116205A000003C
(1539821181.208938) can1 212#09FFF8000000001C
(1539821181.209187) can1 213#09FFF8000000001D
(1539821181.209919) can1 214#09FFF8000000001E
(1539821181.210164) can1 215#09FFF8000000001F
(1539821181.210893) can1 216#090F7401C000006D
(1539821181.211163) can1 217#09FFF80000000021
(1539821181.211868) can1 218#0902E203C00000D2
(1539821181.212178) can1 219#090F6C08C000208F
(1539821181.212868) can1 21A#090F9802A0000076
(1539821181.213129) can1 21B#090A80FEA0000056
(1539821181.213869) can1 21C#090EC4FD40000846
(1539821181.214129) can1 21D#09057CFA400000EB
(1539821181.214870) can1 21E#090E4CFA400000C5
(1539821181.215129) can1 21F#09115806C0000061
(1539821181.215871) can1 220#090064000004049F
(1539821181.216129) can1 221#090000000006043E
(1539821181.216869) can1 222#0900000000000035
(1539821181.217179) can1 223#0900000000000036
(1539821181.217940) can1 224#0900000000000037
(1539821181.218188) can1 225#0900000000000038
(1539821181.218868) can1 226#09FE6300000404A2
(1539821181.219176) can1 227#090000000000003A
(1539821181.219868) can1 228#09006480C4E1
(1539821181.220078) can1 229#09F400B24424
(1539821181.220872) can1 22A#090064A24889
(1539821181.221060) can1 22B#090064924476
(1539821181.221875) can1 22C#090064C248AB
(1539821181.222065) can1 22D#090000A0C4A2
(1539821181.222873) can1 22E#090203D2445A
(1539821181.223068) can1 22F#090000B2483A
(1539821181.223848) can1 230#097FFF150D00E2
(1539821181.223947) can1 141#00000046
(1539821181.224125) can1 231#0901FFF000000236
(1539821181.224287) can1 128#F40190830037
(1539821181.224366) can1 283#0000000000008C
(1539821181.224971) can1 232#0900FE00FE00FE3F
(1539821181.233967) can1 344#0000010000000050
(1539821181.244155) can1 141#00000046
(1539821181.254439) can1 128#F40190830037
(1539821181.254618) can1 283#0000000000008C
(1539821181.257868) can1 210#0A0A84FEA0000050
(1539821181.258164) can1 211#0A116205A000003D
(1539821181.258939) can1 212#0AFFF8000000001D
(1539821181.259185) can1 213#0AFFF8000000001E
(1539821181.259919) can1 214#0AFFF8000000001F
(1539821181.260166) can1 215#0AFFF80000000020
(1539821181.260941) can1 216#0A0F8A02000000C5
(1539821181.261187) can1 217#0AFFF80000000022
(1539821181.261934) can1 218#0A02DE03C00000CF
(1539821181.262153) can1 219#0A0F7A08200020FE
(1539821181.262922) can1 21A#0A0F9A02E00000B9
(1539821181.263165) can1 21B#0A0A80FEA0000057
(1539821181.263928) can1 21C#0A0EC4FD40000847
(1539821181.264170) can1 21D#0A057CFA400000EC
(1539821181.264406) can1 141#00000046
(1539821181.264896) can1 21E#0A0E56FA80000010
(1539821181.265118) can1 21F#0A115407600000FF
(1539821181.265924) can1 220#0A006400000404A0
(1539821181.266163) can1 221#0A0000000006043F
(1539821181.266869) can1 222#0A00000000000036
(1539821181.267180) can1 223#0A00000000000037
(1539821181.267941) can1 224#0A00000000000038
(1539821181.268186) can1 225#0A00000000000039
(1539821181.268920) can1 226#0A006300000404A5
(1539821181.269165) can1 227#0A0000000000003B
(1539821181.269869) can1 228#0A006480C4E2
(1539821181.270088) can1 229#0A0000B24431
(1539821181.270879) can1 22A#0A0064B2489A
(1539821181.271093) can1 22B#0A0064924477
(1539821181.271884) can1 22C#0A0064C248AC
(1539821181.272094) can1 22D#0A0000A0C4A3
(1539821181.272879) can1 22E#0A0203C2444B
(1539821181.273088) can1 22F#0A0000B2483B
(1539821181.273878) can1 123#0108090D40008A
(1539821181.274139) can1 230#0A7FFF150E00E4
(1539821181.274882) can1 231#0A01FFF000000237
(1539821181.275188) can1 232#0A00FE00FE00FE40
(1539821181.275948) can1 3D0#8580808080808060
(1539821181.276161) can1 3D1#8580808080808061
(1539821181.276949) can1 3D2#8580808080808062
(1539821181.277162) can1 3D3#8580808080808063
(1539821181.278867) can1 160#0000081201319C51
(1539821181.278993) can1 161#001E0000008007
(1539821181.284618) can1 141#00000046
(1539821181.284789) can1 128#F40190830037
(1539821181.284936) can1 283#0000000000008C
(1539821181.285061) can1 344#0000010000000050
(1539821181.285284) can1 365#00000080FC0008
(1539821181.285370) can1 366#007207FF09FE00
(1539821181.305090) can1 141#00000046
(1539821181.307869) can1 210#0B0A84FEA0000051
(1539821181.308129) can1 211#0B115A06200000B7
(1539821181.308939) can1 212#0BFFF8000000001E
(1539821181.309204) can1 213#0BFFF8000000001F
(1539821181.309931) can1 214#0BFFF80000000020
(1539821181.310164) can1 215#0BFFF80000000021
(1539821181.310898) can1 216#0B0F9601E00000B1
(1539821181.311189) can1 217#0BFFF80000000023
(1539821181.311929) can1 218#0B02E403C00000D6
(1539821181.312169) can1 219#0B0F6E07C00050C2
(1539821181.312929) can1 21A#0B0F9A02E00008C2
(1539821181.313169) can1 21B#0B0A80FEA0000058
(1539821181.313929) can1 21C#0B0EC4FD40000848
(1539821181.314169) can1 21D#0B057CFA400000ED
(1539821181.314929) can1 21E#0B0E40FAE000005B
(1539821181.315123) can1 21F#0B115207C000005E
(1539821181.315872) can1 220#0B006400000404A1
(1539821181.316165) can1 221#0B0000000004043E
(1539821181.316872) can1 222#0B00000000000037
(1539821181.316993) can1 128#F40190830037
(1539821181.317163) can1 223#0B00000000000038
(1539821181.317211) can1 283#0000000000008C
(1539821181.317939) can1 224#0B00000000000039
(1539821181.318189) can1 225#0B0000000000003A
(1539821181.318903) can1 226#0B006300000404A6
(1539821181.319193) can1 227#0B0000000000003C
(1539821181.319869) can1 228#0B006480C4E3
(1539821181.320060) can1 229#0B1000B24442
(1539821181.320875) can1 22A#0B0064B2489B
(1539821181.321068) can1 22B#0B0064924478
(1539821181.321874) can1 22C#0B0064C248AD
(1539821181.322068) can1 22D#0B0000A0C4A4
(1539821181.322873) can1 22E#0B0012D24469
(1539821181.323064) can1 22F#0B0000B2483C
(1539821181.323868) can1 230#0B7FFF150F00E6
(1539821181.324165) can1 231#0B01FFF000000238
(1539821181.324887) can1 232#0B00FE00FE00FE41
(1539821181.325275) can1 141#00000046
(1539821181.337071) can1 344#0000010000000050
(1539821181.345561) can1 141#00000046
(1539821181.345836) can1 128#F40190830037
(1539821181.346030) can1 283#0000000000008C
(1539821181.346212) can1 160#0000081201319C51
(1539821181.346418) can1 161#001E0000008007
(1539821181.357950) can1 210#0C0A84FEA0000052
(1539821181.358162) can1 211#0C115A06200000B8
(1539821181.358948) can1 212#0CFFF8000000001F
(1539821181.359161) can1 213#0CFFF80000000020
(1539821181.359878) can1 214#0CFFF80000000021
(1539821181.360189) can1 215#0CFFF80000000022
(1539821181.360902) can1 216#0C0F760281FFF023
(1539821181.361155) can1 217#0CFFF80000000024
(1539821181.361949) can1 218#0C02E603C00000D9
(1539821181.362136) can1 219#0C0F5806C000207C
(1539821181.362878) can1 21A#0C0F9A02E00008C3
(1539821181.363140) can1 21B#0C0A80FEA0000059
(1539821181.363899) can1 21C#0C0EC4FD40000849
(1539821181.364174) can1 21D#0C057AFA400000EC
(1539821181.364900) can1 21E#0C0E24FB20000081
(1539821181.365150) can1 21F#0C114C08600000FA
(1539821181.365863) can1 141#00000046
(1539821181.365978) can1 220#0C006400000404A2
(1539821181.366332) can1 221#0C00000000060441
(1539821181.366879) can1 222#0C00000000000038
(1539821181.367188) can1 223#0C00000000000039
(1539821181.367946) can1 224#0C0000000000003A
(1539821181.368209) can1 225#0C0000000000003B
(1539821181.368956) can1 226#0CF863000004049F
(1539821181.369174) can1 227#0C0000000000003D
(1539821181.369893) can1 228#0CFE6480C4E2
(1539821181.370084) can1 229#0CF200B24425
(1539821181.370868) can1 22A#0C0064B2489C
(1539821181.371072) can1 22B#0C0064924479
(1539821181.371869) can1 22C#0C0064C248AE
(1539821181.372088) can1 22D#0C0000A0C4A5
(1539821181.372878) can1 22E#0C001EC24466
(1539821181.373088) can1 22F#0C0000B2483D
(1539821181.373878) can1 123#0108090D40008A
(1539821181.374138) can1 230#0C7FFF151000E8
(1539821181.374949) can1 231#0C01FFF000000239
(1539821181.375128) can1 232#0C00FE00FE00FE42
(1539821181.375936) can1 3D0#86F4F814808080E1
(1539821181.376129) can1 3D1#8680808080808062
(1539821181.376937) can1 3D2#8680808080808063
(1539821181.377130) can1 3D3#8680808080808064
(1539821181.380039) can1 128#F40190830037
(1539821181.380280) can1 283#0000000000008C
(1539821181.386045) can1 141#00000046
(1539821181.386279) can1 344#0000010000000050
(1539821181.406364) can1 141#00000046
(1539821181.406530) can1 128#F40190830037
(1539821181.406697) can1 283#0000000000008C
(1539821181.407949) can1 210#0D0A84FEA0000053
(1539821181.408163) can1 211#0D115C06200000BB
(1539821181.408949) can1 212#0DFFF80000000020
(1539821181.409162) can1 213#0DFFF80000000021
(1539821181.409934) can1 214#0DFFF80000000022
(1539821181.410199) can1 215#0DFFF80000000023
(1539821181.410935) can1 216#0D0F7202A1FFF040
(1539821181.411204) can1 217#0DFFF80000000025
(1539821181.411909) can1 218#0D02E803C00000DC
(1539821181.412173) can1 219#0D0F4C0680002031
(1539821181.412902) can1 21A#0D0F9A02E00008C4
(1539821181.413151) can1 21B#0D0A80FEA000005A
(1539821181.413933) can1 21C#0D0F0AFD20000069
(1539821181.414133) can1 21D#0D057AFA400000ED
(1539821181.414878) can1 21E#0D0E20FB20000886
(1539821181.415139) can1 21F#0D115008200000BF
(1539821181.415913) can1 220#0D006400000404A3
(1539821181.416174) can1 221#0D00000000040440
(1539821181.416925) can1 222#0D00000000000039
(1539821181.417196) can1 223#0D0000000000003A
(1539821181.417830) can1 160#0000081201319C51
(1539821181.417946) can1 224#0D0000000000003B
(1539821181.418079) can1 161#001E0000008007
(1539821181.418628) can1 225#0D0000000000003C
(1539821181.418939) can1 226#0D006300000604AA
(1539821181.419196) can1 227#0D0000000000003E
(1539821181.419853) can1 228#0D026480C4E7
(1539821181.420102) can1 229#0DFE00A24422
(1539821181.420884) can1 22A#0D0064B2489D
(1539821181.421113) can1 22B#0D006492447A
(1539821181.421880) can1 22C#0D0064C248AF
(1539821181.422091) can1 22D#0D0000A0C4A6
(1539821181.422880) can1 22E#0D0029C24472
(1539821181.423087) can1 22F#0D0000B2483E
(1539821181.423878) can1 230#0D7FFF151100EA
(1539821181.424138) can1 231#0D01FFF00000023A
(1539821181.424877) can1 232#0D00FE00FE00FE43
(1539821181.427288) can1 141#00000046
(1539821181.437527) can1 128#F40190830037
(1539821181.437778) can1 283#0000000000008C
(1539821181.437974) can1 344#0000010000000050
(1539821181.447584) can1 141#00000046
(1539821181.457940) can1 210#0E0A84FEA0000054
(1539821181.458153) can1 211#0E115E06400000DE
(1539821181.458933) can1 212#0EFFF80000000021
(1539821181.459183) can1 213#0EFFF80000000022
(1539821181.459936) can1 214#0EFFF80000000023
(1539821181.460194) can1 215#0EFFF80000000024
(1539821181.460904) can1 216#0E0F7202A1FFF041
(1539821181.461172) can1 217#0EFFF80000000026
(1539821181.461896) can1 218#0E02E603C00000DB
(1539821181.462188) can1 219#0E0F2C0720FFC052
(1539821181.462924) can1 21A#0E0F9A02E00008C5
(1539821181.463169) can1 21B#0E0A80FEA000005B
(1539821181.463881) can1 21C#0E0F10FD40000898
(1539821181.464141) can1 21D#0E057AFA400000EE
(1539821181.464926) can1 21E#0E0E9EFAA0FFC03B
(1539821181.465165) can1 21F#0E11560780000025
(1539821181.465915) can1 220#0E006400000404A4
(1539821181.466165) can1 221#0E00000000040441
(1539821181.466870) can1 222#0E0000000000003A
(1539821181.467179) can1 223#0E0000000000003B
(1539821181.467947) can1 224#0E0000000000003C
(1539821181.468091) can1 141#00000046
(1539821181.468191) can1 225#0E0000000000003D
(1539821181.468287) can1 128#F40190830037
(1539821181.468414) can1 283#0000000000008C
(1539821181.469029) can1 226#0E006300000604AB
(1539821181.469288) can1 227#0E0000000000003F
(1539821181.469869) can1 228#0EFE6480C4E4
(1539821181.470080) can1 229#0EE200A04405
(1539821181.470869) can1 22A#0E0064B2489E
(1539821181.471076) can1 22B#0E006492447B
(1539821181.471891) can1 22C#0E0064C248B0
(1539821181.472084) can1 22D#0E0000A0C4A7
(1539821181.472873) can1 22E#0EEA23C24457
(1539821181.473065) can1 22F#0E0000B2483F
(1539821181.473874) can1 123#0108090D40008A
(1539821181.474118) can1 230#0E7FFF151200EC
(1539821181.474870) can1 231#0E01FFF00000023B
(1539821181.475165) can1 232#0E00FE00FE00FE44
(1539821181.475869) can1 3D0#87F4F71C808080E9
(1539821181.476132) can1 3D1#8780808080808063
(1539821181.476938) can1 3D2#8780808080808064
(1539821181.477118) can1 3D3#8780808080808065
(1539821181.488837) can1 141#00000046
(1539821181.488993) can1 344#0000010000000050
(1539821181.489121) can1 160#0000081201319C51
(1539821181.489290) can1 161#001E0000008007
(1539821181.489445) can1 365#00000080FC0008
(1539821181.489617) can1 366#007207FF09FE00
(1539821181.498978) can1 128#F40190830037
(1539821181.499197) can1 283#0000000000008C
(1539821181.507883) can1 210#0F0A84FEA0000055
(1539821181.508139) can1 211#0F115E06400000DF
(1539821181.508879) can1 212#0FFFF80000000022
(1539821181.509193) can1 213#0FFFF80000000023
(1539821181.509297) can1 141#00000046
(1539821181.509950) can1 214#0FFFF80000000024
(1539821181.510164) can1 215#0FFFF80000000025
(1539821181.510949) can1 216#0F0F7A038000003B
(1539821181.511163) can1 217#0FFFF80000000027
(1539821181.511949) can1 218#0F02E603C00000DC
(1539821181.512129) can1 219#0F0F2E0760FFE0B5
(1539821181.512934) can1 21A#0F0F9A02E00008C6
(1539821181.513134) can1 21B#0F0A80FEA000005C
(1539821181.513878) can1 21C#0F0F32FDE0000053
(1539821181.514139) can1 21D#0F057CFA60000011
(1539821181.514879) can1 21E#0F0E80FA20FFE0BE
(1539821181.515139) can1 21F#0F115A06E0000089
(1539821181.515878) can1 220#0F006400000404A5
(1539821181.516139) can1 221#0F00000000060444
(1539821181.516881) can1 222#0F0000000000003B
(1539821181.517191) can1 223#0F0000000000003C
(1539821181.517951) can1 224#0F0000000000003D
(1539821181.518215) can1 225#0F0000000000003E
(1539821181.518928) can1 226#0F086400000404B3
(1539821181.519129) can1 227#0F00000000000040
(1539821181.519880) can1 228#0F026480C4E9
(1539821181.520091) can1 229#0F0A00B24440
(1539821181.520879) can1 22A#0F0064B2489F
(1539821181.521089) can1 22B#0F006492447C
(1539821181.521880) can1 22C#0F0064C248B1
(1539821181.522089) can1 22D#0F0000A0C4A8
(1539821181.522880) can1 22E#0F0C1DC24474
(1539821181.523092) can1 22F#0F0000B24840
(1539821181.523883) can1 230#0F7FFF151300EE
(1539821181.524129) can1 231#0F01FFF00000023C
(1539821181.524884) can1 232#0F00FE00FE00FE45
(1539821181.529779) can1 141#00000046
(1539821181.530025) can1 128#F40190830037
(1539821181.530201) can1 283#0000000000008C
(1539821181.539764) can1 344#0000010000000050
(1539821181.549929) can1 141#00000046
(1539821181.557880) can1 210#100A84FEA0000056
(1539821181.558192) can1 211#10115E06400000E0
(1539821181.558955) can1 212#10FFF80000000023
(1539821181.559174) can1 213#10FFF80000000024
(1539821181.559936) can1 214#10FFF80000000025
(1539821181.560170) can1 215#10FFF80000000026
(1539821181.560299) can1 128#F40190830037
(1539821181.560448) can1 283#0000000000008C
(1539821181.560688) can1 160#0000081201319C51
(1539821181.560878) can1 161#001E0000008007
(1539821181.560994) can1 216#100F5C04400000DF
(1539821181.561630) can1 217#10FFF80000000028
(1539821181.561941) can1 218#1002E403C00000DB
(1539821181.562200) can1 219#100F340720FFE07C
(1539821181.562906) can1 21A#100F9A02E00008C7
(1539821181.563165) can1 21B#100A80FEA000005D
(1539821181.563879) can1 21C#100F34FDE000085E
(1539821181.564139) can1 21D#10057CFA400000F2
(1539821181.564879) can1 21E#100E6AFA400000EA
(1539821181.565141) can1 21F#10115C06C000006C
(1539821181.565879) can1 220#10006400000404A6
(1539821181.566191) can1 221#1000000000060445
(1539821181.566954) can1 222#100000000000003C
(1539821181.567152) can1 223#100000000000003D
(1539821181.567934) can1 224#100000000000003E
(1539821181.568185) can1 225#100000000000003F
(1539821181.568937) can1 226#10005E00000404A6
(1539821181.569202) can1 227#1000000000000041
(1539821181.569916) can1 228#10006480C4E8
(1539821181.570094) can1 229#10FE00B24435
(1539821181.570380) can1 141#00000046
(1539821181.570878) can1 22A#100064B248A0
(1539821181.571091) can1 22B#100064A2448D
(1539821181.571879) can1 22C#100064C248B2
(1539821181.572090) can1 22D#100000A0C4A9
(1539821181.572879) can1 22E#100619D2447B
(1539821181.573091) can1 22F#100000B24841
(1539821181.573879) can1 123#0108090D40008A
(1539821181.574138) can1 230#107FFF151400F0
(1539821181.574940) can1 231#1001FFF00000023D
(1539821181.575120) can1 232#1000FE00FE00FE46
(1539821181.575923) can1 3D0#88F4FB12808080E4
(1539821181.576142) can1 3D1#8880808080808064
(1539821181.576952) can1 3D2#8880808080808065
(1539821181.577164) can1 3D3#8880808080808066
(1539821181.590632) can1 141#00000046
(1539821181.590935) can1 128#F40190830037
(1539821181.591172) can1 283#0000000000008C
(1539821181.591383) can1 344#0000010000000050
(1539821181.607871) can1 210#110A84FEA0000057
(1539821181.608189) can1 211#11116206400000E5
(1539821181.608963) can1 212#11FFF80000000024
(1539821181.609176) can1 213#11FFF80000000025
(1539821181.609905) can1 214#11FFF80000000026
(1539821181.610175) can1 215#11FFF80000000027
(1539821181.610853) can1 141#00000046
(1539821181.610954) can1 216#110F5804400000DC
(1539821181.611345) can1 217#11FFF80000000029
(1539821181.611909) can1 218#1102E803C00000E0
(1539821181.612158) can1 219#110F340720FFE885
(1539821181.612879) can1 21A#1103E405D00000F1
(1539821181.613141) can1 21B#110A80FEA000005E
(1539821181.613879) can1 21C#110F34FDE000085F
(1539821181.614142) can1 21D#11057CFA400000F3
(1539821181.614879) can1 21E#110E7AFAE00040DB
(1539821181.615155) can1 21F#11115C068000002D
(1539821181.615934) can1 220#11006400000404A7
(1539821181.616129) can1 221#11FC000000040440
(1539821181.616936) can1 222#110000000000003D
(1539821181.617130) can1 223#110000000000003E
(1539821181.617940) can1 224#110000000000003F
(1539821181.618199) can1 225#1100000000000040
(1539821181.618905) can1 226#11005900000604A4
(1539821181.619174) can1 227#1100000000000042
(1539821181.619905) can1 228#11006480C4E9
(1539821181.620075) can1 229#11FE00B24436
(1539821181.620883) can1 22A#11000094C49B
(1539821181.621085) can1 22B#110064A2448E
(1539821181.621184) can1 128#F40190830037
(1539821181.621377) can1 283#0000000000008C
(1539821181.621880) can1 22C#110064C248B3
(1539821181.622091) can1 22D#110000A0C4AA
(1539821181.622884) can1 22E#111A25D2449C
(1539821181.623091) can1 22F#110000B24842
(1539821181.623882) can1 230#117FFF151500F2
(1539821181.624140) can1 231#1101FFF00000023E
(1539821181.624880) can1 232#1100FE00FE00FE47
(1539821181.631527) can1 141#00000046
(1539821181.631691) can1 160#0000081201319C51
(1539821181.631840) can1 161#001E0000008007
(1539821181.641392) can1 344#0000010000000050
(1539821181.651527) can1 141#00000046
(1539821181.651836) can1 128#F40190830037
(1539821181.652032) can1 283#0000000000008C
(1539821181.657881) can1 210#120A84FEA0000058
(1539821181.658140) can1 211#12116206400000E6
(1539821181.658879) can1 212#120EB6FAF00020FC
(1539821181.659190) can1 213#12FFF80000000026
(1539821181.659947) can1 214#12FFF80000000027
(1539821181.660160) can1 215#12FFF80000000028
(1539821181.660880) can1 216#120F78056000405E
(1539821181.661130) can1 217#12FFF8000000002A
(1539821181.661950) can1 218#1202EA03C00000E3
(1539821181.662164) can1 219#120F500840FFF0CB
(1539821181.662950) can1 21A#120F9E02100000F5
(1539821181.663185) can1 21B#120A80FEA000005F
(1539821181.663939) can1 21C#120F34FDE0000860
(1539821181.664153) can1 21D#12057AFA60000012
(1539821181.664937) can1 21E#120E7AFAE00058F4
(1539821181.665130) can1 21F#12115C066000000E
(1539821181.665954) can1 220#12006400000404A8
(1539821181.666186) can1 221#1200000000060447
(1539821181.666880) can1 222#121632000004048E
(1539821181.667190) can1 223#120000000000003F
(1539821181.667947) can1 224#1200000000000040
(1539821181.668212) can1 225#1200000000000041
(1539821181.668905) can1 226#1218370000040499
(1539821181.669181) can1 227#1200000000000043
(1539821181.669859) can1 228#12FE6480C4E8
(1539821181.670074) can1 229#120800B24441
(1539821181.670935) can1 22A#120064B248A2
(1539821181.671088) can1 22B#120064A2448F
(1539821181.671879) can1 141#00000046
(1539821181.671995) can1 22C#120064C248B4
(1539821181.672299) can1 22D#120000A0C4AB
(1539821181.672902) can1 22E#12062FD24493
(1539821181.673091) can1 22F#120000B24843
(1539821181.673879) can1 123#0108090D40008A
(1539821181.674141) can1 230#127FFF151600F4
(1539821181.674950) can1 231#1201FFF00000023F
(1539821181.675130) can1 232#1200FE00FE00FE48
(1539821181.675950) can1 3D0#8980808080808064
(1539821181.676163) can1 3D1#8980808080808065
(1539821181.676940) can1 3D2#8980808080808066
(1539821181.677121) can1 3D3#8980808080808067
(1539821181.681781) can1 128#F40190830037
(1539821181.681928) can1 283#0000000000008C
(1539821181.692299) can1 141#00000046
(1539821181.692448) can1 344#0000010000000050
(1539821181.692712) can1 365#00000080FC0008
(1539821181.692879) can1 366#007207FF09FE00
(1539821181.702134) can1 160#0000081201319C51
(1539821181.702433) can1 161#001E0000008007
(1539821181.707872) can1 210#130A84FEA0000059
(1539821181.708131) can1 211#13116206400000E7
(1539821181.708871) can1 212#130E94FA40FFE0EA
(1539821181.709166) can1 213#13FFF80000000027
(1539821181.709941) can1 214#13FFF80000000028
(1539821181.710192) can1 215#13FFF80000000029
(1539821181.710926) can1 216#130F760540FFE0DC
(1539821181.711178) can1 217#13FFF8000000002B
(1539821181.711903) can1 218#1302EA03C00000E4
(1539821181.712150) can1 219#130F520840FFF8D6
(1539821181.712451) can1 141#00000046
(1539821181.712674) can1 128#F40190830037
(1539821181.712820) can1 283#0000000000008C
(1539821181.712915) can1 21A#130F7203200000DB
(1539821181.713348) can1 21B#130A80FEA0000060
(1539821181.713941) can1 21C#130F42FDE0000067
(1539821181.714188) can1 21D#130578FA60000011
(1539821181.714921) can1 21E#130E7AFAE0006805
(1539821181.715166) can1 21F#13116005E0000092
(1539821181.715871) can1 220#13006400000404A9
(1539821181.716131) can1 221#1300000000060448
(1539821181.716870) can1 222#13EA2B000004045C
(1539821181.717133) can1 223#1300000000000040
(1539821181.717944) can1 224#1300000000000041
(1539821181.718192) can1 225#1300000000000042
(1539821181.718926) can1 226#13DC2F0000040456
(1539821181.719169) can1 227#1300000000000044
(1539821181.719875) can1 228#13026470C4DD
(1539821181.720082) can1 229#13FE00B24438
(1539821181.720873) can1 22A#130064B248A3
(1539821181.721092) can1 22B#130064A24490
(1539821181.721886) can1 22C#130064C248B5
(1539821181.722086) can1 22D#130000A0C4AC
(1539821181.722872) can1 22E#130437D2449A
(1539821181.723064) can1 22F#130000B24844
(1539821181.723877) can1 230#137FFF151700F6
(1539821181.724169) can1 231#1301FFF000000240
(1539821181.724873) can1 232#1300FE00FE00FE49
(1539821181.732720) can1 141#00000046
(1539821181.742636) can1 128#F40190830037
(1539821181.742881) can1 283#0000000000008C
(1539821181.743090) can1 344#0000010000000050
(1539821181.753005) can1 141#00000046
(1539821181.757880) can1 210#140A84FEA000005A
(1539821181.758193) can1 211#14117006000000B6
(1539821181.758905) can1 212#140ECCFB20000025
(1539821181.759175) can1 213#14FFF80000000028
(1539821181.759954) can1 214#14FFF80000000029
(1539821181.760175) can1 215#14FFF8000000002A
(1539821181.760934) can1 216#140F760560FFE0FD
(1539821181.761200) can1 217#14FFF8000000002C
(1539821181.761907) can1 218#1402EC03C00000E7
(1539821181.762157) can1 219#140F4407E0000071
(1539821181.762950) can1 21A#140F6E03200008E0
(1539821181.763175) can1 21B#140A80FEA0000061
(1539821181.763936) can1 21C#140F4CFF00000094
(1539821181.764130) can1 21D#140578FA60000012
(1539821181.764935) can1 21E#140ED8F9E000302B
(1539821181.765185) can1 21F#14116205A0000055
(1539821181.765937) can1 220#14006400000404AA
(1539821181.766128) can1 221#1402000000040449
(1539821181.766881) can1 222#14102D0000040485
(1539821181.767190) can1 223#1400000000000041
(1539821181.767950) can1 224#1400000000000042
(1539821181.768164) can1 225#1400000000000043
(1539821181.768952) can1 226#1400280000060476
(1539821181.769180) can1 227#1400000000000045
(1539821181.769862) can1 228#14FC6470C4D8
(1539821181.770079) can1 229#140400B2443F
(1539821181.770914) can1 22A#140064B248A4
(1539821181.771064) can1 22B#140064A24491
(1539821181.771884) can1 22C#140064C248B6
(1539821181.772096) can1 22D#140000A0C4AD
(1539821181.772926) can1 22E#14F22FD0447F
(1539821181.773101) can1 22F#140000B24845
(1539821181.773367) can1 141#00000046
(1539821181.773635) can1 128#F40190830037
(1539821181.773831) can1 283#0000000000008C
(1539821181.774051) can1 123#0108090D40008A
(1539821181.774108) can1 160#0000081201319C51
(1539821181.774299) can1 161#001E0000008007
(1539821181.774356) can1 230#147FFF151800F8
(1539821181.775228) can1 231#1401FFF000000241
(1539821181.775441) can1 232#1400FE00FE00FE4A
(1539821181.775906) can1 3D0#8AF4FA13808080E6
(1539821181.776157) can1 3D1#8A80808080808066
(1539821181.776881) can1 3D2#8A80808080808067
(1539821181.777190) can1 3D3#8A80808080808068
(1539821181.793426) can1 141#00000046
(1539821181.793584) can1 344#0000010000000050
(1539821181.803487) can1 128#F40190830037
(1539821181.803684) can1 283#0000000000008C
(1539821181.807873) can1 210#150A84FEA000005B
(1539821181.808167) can1 211#151164066000000B
(1539821181.808942) can1 212#150EE2FB0000001C
(1539821181.809157) can1 213#15FFF80000000029
(1539821181.809941) can1 214#15FFF8000000002A
(1539821181.810189) can1 215#15FFF8000000002B
(1539821181.810926) can1 216#150F780480FFA0DF
(1539821181.811167) can1 217#15FFF8000000002D
(1539821181.811871) can1 218#1502EC03C00000E8
(1539821181.812140) can1 219#150F420700000090
(1539821181.812926) can1 21A#150F6E03200008E1
(1539821181.813167) can1 21B#150A80FEA0000062
(1539821181.813719) can1 141#00000046
(1539821181.813930) can1 21C#150F4CFF200008BD
(1539821181.814326) can1 21D#15057CFA60000017
(1539821181.814920) can1 21E#150F0AF90000206F
(1539821181.815170) can1 21F#15115C0660000011
(1539821181.815872) can1 220#15006400000404AB
(1539821181.816132) can1 221#150200000004044A
(1539821181.816872) can1 222#15FC35000004047A
(1539821181.817134) can1 223#1500000000000042
(1539821181.817952) can1 224#1500000000000043
(1539821181.818168) can1 225#1500000000000044
(1539821181.818872) can1 226#15EA220000040459
(1539821181.819183) can1 227#1500000000000046
(1539821181.819873) can1 228#15026470C4DF
(1539821181.820084) can1 229#150200B2443E
(1539821181.820874) can1 22A#150064B248A5
(1539821181.821084) can1 22B#150064A24492
(1539821181.821871) can1 22C#150064C248B7
(1539821181.822084) can1 22D#150000A0C4AE
(1539821181.822871) can1 22E#15F828D04883
(1539821181.823060) can1 22F#150000B24846
(1539821181.823872) can1 230#157FFF151900FA
(1539821181.824167) can1 231#1501FFF000000242
(1539821181.824872) can1 232#1500FE00FE00FE4B
(1539821181.834070) can1 141#00000046
(1539821181.834409) can1 128#F40190830037
(1539821181.834475) can1 283#0000000000008C
(1539821181.843920) can1 344#0000010000000050
(1539821181.844069) can1 160#0000081201319C51
(1539821181.844277) can1 161#001E0000008007
(1539821181.854313) can1 141#00000046
(1539821181.857881) can1 210#160A84FEA000005C
(1539821181.858145) can1 211#161162066000000A
(1539821181.858905) can1 212#160EECFAC00000E6
(1539821181.859188) can1 213#16FFF8000000002A
(1539821181.859907) can1 214#16FFF8000000002B
(1539821181.860176) can1 215#16FFF8000000002C
(1539821181.860904) can1 216#160F640440FFC0AC
(1539821181.861176) can1 217#16FFF8000000002E
(1539821181.861905) can1 218#1602EA03C00000E7
(1539821181.862175) can1 219#160F4206600000F0
(1539821181.862906) can1 21A#160F5C03A0000048
(1539821181.863137) can1 21B#160A80FEA0000063
(1539821181.863881) can1 21C#160F4CFF200008BE
(1539821181.864139) can1 21D#16057AFA400000F6
(1539821181.864405) can1 128#F40190830037
(1539821181.864673) can1 283#0000000000008C
(1539821181.864929) can1 21E#160F22F8C0000027
(1539821181.865388) can1 21F#16115C06400000F2
(1539821181.865902) can1 220#16006400000404AC
(1539821181.866176) can1 221#160000000006044B
(1539821181.866934) can1 222#16043C000004048A
(1539821181.867130) can1 223#1600000000000043
(1539821181.867936) can1 224#1600000000000044
(1539821181.868186) can1 225#1600000000000045
(1539821181.868938) can1 226#160E1D0000040479
(1539821181.869197) can1 227#1600000000000047
(1539821181.869907) can1 228#16006470C4DE
(1539821181.870055) can1 229#160200B24843
(1539821181.870885) can1 22A#160064B244A2
(1539821181.871074) can1 22B#160064A24493
(1539821181.871880) can1 22C#160064C248B8
(1539821181.872090) can1 22D#160000A0C4AF
(1539821181.872880) can1 22E#16FA22D04880
(1539821181.873093) can1 22F#160000B24847
(1539821181.873881) can1 123#0108090D40008A
(1539821181.874109) can1 230#167FFF151A00FC
(1539821181.874445) can1 141#00000046
(1539821181.874906) can1 231#1601FFF000000243
(1539821181.875176) can1 232#1600FE00FE00FE4C
(1539821181.875925) can1 3D0#8BFDFE1D808080FE
(1539821181.876198) can1 3D1#8B80808080808067
(1539821181.876906) can1 3D2#8B80808080808068
(1539821181.877157) can1 3D3#8B80808080808069
(1539821181.894807) can1 141#00000046
(1539821181.895101) can1 128#F40190830037
(1539821181.895373) can1 283#0000000000008C
(1539821181.895503) can1 344#0000010000000050
(1539821181.895722) can1 365#00000080FC0008
(1539821181.895938) can1 366#007207FF09FE00
(1539821181.896121) can1 4CB#0C00000000000000
(1539821181.907874) can1 210#170A84FEA000005D
(1539821181.908132) can1 211#17116A06400000F3
(1539821181.908871) can1 212#170ED2FB6000006E
(1539821181.909182) can1 213#17FFF8000000002B
(1539821181.909902) can1 214#17FFF8000000002C
(1539821181.910192) can1 215#17FFF8000000002D
(1539821181.910943) can1 216#170F600440FFC0A9
(1539821181.911188) can1 217#17FFF8000000002F
(1539821181.911922) can1 218#1702EA03C00000E8
(1539821181.912167) can1 219#170EEC072000005B
(1539821181.912872) can1 21A#170F5A03A000084F
(1539821181.913170) can1 21B#170A80FEA0000064
(1539821181.913872) can1 21C#170F02FE800000CC
(1539821181.914134) can1 21D#17057AFA400000F7
(1539821181.914874) can1 21E#170EE2F8E0000007
(1539821181.914995) can1 141#00000046
(1539821181.915160) can1 21F#17115E06000000B5
(1539821181.915328) can1 160#0000081201319C51
(1539821181.915410) can1 161#001E0000008007
(1539821181.915996) can1 220#17006400000404AD
(1539821181.916275) can1 221#17FE000000040448
(1539821181.916871) can1 222#17FE42000004048B
(1539821181.917182) can1 223#1700000000000044
(1539821181.917942) can1 224#1700000000000045
(1539821181.918207) can1 225#1700000000000046
(1539821181.918933) can1 226#17FC180000060465
(1539821181.919172) can1 227#1700000000000048
(1539821181.919874) can1 228#17FE6470C4DD
(1539821181.920081) can1 229#170000B04840
(1539821181.920873) can1 22A#170064B244A3
(1539821181.921084) can1 22B#170064A24494
(1539821181.921876) can1 22C#170064D248C9
(1539821181.922071) can1 22D#170000A0C4B0
(1539821181.922872) can1 22E#17FC1CD04479
(1539821181.923093) can1 22F#170000B24848
(1539821181.923873) can1 230#177FFF151B00FE
(1539821181.924132) can1 231#1701FFF000000244
(1539821181.924873) can1 232#1700FE00FE00FE4D
(1539821181.925093) can1 128#F40190830037
(1539821181.925359) can1 283#0000000000008C
(1539821181.935301) can1 141#00000046
(1539821181.945428) can1 344#0000010000000050
(1539821181.955679) can1 141#00000046
(1539821181.955995) can1 128#F40190830037
(1539821181.956173) can1 283#0000000000008C
(1539821181.957925) can1 210#180A84FEA000005E
(1539821181.958168) can1 211#18116606200000D0
(1539821181.958872) can1 212#180ECEFB6000006B
(1539821181.959204) can1 213#18FFF8000000002C
(1539821181.959904) can1 214#18FFF8000000002D
(1539821181.960122) can1 215#18FFF8000000002E
(1539821181.960929) can1 216#180F600440FFC0AA
(1539821181.961165) can1 217#18FFF80000000030
(1539821181.961942) can1 218#1802E803C00000E7
(1539821181.962122) can1 219#1803D40610000028
(1539821181.962925) can1 21A#180F540380000022
(1539821181.963178) can1 21B#180A80FEA0000065
(1539821181.963932) can1 21C#180EFAFEA00008EC
(1539821181.964173) can1 21D#18057AFA400000F8
(1539821181.964933) can1 21E#180F12F9C000001A
(1539821181.965172) can1 21F#18116005E0000097
(1539821181.965940) can1 220#18006400000404AE
(1539821181.966125) can1 221#180200000004044D
(1539821181.966873) can1 222#1802470000060497
(1539821181.967133) can1 223#1800000000000045
(1539821181.967943) can1 224#1800000000000046
(1539821181.968189) can1 225#1800000000000047
(1539821181.968924) can1 226#1800150000060467
(1539821181.969171) can1 227#1800000000000049
(1539821181.969872) can1 228#18026470C4E2
(1539821181.970092) can1 229#18000094C4A1
(1539821181.970866) can1 22A#180064B244A4
(1539821181.971072) can1 22B#180064A24495
(1539821181.971873) can1 22C#180064D248CA
(1539821181.972064) can1 22D#180000A0C4B1
(1539821181.972876) can1 22E#18FE18D0487C
(1539821181.973067) can1 22F#180000B24849
(1539821181.973877) can1 123#0108090D40008A
(1539821181.974138) can1 230#187FFF151C0000
(1539821181.974926) can1 231#1801FFF000000245
(1539821181.975187) can1 232#1800FE00FE00FE4E
(1539821181.975945) can1 3D0#8CFDFF2080808003
(1539821181.976020) can1 141#00000046
(1539821181.976177) can1 3D1#8C80808080808068
(1539821181.976943) can1 3D2#8C80808080808069
(1539821181.977123) can1 3D3#8C8080808080806A
(1539821181.985928) can1 128#F40190830037
(1539821181.986179) can1 283#0000000000008C
(1539821181.986430) can1 160#0000081201319C51
(1539821181.986642) can1 161#001E0000008007
(1539821181.996141) can1 141#00000046
(1539821181.996382) can1 344#0000010000000050
(1539821182.007887) can1 210#190A84FEA000005F
(1539821182.008141) can1 211#19116606200000D1
(1539821182.008935) can1 212#190ED6FBE0005044
(1539821182.009132) can1 213#19FFF8000000002D
(1539821182.009938) can1 214#19FFF8000000002E
(1539821182.010131) can1 215#19FFF8000000002F
(1539821182.010905) can1 216#190F4E04C0FFE039
(1539821182.011180) can1 217#19FFF80000000031
(1539821182.011910) can1 218#1902EA03C00000EA
(1539821182.012159) can1 219#1903D205E00000F6
(1539821182.012881) can1 21A#190F520380000829
(1539821182.013144) can1 21B#190A80FEA0000066
(1539821182.013882) can1 21C#190F28FF20000095
(1539821182.014140) can1 21D#19057AFA60000019
(1539821182.014881) can1 21E#190F16F9C0FFF816
(1539821182.015141) can1 21F#19115E06200000D7
(1539821182.015881) can1 220#19006400000404AF
(1539821182.016158) can1 221#190000000006044E
(1539821182.016576) can1 141#00000046
(1539821182.016749) can1 128#F40190830037
(1539821182.016923) can1 283#0000000000008C
(1539821182.017186) can1 222#19164C00000404AF
(1539821182.017688) can1 223#1900000000000046
(1539821182.017951) can1 224#1900000000000047
(1539821182.018165) can1 225#1900000000000048
(1539821182.018937) can1 226#190C12000004046F
(1539821182.019131) can1 227#190000000000004A
(1539821182.019889) can1 228#19FE6470C4DF
(1539821182.020098) can1 229#19000090C49E
(1539821182.020884) can1 22A#190064B244A5
(1539821182.021094) can1 22B#190064A24496
(1539821182.021882) can1 22C#190064D248CB
(1539821182.022092) can1 22D#190000A0C4B2
(1539821182.022874) can1 22E#19FC14D04877
(1539821182.023069) can1 22F#190000B2484A
(1539821182.023876) can1 230#197FFF151D0002
(1539821182.024121) can1 231#1901FFF000000246
(1539821182.024873) can1 232#1900FE00FE00FE4F
(1539821182.036622) can1 141#00000046
(1539821182.046614) can1 128#F40190830037
(1539821182.046807) can1 283#0000000000008C
(1539821182.046952) can1 344#0000010000000050
(1539821182.056991) can1 141#00000046
(1539821182.057300) can1 160#0000081201319C51
(1539821182.057459) can1 161#001E0000008007
(1539821182.057928) can1 210#1A0A84FEA0000060
(1539821182.058190) can1 211#1A116206200000CE
(1539821182.058943) can1 212#1A0EC4FC00002024
(1539821182.059199) can1 213#1AFFF8000000002E
(1539821182.059908) can1 214#1AFFF8000000002F
(1539821182.060177) can1 215#1AFFF80000000030
(1539821182.060908) can1 216#1A0F4C04C0FFE038
(1539821182.061178) can1 217#1AFFF80000000032
(1539821182.061908) can1 218#1A02EA03C00000EB
(1539821182.062177) can1 219#1A03DC05C00000E1
(1539821182.062920) can1 21A#1A0F52038000082A
(1539821182.063162) can1 21B#1A0A80FEA0000067
(1539821182.063883) can1 21C#1A0F2CFF200008A2
(1539821182.064141) can1 21D#1A057AFA6000001A
(1539821182.064882) can1 21E#1A0EBCFA80000086
(1539821182.065144) can1 21F#1A115E06200000D8
(1539821182.065886) can1 220#1A006400000404B0
(1539821182.066193) can1 221#1A0000000004044D
(1539821182.066883) can1 222#1AF24F000004048F
(1539821182.067142) can1 223#1A00000000000047
(1539821182.067936) can1 224#1A00000000000048
(1539821182.068202) can1 225#1A00000000000049
(1539821182.068910) can1 226#1A020F0000060465
(1539821182.069178) can1 227#1A0000000000004B
(1539821182.069860) can1 228#1A026470C4E4
(1539821182.070076) can1 229#1A000090C49F
(1539821182.070868) can1 22A#1A0064B244A6
(1539821182.071081) can1 22B#1A0064A24497
(1539821182.071882) can1 22C#1A0064D248CC
(1539821182.072094) can1 22D#1A0000A0C4B3
(1539821182.072883) can1 22E#1A0411D2447B
(1539821182.073083) can1 22F#1A0000B2484B
(1539821182.073873) can1 123#0108090D40008A
(1539821182.074113) can1 230#1A7FFF151E0004
(1539821182.074926) can1 231#1A01FFF000000247
(1539821182.075168) can1 232#1A00FE00FE00FE50
(1539821182.075952) can1 3D0#8DF4FC1C808080F4
(1539821182.076131) can1 3D1#8D80808080808069
(1539821182.076938) can1 3D2#8D8080808080806A
(1539821182.077191) can1 3D3#8D8080808080806B
(1539821182.077335) can1 141#00000046
(1539821182.077385) can1 128#F40190830037
(1539821182.077494) can1 283#0000000000008C
(1539821182.097373) can1 141#00000046
(1539821182.097594) can1 344#0000010000000050
(1539821182.097735) can1 365#00000080FC0008
(1539821182.097871) can1 366#007207FF09FE00
(1539821182.107385) can1 128#F40190830037
(1539821182.107483) can1 283#0000000000008C
(1539821182.108043) can1 210#1B0A84FEA0000061
(1539821182.108289) can1 211#1B116406200000D1
(1539821182.108933) can1 212#1B0EE6FCC00010F7
(1539821182.109173) can1 213#1BFFF8000000002F
(1539821182.109872) can1 214#1BFFF80000000030
(1539821182.110185) can1 215#1BFFF80000000031
(1539821182.110894) can1 216#1B0F4C04C0FFE039
(1539821182.111122) can1 217#1BFFF80000000033
(1539821182.111943) can1 218#1B02EC03C00000EE
(1539821182.112122) can1 219#1B03E205800000A8
(1539821182.112926) can1 21A#1B0F52038000082B
(1539821182.113168) can1 21B#1B0A80FEA0000068
(1539821182.113872) can1 21C#1B0F40FF8000000F
(1539821182.114185) can1 21D#1B057CFA400000FD
(1539821182.114895) can1 21E#1B0EB2FA80000885
(1539821182.115123) can1 21F#1B115E06200000D9
(1539821182.115926) can1 220#1B006400000404B1
(1539821182.116169) can1 221#1B0000000004044E
(1539821182.116872) can1 222#1BFA52000004049B
(1539821182.117144) can1 223#1B00000000000048
(1539821182.117420) can1 141#00000046
(1539821182.117943) can1 224#1B00000000000049
(1539821182.118192) can1 225#1B0000000000004A
(1539821182.118940) can1 226#1B000D0000060462
(1539821182.119189) can1 227#1B0000000000004C
(1539821182.119872) can1 228#1B006470C4E3
(1539821182.120070) can1 229#1B0000B0C4C0
(1539821182.120879) can1 22A#1B0064B244A7
(1539821182.121068) can1 22B#1B0064A24498
(1539821182.121880) can1 22C#1B0064D248CD
(1539821182.122069) can1 22D#1B0000A0C4B4
(1539821182.122876) can1 22E#1BFE0ED24473
(1539821182.123068) can1 22F#1B0000B2484C
(1539821182.123879) can1 230#1B7FFF151F0006
(1539821182.124121) can1 231#1B01FFF000000248
(1539821182.124872) can1 232#1B00FE00FE00FE51
(1539821182.127469) can1 160#0000081201319C51
(1539821182.127747) can1 161#001E0000008007
(1539821182.137822) can1 141#00000046
(1539821182.137971) can1 128#F40190830037
(1539821182.138145) can1 283#0000000000008C
(1539821182.147897) can1 344#0000010000000050
(1539821182.157944) can1 210#1C0A84FEA0000062
(1539821182.157998) can1 141#00000046
(1539821182.158123) can1 211#1C116406000000B2
(1539821182.158926) can1 212#1C0EEAFCC00000EC
(1539821182.159168) can1 213#1CFFF80000000030
(1539821182.159873) can1 214#1CFFF80000000031
(1539821182.160183) can1 215#1CFFF80000000032
(1539821182.160875) can1 216#1C0F4C04C0FFE03A
(1539821182.161169) can1 217#1CFFF80000000034
(1539821182.161876) can1 218#1C02EC03C00008F7
(1539821182.162169) can1 219#1C0F300790000015
(1539821182.162883) can1 21A#1C0F5003400000E2
(1539821182.163133) can1 21B#1C0A80FEA0000069
(1539821182.163873) can1 21C#1C0F42FFA000083A
(1539821182.164133) can1 21D#1C057CFA400000FE
(1539821182.164873) can1 21E#1C0E84FA40000010
(1539821182.165183) can1 21F#1C116006000000BC
(1539821182.165873) can1 220#1C006400000404B2
(1539821182.166181) can1 221#1C0000000004044F
(1539821182.166877) can1 222#1CFA5500000604A1
(1539821182.167136) can1 223#1C00000000000049
(1539821182.167947) can1 224#1C0000000000004A
(1539821182.168225) can1 225#1C0000000000004B
(1539821182.168281) can1 128#F40190830037
(1539821182.168557) can1 283#0000000000008C
(1539821182.169048) can1 226#1C000B0000060461
(1539821182.169293) can1 227#1C0000000000004D
(1539821182.169873) can1 228#1C006470C8E8
(1539821182.170085) can1 229#1C0000A24837
(1539821182.170882) can1 22A#1C0064B244A8
(1539821182.171097) can1 22B#1C0064A24499
(1539821182.171866) can1 22C#1C0064D248CE
(1539821182.172081) can1 22D#1C0000A0C4B5
(1539821182.172885) can1 22E#1C020CD24476
(1539821182.173085) can1 22F#1C0000B24449
(1539821182.173882) can1 123#0108090D40008A
(1539821182.174144) can1 230#1C7FFF15200008
(1539821182.174882) can1 231#1C01FFF000000249
(1539821182.175192) can1 232#1C00FE00FE00FE52
(1539821182.175928) can1 3D0#8E80808080808069
(1539821182.176190) can1 3D1#8E8080808080806A
(1539821182.176960) can1 3D2#8E8080808080806B
(1539821182.177177) can1 3D3#8E8080808080806C
(1539821182.178384) can1 141#00000046
(1539821182.198705) can1 141#00000046
(1539821182.199007) can1 128#F40190830037
(1539821182.199286) can1 283#0000000000008C
(1539821182.199480) can1 344#0000010000000050
(1539821182.199731) can1 160#0000081201319C51
(1539821182.199883) can1 161#001E0000008007
(1539821182.207887) can1 210#1D0A84FEA0000063
(1539821182.208143) can1 211#1D116206000000B1
(1539821182.208955) can1 212#1D0EB6FC000000F9
(1539821182.209174) can1 213#1DFFF80000000031
(1539821182.209974) can1 214#1DFFF80000000032
(1539821182.210203) can1 215#1DFFF80000000033
(1539821182.210928) can1 216#1D0F4C04C0FFE03B
(1539821182.211189) can1 217#1DFFF80000000035
(1539821182.211954) can1 218#1D02EE03C00000F2
(1539821182.212168) can1 219#1D0F30078000080E
(1539821182.212883) can1 21A#1D0F4C03C000005F
(1539821182.213145) can1 21B#1D0A80FEA000006A
(1539821182.213938) can1 21C#1D0F42FFA000083B
(1539821182.214133) can1 21D#1D057CFA6000001F
(1539821182.214936) can1 21E#1D0E80FA40000815
(1539821182.215132) can1 21F#1D116005E000009C
(1539821182.215905) can1 220#1D006400000404B3
(1539821182.216177) can1 221#1D00000000040450
(1539821182.216928) can1 222#1DFE5100000404A0
(1539821182.217132) can1 223#1D0000000000004A
(1539821182.217936) can1 224#1D0000000000004B
(1539821182.218203) can1 225#1D0000000000004C
(1539821182.218848) can1 141#00000046
(1539821182.218971) can1 226#1D00090000060460
(1539821182.219351) can1 227#1D0000000000004E
(1539821182.219882) can1 228#1D006470C8E9
(1539821182.220092) can1 229#1D0000A24838
(1539821182.220884) can1 22A#1D0064B244A9
(1539821182.221092) can1 22B#1D0064A2449A
(1539821182.221885) can1 22C#1D0064D248CF
(1539821182.222094) can1 22D#1D0000A0C4B6
(1539821182.222871) can1 22E#1D000AD24473
(1539821182.223074) can1 22F#1D0000B2444A
(1539821182.223883) can1 230#1D7FFF1521000A
(1539821182.224143) can1 231#1D01FFF00000024A
(1539821182.224883) can1 232#1D00FE00FE00FE53
(1539821182.228941) can1 128#F40190830037
(1539821182.229080) can1 283#0000000000008C
(1539821182.239303) can1 141#00000046
(1539821182.249303) can1 344#0000010000000050
(1539821182.257882) can1 210#1E0A84FEA0000064
(1539821182.258186) can1 211#1E116006000000B0
(1539821182.258896) can1 212#1E0EB0FC01FFF0E4
(1539821182.259160) can1 213#1EFFF80000000032
(1539821182.259381) can1 141#00000046
(1539821182.259551) can1 128#F40190830037
(1539821182.259682) can1 283#0000000000008C
(1539821182.260005) can1 214#1EFFF80000000033
(1539821182.260485) can1 215#1EFFF80000000034
(1539821182.260954) can1 216#1E0F4405400000D6
(1539821182.261169) can1 217#1EFFF80000000036
(1539821182.261887) can1 218#1E02EC03C00000F1
(1539821182.262194) can1 219#1E0F3407600000EB
(1539821182.262905) can1 21A#1E0F4C03E0000888
(1539821182.263178) can1 21B#1E0A80FEA000006B
(1539821182.263906) can1 21C#1E0F42FFA000083C
(1539821182.264178) can1 21D#1E057CFA60000020
(1539821182.264937) can1 21E#1E0E6EFA400000FC
(1539821182.265133) can1 21F#1E11640540000001
(1539821182.265938) can1 220#1E006400000404B4
(1539821182.266133) can1 221#1E00000000060453
(1539821182.266938) can1 222#1EFC4E000006049E
(1539821182.267134) can1 223#1E0000000000004B
(1539821182.267938) can1 224#1E0000000000004C
(1539821182.268203) can1 225#1E0000000000004D
(1539821182.268925) can1 226#1E06080000040464
(1539821182.269178) can1 227#1E0000000000004F
(1539821182.269586) can1 160#0000081201319C51
(1539821182.269803) can1 161#001E0000008007
(1539821182.270292) can1 228#1E006470C8EA
(1539821182.270455) can1 229#1E0000A24839
(1539821182.270928) can1 22A#1E0064B244AA
(1539821182.271082) can1 22B#1E0064A2449B
(1539821182.271881) can1 22C#1E0064D248D0
(1539821182.272091) can1 22D#1E0000A0C4B7
(1539821182.272882) can1 22E#1E0209D24475
(1539821182.273095) can1 22F#1E0000B2444B
(1539821182.273882) can1 123#0108090D40008A
(1539821182.274144) can1 230#1E7FFF1522000C
(1539821182.274954) can1 231#1E01FFF00000024B
(1539821182.275133) can1 232#1E00FE00FE00FE54
(1539821182.275937) can1 3D0#8FF4FA1D808080F5
(1539821182.276188) can1 3D1#8F8080808080806B
(1539821182.276942) can1 3D2#8F8080808080806C
(1539821182.277156) can1 3D3#8F8080808080806D
(1539821182.279682) can1 141#00000046
(1539821182.289760) can1 128#F40190830037
(1539821182.289921) can1 283#0000000000008C
(1539821182.300082) can1 141#00000046
(1539821182.300293) can1 344#0000010000000050
(1539821182.300442) can1 365#00000080FC0008
(1539821182.300580) can1 366#007207FF09FE00
(1539821182.307958) can1 210#1F0A84FEA0000065
(1539821182.308160) can1 211#1F116006000000B1
(1539821182.308908) can1 212#1F0F00FC20000066
(1539821182.309178) can1 213#1FFFF80000000033
(1539821182.309911) can1 214#1FFFF80000000034
(1539821182.310179) can1 215#1FFFF80000000035
(1539821182.310928) can1 216#1F0F3E05A0000031
(1539821182.311200) can1 217#1FFFF80000000037
(1539821182.311930) can1 218#1F02EE03C00000F4
(1539821182.312200) can1 219#1F0F3607400000CE
(1539821182.312907) can1 21A#1F0F4C03E0000889
(1539821182.313178) can1 21B#1F0A80FEC000008C
(1539821182.313914) can1 21C#1F0F48FE8000001A
(1539821182.314178) can1 21D#1F057CFA40000001
(1539821182.314936) can1 21E#1F0E6CFA40000803
(1539821182.315132) can1 21F#1F116605000000C4
(1539821182.315949) can1 220#1F006400000404B5
(1539821182.316161) can1 221#1F00000000060454
(1539821182.316882) can1 222#1F044B00000404A2
(1539821182.317145) can1 223#1F0000000000004C
(1539821182.317953) can1 224#1F0000000000004D
(1539821182.318203) can1 225#1F0000000000004E
(1539821182.318909) can1 226#1F02070000040460
(1539821182.319159) can1 227#1F00000000000050
(1539821182.319883) can1 228#1F006470C8EB
(1539821182.320094) can1 229#1F0000A24436
(1539821182.320418) can1 141#00000046
(1539821182.320497) can1 128#F40190830037
(1539821182.320613) can1 283#0000000000008C
(1539821182.320978) can1 22A#1F0064B248AF
(1539821182.321383) can1 22B#1F0064A2449C
(1539821182.321895) can1 22C#1F0064D248D1
(1539821182.322108) can1 22D#1F0000A0C4B8
(1539821182.322893) can1 22E#1F0008D24473
(1539821182.323106) can1 22F#1F000FB2445B
(1539821182.323885) can1 230#1F7FFF1523000E
(1539821182.324142) can1 231#1F01FFF00000024C
(1539821182.324937) can1 232#1F00FE00FE00FE55
(1539821182.340610) can1 141#00000046
(1539821182.340806) can1 160#0000081201319C51
(1539821182.340919) can1 161#001E0000008007
(1539821182.350784) can1 128#F40190830037
(1539821182.351031) can1 283#0000000000008C
(1539821182.351286) can1 344#0000010000000050
(1539821182.357883) can1 210#200A84FEA0000066
(1539821182.358208) can1 211#20116006000000B2
(1539821182.358908) can1 212#200EDCFC00000022
(1539821182.359157) can1 213#20FFF80000000034
(1539821182.359940) can1 214#20FFF80000000035
(1539821182.360133) can1 215#20FFF80000000036
(1539821182.360833) can1 141#00000046
(1539821182.360936) can1 216#200F4A064000401F
(1539821182.361347) can1 217#20FFF80000000038
(1539821182.361914) can1 218#2002EE03C00000F5
(1539821182.362180) can1 219#2003D405900000AF
(1539821182.362929) can1 21A#200F4C03E000088A
(1539821182.363141) can1 21B#200A80FEA000006D
(1539821182.363937) can1 21C#200F4AFDC000005C
(1539821182.364133) can1 21D#20057AFA40000000
(1539821182.364938) can1 21E#200E1CFB800000ED
(1539821182.365133) can1 21F#20116604C0000084
(1539821182.365939) can1 220#20006400000404B6
(1539821182.366134) can1 221#2000000000060455
(1539821182.366952) can1 222#200249000004049F
(1539821182.367167) can1 223#200000000000004D
(1539821182.367984) can1 224#200000000000004E
(1539821182.368215) can1 225#200000000000004F
(1539821182.368952) can1 226#201A060000040478
(1539821182.369208) can1 227#2000000000000051
(1539821182.369908) can1 228#20006470C8EC
(1539821182.370079) can1 229#200000B0C4C5
(1539821182.370905) can1 22A#200064B248B0
(1539821182.371104) can1 22B#200064A2449D
(1539821182.371914) can1 22C#200064D048D0
(1539821182.372075) can1 22D#200000A0C4B9
(1539821182.372882) can1 22E#200016D04480
(1539821182.373096) can1 22F#20001CB24469
(1539821182.373883) can1 123#0108090D40008A
(1539821182.374143) can1 230#207FFF15240010
(1539821182.374937) can1 231#2001FFF00000024D
(1539821182.375203) can1 232#2000FE00FE00FE56
(1539821182.375910) can1 3D0#90F5F71B808080F2
(1539821182.376179) can1 3D1#908080808080806C
(1539821182.376908) can1 3D2#908080808080806D
(1539821182.377181) can1 3D3#908080808080806E
(1539821182.381283) can1 141#00000046
(1539821182.384176) can1 128#F40190830037
(1539821182.384391) can1 283#0000000000008C
(1539821182.401421) can1 141#00000046
(1539821182.401670) can1 344#0000010000000050
(1539821182.407875) can1 210#210A84FEA0000067
(1539821182.408146) can1 211#21116006000000B3
(1539821182.408886) can1 212#210EE8FBC00000EE
(1539821182.409144) can1 213#21FFF80000000035
(1539821182.409941) can1 214#21FFF80000000036
(1539821182.410134) can1 215#21FFF80000000037
(1539821182.410908) can1 216#210F44066000201A
(1539821182.411222) can1 217#21FFF80000000039
(1539821182.411633) can1 128#F40190830037
(1539821182.411780) can1 283#0000000000008C
(1539821182.411936) can1 160#0000081201319C51
(1539821182.412070) can1 218#2102F003C00000F8
(1539821182.412133) can1 161#001E0000008007
(1539821182.413007) can1 219#2103CC05C00000D8
(1539821182.413288) can1 21B#210A80FEA000006E
(1539821182.413507) can1 21A#210F4C03E000088B
(1539821182.413911) can1 21C#210F4AFDC0000865
(1539821182.414179) can1 21D#210578FA6000001F
(1539821182.414909) can1 21E#210DF2FC40000084
(1539821182.415157) can1 21F#21116604C0000085
(1539821182.415883) can1 220#21006400000404B7
(1539821182.416143) can1 221#2100000000060456
(1539821182.416897) can1 222#210047000004049C
(1539821182.417124) can1 223#210000000000004E
(1539821182.417928) can1 224#210000000000004F
(1539821182.418170) can1 225#2100000000000050
(1539821182.418945) can1 226#21F4050000040452
(1539821182.419191) can1 227#2100000000000052
(1539821182.419876) can1 228#21006470C8ED
(1539821182.420069) can1 229#210000A0C4B6
(1539821182.420879) can1 22A#210064B248B1
(1539821182.421069) can1 22B#210064A2449E
(1539821182.421567) can1 141#00000046
(1539821182.421968) can1 22C#210064D048D1
(1539821182.422171) can1 22D#210000A0C4BA
(1539821182.422875) can1 22E#210023D0448E
(1539821182.423083) can1 22F#210028B24476
(1539821182.423891) can1 230#217FFF15250012
(1539821182.424137) can1 231#2101FFF00000024E
(1539821182.424886) can1 232#2100FE00FE00FE57
(1539821182.442185) can1 141#00000046
(1539821182.442356) can1 128#F40190830037
(1539821182.442461) can1 283#0000000000008C
(1539821182.452096) can1 344#0000010000000050
(1539821182.457885) can1 210#220A84FEA0000068
(1539821182.458192) can1 211#22116006000000B4
(1539821182.458944) can1 212#220EE8FBC00000EF
(1539821182.459157) can1 213#22FFF80000000036
(1539821182.459938) can1 214#22FFF80000000037
(1539821182.460133) can1 215#22FFF80000000038
(1539821182.460939) can1 216#220F6006E00020B7
(1539821182.461209) can1 217#22FFF8000000003A
(1539821182.461915) can1 218#2202EC03C00000F5
(1539821182.462181) can1 219#2203D005C00000DD
(1539821182.462907) can1 21A#220F4C03E000088C
(1539821182.463156) can1 21B#220A80FEA000006F
(1539821182.463469) can1 141#00000046
(1539821182.463911) can1 21C#220F76FF000000CC
(1539821182.464160) can1 21D#22057AFA60000022
(1539821182.464885) can1 21E#220DEEFC600008A9
(1539821182.465144) can1 21F#22116404E00000A4
(1539821182.465909) can1 220#22006400000404B8
(1539821182.466158) can1 221#2200000000060457
(1539821182.466938) can1 222#220045000006049D
(1539821182.467188) can1 223#220000000000004F
(1539821182.467941) can1 224#2200000000000050
(1539821182.468200) can1 225#2200000000000051
(1539821182.468912) can1 226#22FE04000004045C
(1539821182.469181) can1 227#2200000000000053
(1539821182.469862) can1 228#22FE6470C8EC
(1539821182.470065) can1 229#220000A2C4B9
(1539821182.470906) can1 22A#220064B248B2
(1539821182.471078) can1 22B#220064A2449F
(1539821182.471906) can1 22C#220064D248D4
(1539821182.472076) can1 22D#220000A0C4BB
(1539821182.472598) can1 128#F40190830037
(1539821182.472833) can1 283#0000000000008C
(1539821182.472950) can1 22E#22002DD0489D
(1539821182.473384) can1 22F#220031B24480
(1539821182.473888) can1 123#0108090D40008A
(1539821182.474100) can1 230#227FFF15260014
(1539821182.474883) can1 231#2201FFF00000024F
(1539821182.475143) can1 232#2200FE00FE00FE58
(1539821182.475908) can1 3D0#91F4F71A808080F1
(1539821182.476179) can1 3D1#918080808080806D
(1539821182.476914) can1 3D2#918080808080806E
(1539821182.477179) can1 3D3#918080808080806F
(1539821182.485203) can1 141#00000046
(1539821182.485407) can1 160#0000081201319C51
(1539821182.485640) can1 161#001E0000008007
(1539821182.502783) can1 141#00000046
(1539821182.502979) can1 128#F40190830037
(1539821182.503132) can1 283#0000000000008C
(1539821182.503284) can1 344#0000010000000050
(1539821182.503428) can1 365#00000080FC0008
(1539821182.503551) can1 366#007207FF09FE00
(1539821182.507885) can1 210#230A84FEA0000069
(1539821182.508144) can1 211#23116006000000B5
(1539821182.508940) can1 212#230EE8FBC00000F0
(1539821182.509134) can1 213#23FFF80000000037
(1539821182.509941) can1 214#23FFF80000000038
(1539821182.510204) can1 215#23FFF80000000039
(1539821182.510931) can1 216#230F5406C000006C
(1539821182.511201) can1 217#23FFF8000000003B
(1539821182.511929) can1 218#2302EE03C00000F8
(1539821182.512143) can1 219#2303CE05C00000DC
(1539821182.512884) can1 21A#230F7403C000008D
(1539821182.513146) can1 21B#230A80FEA0000070
(1539821182.513884) can1 21C#230F7AFF000008D9
(1539821182.514146) can1 21D#23057AFA60000023
(1539821182.514884) can1 21E#230E28FC2000009D
(1539821182.515144) can1 21F#2311620540000004
(1539821182.515938) can1 220#23006400000404B9
(1539821182.516134) can1 221#2300000000060458
(1539821182.516939) can1 222#230044000006049D
(1539821182.517139) can1 223#2300000000000050
(1539821182.517968) can1 224#2300000000000051
(1539821182.518180) can1 225#2300000000000052
(1539821182.518938) can1 226#23FA030000040458
(1539821182.519168) can1 227#2300000000000054
(1539821182.519892) can1 228#23006470C8EF
(1539821182.520055) can1 229#230000A0C4B8
(1539821182.520885) can1 22A#230064B248B3
(1539821182.521095) can1 22B#230064A244A0
(1539821182.521884) can1 22C#230064D248D5
(1539821182.522094) can1 22D#230000A0C8C0
(1539821182.522907) can1 22E#230035D244A4
(1539821182.523077) can1 22F#23002AB2447A
(1539821182.523887) can1 230#237FFF15270016
(1539821182.524144) can1 231#2301FFF000000250
(1539821182.524932) can1 232#2300FE00FE00FE59
(1539821182.526132) can1 141#00000046
(1539821182.533303) can1 128#F40190830037
(1539821182.533436) can1 283#0000000000008C
(1539821182.543407) can1 141#00000046
(1539821182.553611) can1 344#0000010000000050
(1539821182.553782) can1 160#0000081201319C51
(1539821182.553932) can1 161#001E0000008007
(1539821182.557884) can1 210#240A84FEA000006A
(1539821182.558145) can1 211#24116206200000D8
(1539821182.558884) can1 212#240EE8FBC00000F1
(1539821182.559143) can1 213#24FFF80000000038
(1539821182.559884) can1 214#24FFF80000000039
(1539821182.560194) can1 215#24FFF8000000003A
(1539821182.560951) can1 216#240F5406C000006D
(1539821182.561204) can1 217#24FFF8000000003C
(1539821182.561912) can1 218#2402EE03C0FFF0E8
(1539821182.562162) can1 219#2403CE05A00008C5
(1539821182.562912) can1 21A#240F8803E00000C2
(1539821182.563179) can1 21B#240A80FEC0000091
(1539821182.563913) can1 21C#240F7AFF000008DA
(1539821182.564180) can1 21D#240578FA60000022
(1539821182.564842) can1 141#00000046
(1539821182.564952) can1 21E#240E38FCC0FFC00D
(1539821182.565127) can1 128#F40190830037
(1539821182.565349) can1 21F#24115E05E00000A1
(1539821182.565405) can1 283#0000000000008C
(1539821182.566013) can1 220#24006400000404BA
(1539821182.566226) can1 221#240400000004045B
(1539821182.566940) can1 222#240043000006049D
(1539821182.567133) can1 223#2400000000000051
(1539821182.567954) can1 224#2400000000000052
(1539821182.568204) can1 225#2400000000000053
(1539821182.568913) can1 226#2400030000060461
(1539821182.569179) can1 227#2400000000000055
(1539821182.569863) can1 228#24FE6470C8EE
(1539821182.570076) can1 229#240000A0C4B9
(1539821182.570906) can1 22A#240064B248B4
(1539821182.571076) can1 22B#240064A244A1
(1539821182.571908) can1 22C#240064D248D6
(1539821182.572108) can1 22D#240000A0C8C1
(1539821182.572884) can1 22E#24EA3CD04898
(1539821182.573097) can1 22F#240024B24475
(1539821182.573884) can1 123#0108090D40008A
(1539821182.574146) can1 230#247FFF15280018
(1539821182.574955) can1 231#2401FFF000000251
(1539821182.575134) can1 232#2400FE00FE00FE5A
(1539821182.575939) can1 3D0#92F4F713808080EB
(1539821182.576138) can1 3D1#928080808080806E
(1539821182.576954) can1 3D2#928080808080806F
(1539821182.577159) can1 3D3#9280808080808070
(1539821182.585835) can1 141#00000046
(1539821182.595698) can1 128#F40190830037
(1539821182.595996) can1 283#0000000000008C
(1539821182.605733) can1 141#00000046
(1539821182.605972) can1 344#0000010000000050
(1539821182.607885) can1 210#250A84FEA000006B
(1539821182.608144) can1 211#25116206200000D9
(1539821182.608884) can1 212#250EE8FBC00000F2
(1539821182.609144) can1 213#25FFF80000000039
(1539821182.609956) can1 214#25FFF8000000003A
(1539821182.610170) can1 215#25FFF8000000003B
(1539821182.610906) can1 216#250F880780000063
(1539821182.611179) can1 217#25FFF8000000003D
(1539821182.611884) can1 218#2502EE03C0FFF8F1
(1539821182.612134) can1 219#2503C00600000011
(1539821182.612938) can1 21A#250F9203C00000AD
(1539821182.613163) can1 21B#250A80FEA0000072
(1539821182.613886) can1 21C#250F7AFF000008DB
(1539821182.614145) can1 21D#2503C0F9D00000D8
(1539821182.614886) can1 21E#250E4CFC20FFE0A2
(1539821182.615145) can1 21F#25115806A000005D
(1539821182.615940) can1 220#25006400000404BB
(1539821182.616135) can1 221#250000000006045A
(1539821182.616890) can1 222#250042000006049D
(1539821182.617138) can1 223#2500000000000052
(1539821182.617954) can1 224#2500000000000053
(1539821182.618168) can1 225#2500000000000054
(1539821182.618942) can1 226#25FE02000004045D
(1539821182.619156) can1 227#2500000000000056
(1539821182.619885) can1 228#25006470C8F1
(1539821182.620094) can1 229#250000A0C4BA
(1539821182.620884) can1 22A#250064B248B5
(1539821182.621095) can1 22B#250064A244A2
(1539821182.621884) can1 22C#250064D248D7
(1539821182.622096) can1 22D#250000A0C8C2
(1539821182.622882) can1 22E#250C43D244C0
(1539821182.623097) can1 22F#25001EB24470
(1539821182.623886) can1 230#257FFF1529001A
(1539821182.624144) can1 231#2501FFF000000252
(1539821182.624888) can1 232#2500FE00FE00FE5B
(1539821182.626984) can1 141#00000046
(1539821182.627291) can1 128#F40190830037
(1539821182.627483) can1 283#0000000000008C
(1539821182.627679) can1 160#0000081201319C51
(1539821182.627886) can1 161#001E0000008007
(1539821182.646793) can1 141#00000046
(1539821182.656907) can1 128#F40190830037
(1539821182.657093) can1 283#0000000000008C
(1539821182.657418) can1 344#0000010000000050
(1539821182.657930) can1 210#260A84FEA000006C
(1539821182.658202) can1 211#2611600660000018
(1539821182.658909) can1 212#260E9EFB40000029
(1539821182.659181) can1 213#26FFF8000000003A
(1539821182.659931) can1 214#26FFF8000000003B
(1539821182.660159) can1 215#26FFF8000000003C
(1539821182.660940) can1 216#260F8C0780000068
(1539821182.661209) can1 217#26FFF8000000003E
(1539821182.661914) can1 218#2602F003C00000FD
(1539821182.662180) can1 219#2603AC054000003D
(1539821182.662930) can1 21A#260F9203C00008B6
(1539821182.663134) can1 21B#260A80FEC0000093
(1539821182.663887) can1 21C#260F40FFE000007A
(1539821182.664144) can1 21D#260576FA70000032
(1539821182.664941) can1 21E#260E4CFC20FFC88B
(1539821182.665134) can1 21F#26115606E000009C
(1539821182.665951) can1 220#26006400000404BC
(1539821182.666165) can1 221#26FC000000040455
(1539821182.666898) can1 222#2600370000040491
(1539821182.666975) can1 141#00000046
(1539821182.667143) can1 223#2600000000000053
(1539821182.667955) can1 224#2600000000000054
(1539821182.668206) can1 225#2600000000000055
(1539821182.668913) can1 226#26FE020000060460
(1539821182.669163) can1 227#2600000000000057
(1539821182.669887) can1 228#26026470C8F4
(1539821182.670095) can1 229#260000A0C4BB
(1539821182.670907) can1 22A#260064B248B6
(1539821182.671080) can1 22B#260064A244A3
(1539821182.671916) can1 22C#260064D248D8
(1539821182.672078) can1 22D#260000A0C8C3
(1539821182.672885) can1 22E#26F648D244B0
(1539821182.673094) can1 22F#26001AB2446D
(1539821182.673884) can1 123#0108090D40008A
(1539821182.674097) can1 230#267FFF152A001C
(1539821182.674886) can1 231#2601FFF000000253
(1539821182.675144) can1 232#2600FE00FE00FE5C
(1539821182.675956) can1 3D0#93F5F91C808080F8
(1539821182.676157) can1 3D1#938080808080806F
(1539821182.676938) can1 3D2#9380808080808070
(1539821182.677157) can1 3D3#9380808080808071
(1539821182.687385) can1 141#00000046
(1539821182.687533) can1 128#F40190830037
(1539821182.687640) can1 283#0000000000008C
(1539821182.697612) can1 160#0000081201319C51
(1539821182.697907) can1 161#001E0000008007
(1539821182.707861) can1 141#00000046
(1539821182.707966) can1 210#270A84FEA000006D
(1539821182.708066) can1 344#0000010000000050
(1539821182.708290) can1 365#00000080FC0008
(1539821182.708385) can1 211#2711600680000039
(1539821182.708499) can1 366#007207FF09FE00
(1539821182.709009) can1 212#270E96FB20000002
(1539821182.709508) can1 213#27FFF8000000003B
(1539821182.709930) can1 214#27FFF8000000003C
(1539821182.710185) can1 215#27FFF8000000003D
(1539821182.710932) can1 216#270F8C0780000069
(1539821182.711172) can1 217#27FFF8000000003F
(1539821182.711931) can1 218#2702EE03C0000804
(1539821182.712197) can1 219#2703A004C00000B1
(1539821182.712954) can1 21A#27100604600000C5
(1539821182.713167) can1 21B#270A80FEA0000074
(1539821182.713885) can1 21C#270F4600200000C2
(1539821182.714145) can1 21D#270576FA60000023
(1539821182.714885) can1 21E#270E4CFC20FFC88C
(1539821182.715144) can1 21F#27115607200000DE
(1539821182.715929) can1 220#27FE6400000404BB
(1539821182.716143) can1 221#270400000004045E
(1539821182.716906) can1 222#27002F000006048C
(1539821182.717157) can1 223#2700000000000054
(1539821182.717868) can1 128#F40190830037
(1539821182.717928) can1 224#2700000000000055
(1539821182.718069) can1 283#0000000000008C
(1539821182.718384) can1 225#2700000000000056
(1539821182.718949) can1 226#2700020000060463
(1539821182.719212) can1 227#2700000000000058
(1539821182.719886) can1 228#27006470C8F3
(1539821182.720094) can1 229#270000A0C4BC
(1539821182.720885) can1 22A#270064B048B5
(1539821182.721097) can1 22B#270064A244A4
(1539821182.721864) can1 22C#270064C248C9
(1539821182.722076) can1 22D#270000A0C8C4
(1539821182.722884) can1 22E#27004CD244BF
(1539821182.723088) can1 22F#270016B2446A
(1539821182.723893) can1 230#277FFF152B001E
(1539821182.724136) can1 231#2701FFF000000254
(1539821182.724946) can1 232#2700FE00FE00FE5D
(1539821182.727785) can1 141#00000046
(1539821182.748191) can1 141#00000046
(1539821182.748344) can1 128#F40190830037
(1539821182.748461) can1 283#0000000000008C
(1539821182.757888) can1 210#280A84FEA000006E
(1539821182.758198) can1 211#281160068000003A
(1539821182.758497) can1 344#0000010000000050
(1539821182.759009) can1 212#280E80FBA000006D
(1539821182.759294) can1 213#28FFF8000000003C
(1539821182.759907) can1 214#28FFF8000000003D
(1539821182.760156) can1 215#28FFF8000000003E
(1539821182.760938) can1 216#280F8007E00000BE
(1539821182.761205) can1 217#28FFF80000000040
(1539821182.761919) can1 218#28032404E0000055
(1539821182.762169) can1 219#28039A048000006C
(1539821182.762912) can1 21A#28101204600008DA
(1539821182.763161) can1 21B#280A80FEC0000095
(1539821182.763885) can1 21C#280F4E00A000004B
(1539821182.764145) can1 21D#280574FA40000002
(1539821182.764887) can1 21E#280E32FC60FFE0CB
(1539821182.765148) can1 21F#28115607400000FF
(1539821182.765888) can1 220#28FE6400000404BC
(1539821182.766199) can1 221#280000000006045D
(1539821182.766911) can1 222#2800280000040484
(1539821182.767159) can1 223#2800000000000055
(1539821182.767942) can1 224#2800000000000056
(1539821182.768190) can1 225#2800000000000057
(1539821182.768644) can1 141#00000046
(1539821182.768791) can1 160#0000081201319C51
(1539821182.769011) can1 161#001E0000008007
(1539821182.769557) can1 226#2800020000040462
(1539821182.769819) can1 227#2800000000000059
(1539821182.769990) can1 229#28000090C4AD
(1539821182.770214) can1 228#28026480C806
(1539821182.770916) can1 22A#280064B044B2
(1539821182.771080) can1 22B#280064A244A5
(1539821182.771916) can1 22C#280064D248DA
(1539821182.772079) can1 22D#280000A0C8C5
(1539821182.772885) can1 22E#280A50D248D2
(1539821182.773098) can1 22F#280013B24468
(1539821182.773886) can1 123#0108090D40008A
(1539821182.774148) can1 230#287FFF152C0020
(1539821182.774886) can1 231#2801FFF000000255
(1539821182.775206) can1 232#2800FE00FE00FE5E
(1539821182.775912) can1 3D0#94F6FC1D808080FE
(1539821182.776193) can1 3D1#9480808080808070
(1539821182.776945) can1 3D2#9480808080808071
(1539821182.777157) can1 3D3#9480808080808072
(1539821182.779044) can1 128#F40190830037
(1539821182.779397) can1 283#0000000000008C
(1539821182.788806) can1 141#00000046
(1539821182.807880) can1 210#290A82FEA1FFF05D
(1539821182.808145) can1 211#291160068000003B
(1539821182.808899) can1 212#290E7EFBA000006C
(1539821182.809163) can1 213#29FFF8000000003D
(1539821182.809419) can1 141#00000046
(1539821182.809613) can1 128#F40190830037
(1539821182.809922) can1 283#0000000000008C
(1539821182.810113) can1 344#0000010000000050
(1539821182.810229) can1 214#29FFF8000000003E
(1539821182.810589) can1 215#29FFF8000000003F
(1539821182.811058) can1 216#290F4C0780FFC0EA
(1539821182.811312) can1 217#29FFF80000000041
(1539821182.811931) can1 218#29030A04800000DC
(1539821182.812193) can1 219#29039E0440000031
(1539821182.812944) can1 21A#29101204600008DB
(1539821182.813135) can1 21B#290A80FEC0000096
(1539821182.813886) can1 21C#290F4E00C0000874
(1539821182.814148) can1 21D#290574FA60000023
(1539821182.814885) can1 21E#290E22FC2000009D
(1539821182.815146) can1 21F#2911560780000040
(1539821182.815940) can1 220#29FE6400000404BD
(1539821182.816135) can1 221#290000000006045E
(1539821182.816941) can1 222#2900220000060481
(1539821182.817136) can1 223#2900000000000056
(1539821182.817940) can1 224#2900000000000057
(1539821182.818205) can1 225#2900000000000058
(1539821182.818925) can1 226#29E801000004044A
(1539821182.819170) can1 227#290000000000005A
(1539821182.819886) can1 228#29006480C805
(1539821182.820095) can1 229#29040090C8B6
(1539821182.820885) can1 22A#290064B048B7
(1539821182.821097) can1 22B#290064A244A6
(1539821182.821885) can1 22C#290064D248DB
(1539821182.822097) can1 22D#29FE00A0C8C4
(1539821182.822864) can1 22E#290653D248D2
(1539821182.823081) can1 22F#290010B24466
(1539821182.823886) can1 230#297FFF152D0022
(1539821182.824145) can1 231#2901FFF000000256
(1539821182.824887) can1 232#2900FE00FE00FE5F
(1539821182.829290) can1 141#00000046
(1539821182.839714) can1 128#F40190830037
(1539821182.839846) can1 283#0000000000008C
(1539821182.839990) can1 160#0000081201319C51
(1539821182.840304) can1 161#001E0000008007
(1539821182.849635) can1 141#00000046
(1539821182.857949) can1 210#2A0A82FEC1FFF07E
(1539821182.858161) can1 211#2A1160068000003C
(1539821182.858885) can1 212#2A0E7EFBA000006D
(1539821182.859196) can1 213#2AFFF8000000003E
(1539821182.859886) can1 344#0000010000000050
(1539821182.860001) can1 214#2AFFF8000000003F
(1539821182.860386) can1 215#2AFFF80000000040
(1539821182.860943) can1 216#2A0F5C07E0FFE07B
(1539821182.861207) can1 217#2AFFF80000000042
(1539821182.861913) can1 218#2A02F60440000088
(1539821182.862182) can1 219#2A03A00440000034
(1539821182.862934) can1 21A#2A101204600008DC
(1539821182.863135) can1 21B#2A0A80FEC0000097
(1539821182.863938) can1 21C#2A0F7800A0000077
(1539821182.864136) can1 21D#2A0572FA60000022
(1539821182.864940) can1 21E#2A0E20FC200008A4
(1539821182.865136) can1 21F#2A11560760000021
(1539821182.865943) can1 220#2AFE6400000404BE
(1539821182.866136) can1 221#2A0000000006045F
(1539821182.866945) can1 222#2A001D000006047D
(1539821182.867136) can1 223#2A00000000000057
(1539821182.867942) can1 224#2A00000000000058
(1539821182.868206) can1 225#2A00000000000059
(1539821182.868914) can1 226#2A0C01000004046F
(1539821182.869185) can1 227#2A0000000000005B
(1539821182.869859) can1 141#00000046
(1539821182.869916) can1 228#2A006480C806
(1539821182.870147) can1 128#F40190830037
(1539821182.870322) can1 229#2A000090C8B3
(1539821182.870390) can1 283#0000000000008C
(1539821182.870934) can1 22A#2A0064B048B8
(1539821182.871095) can1 22B#2A0064924497
(1539821182.871874) can1 22C#2A0064C048CA
(1539821182.872087) can1 22D#2AFE00A0C8C5
(1539821182.872894) can1 22E#2A0256D248D2
(1539821182.873055) can1 22F#2A000EB24465
(1539821182.873886) can1 123#0108090D40008A
(1539821182.874098) can1 230#2A7FFF152E0024
(1539821182.874956) can1 231#2A01FFF000000257
(1539821182.875136) can1 232#2A00FE00FE00FE60
(1539821182.875885) can1 3D0#95F6FB13808080F4
(1539821182.876147) can1 3D1#9580808080808071
(1539821182.876907) can1 3D2#9580808080808072
(1539821182.877182) can1 3D3#9580808080808073
(1539821182.890011) can1 141#00000046
(1539821182.900186) can1 128#F40190830037
(1539821182.900414) can1 283#0000000000008C
(1539821182.907877) can1 210#2B0A80FEA1FFE14E
(1539821182.908146) can1 211#2B1160068000003D
(1539821182.908886) can1 212#2B0E96FB80000066
(1539821182.909196) can1 213#2BFFF8000000003F
(1539821182.909956) can1 214#2BFFF80000000040
(1539821182.910188) can1 215#2BFFF80000000041
(1539821182.910490) can1 141#00000046
(1539821182.910694) can1 344#0000010000000050
(1539821182.910839) can1 160#0000081201319C51
(1539821182.910966) can1 216#2B0F7407A0FFE054
(1539821182.911015) can1 161#001E0000008007
(1539821182.911182) can1 365#00000080FC0008
(1539821182.911440) can1 366#007207FF09FE00
(1539821182.911636) can1 4CB#0C00000000000000
(1539821182.911860) can1 217#2BFFF80000000043
(1539821182.912342) can1 218#2B02E8040000003B
(1539821182.912789) can1 219#2B039C0440000031
(1539821182.913038) can1 21B#2B0A80FEA0000179
(1539821182.913305) can1 21A#2B101204600008DD
(1539821182.913887) can1 21C#2B0F7801C0FFC058
(1539821182.914146) can1 21D#2B056CFA60FFF00C
(1539821182.914886) can1 21E#2B0E3CFB600000F8
(1539821182.915148) can1 21F#2B11560760000022
(1539821182.915919) can1 220#2BFE6400000404BF
(1539821182.916182) can1 221#2B00000000060460
(1539821182.916945) can1 222#2B00180000040477
(1539821182.917135) can1 223#2B00000000000058
(1539821182.917956) can1 224#2B00000000000059
(1539821182.918169) can1 225#2B0000000000005A
(1539821182.918886) can1 226#2B02010000040466
(1539821182.919195) can1 227#2B0000000000005C
(1539821182.919896) can1 228#2B006480C807
(1539821182.920111) can1 229#2BFC0090C8B0
(1539821182.920886) can1 22A#2B0064B044B5
(1539821182.921107) can1 22B#2B0064924498
(1539821182.921918) can1 22C#2BEA64D248C7
(1539821182.922081) can1 22D#2BFE00A0C8C6
(1539821182.922884) can1 22E#2B0258D248D5
(1539821182.923088) can1 22F#2B000CB24868
(1539821182.923892) can1 230#2B7FFF152F0026
(1539821182.924141) can1 231#2B01FFF000000258
(1539821182.924886) can1 232#2B00FE00FE00FE61
(1539821182.930746) can1 141#00000046
(1539821182.930930) can1 128#F40190830037
(1539821182.931088) can1 283#0000000000008C
(1539821182.951107) can1 141#00000046
(1539821182.957887) can1 210#2C0A80FEA1FFE14F
(1539821182.958148) can1 211#2C115E06A000005C
(1539821182.958957) can1 212#2C0E98FB80000069
(1539821182.959136) can1 213#2CFFF80000000040
(1539821182.959942) can1 214#2CFFF80000000041
(1539821182.960193) can1 215#2CFFF80000000042
(1539821182.960945) can1 216#2C0F7607A0FFE057
(1539821182.961132) can1 217#2CFFF80000000044
(1539821182.961298) can1 128#F40190830037
(1539821182.961439) can1 283#0000000000008C
(1539821182.961547) can1 344#0000010000000050
(1539821182.961957) can1 218#2C02E203E0000015
(1539821182.962448) can1 219#2C03AA0460FFB00F
(1539821182.962911) can1 21A#2C0FFC04600000BF
(1539821182.963161) can1 21B#2C0A80FEA000017A
(1539821182.963942) can1 21C#2C0F7601E0FFC87F
(1539821182.964142) can1 21D#2C0568FA60FFF009
(1539821182.964886) can1 21E#2C0E3EFB60000803
(1539821182.965149) can1 21F#2C115807200000E5
(1539821182.965932) can1 220#2CFE6400000404C0
(1539821182.966186) can1 221#2CFE00000004045D
(1539821182.966917) can1 222#2C00150000060477
(1539821182.967183) can1 223#2C00000000000059
(1539821182.967943) can1 224#2C0000000000005A
(1539821182.968207) can1 225#2C0000000000005B
(1539821182.968915) can1 226#2C00010000060467
(1539821182.969188) can1 227#2C0000000000005D
(1539821182.969916) can1 228#2C006480C808
(1539821182.970082) can1 229#2CE60090C89B
(1539821182.970874) can1 22A#2C0064B244B8
(1539821182.971105) can1 22B#2C0064924499
(1539821182.971705) can1 141#00000046
(1539821182.971864) can1 22C#2C0064D248DE
(1539821182.972234) can1 22D#2CFE00A0C8C7
(1539821182.972870) can1 22E#2C005AD248D6
(1539821182.973083) can1 22F#2C000AB24867
(1539821182.973887) can1 123#0108090D40008A
(1539821182.974148) can1 230#2C7FFF15300028
(1539821182.974887) can1 231#2C01FFF000000259
(1539821182.975196) can1 232#2C00FE00FE00FE62
(1539821182.975912) can1 3D0#96F6F90E808080EE
(1539821182.976181) can1 3D1#9680808080808072
(1539821182.976920) can1 3D2#9680808080808073
(1539821182.977142) can1 3D3#9680808080808074
(1539821182.981785) can1 160#0000081201319C51
(1539821182.981957) can1 161#001E0000008007
(1539821182.991806) can1 141#00000046
(1539821182.992124) can1 128#F40190830037
(1539821182.992394) can1 283#0000000000008C
(1539821183.007887) can1 210#2D0A80FEA1FFE150
(1539821183.008138) can1 211#2D115E06A000005D
(1539821183.008879) can1 212#2D0E98FB8000006A
(1539821183.009173) can1 213#2DFFF80000000041
(1539821183.009877) can1 214#2DFFF80000000042
(1539821183.010198) can1 215#2DFFF80000000043
(1539821183.010932) can1 216#2D0F4407A0FFB0F6
(1539821183.011195) can1 217#2DFFF80000000045
(1539821183.011918) can1 218#2D02E203E000081E
(1539821183.012182) can1 219#2D03B20480FF9018
(1539821183.012288) can1 141#00000046
(1539821183.012514) can1 344#0000010000000050
(1539821183.013010) can1 21A#2D1016042000009B
(1539821183.013293) can1 21B#2D0A80FEA000017B
(1539821183.013946) can1 21C#2D0F7601E0FFC880
(1539821183.014160) can1 21D#2D0568FA400000FB
(1539821183.014887) can1 21E#2D0EB4FC60FFC032
(1539821183.015145) can1 21F#2D115A07000000C8
(1539821183.015940) can1 220#2DFE6400000404C1
(1539821183.016137) can1 221#2D00000000060462
(1539821183.016891) can1 222#2D00120000060475
(1539821183.017162) can1 223#2D0000000000005A
(1539821183.017956) can1 224#2D0000000000005B
(1539821183.018170) can1 225#2D0000000000005C
(1539821183.018942) can1 226#2DEE010000040454
(1539821183.019136) can1 227#2D0000000000005E
(1539821183.019892) can1 228#2D006480C809
(1539821183.020057) can1 229#2DF40090C8AA
(1539821183.020886) can1 22A#2D0064B248BD
(1539821183.021098) can1 22B#2D006492449A
(1539821183.021886) can1 22C#2DFE64D244D9
(1539821183.022099) can1 22D#2D0400A0C8CE
(1539821183.022287) can1 128#F40190830037
(1539821183.022522) can1 283#0000000000008C
(1539821183.022982) can1 22E#2DEA5CD244BF
(1539821183.023182) can1 22F#2D0009B24867
(1539821183.023889) can1 230#2D7FFF1531002A
(1539821183.024148) can1 231#2D01FFF00000025A
(1539821183.024886) can1 232#2D00FE00FE00FE63
(1539821183.032446) can1 141#00000046
(1539821183.052795) can1 141#00000046
(1539821183.053044) can1 128#F40190830037
(1539821183.053187) can1 283#0000000000008C
(1539821183.053375) can1 160#0000081201319C51
(1539821183.053468) can1 161#001E0000008007
(1539821183.057888) can1 210#2E0A80FEA1FFD141
(1539821183.058149) can1 211#2E115E06A000005E
(1539821183.058888) can1 212#2E0EB2FB20FFC0E4
(1539821183.059196) can1 213#2EFFF80000000042
(1539821183.059948) can1 214#2EFFF80000000043
(1539821183.060196) can1 215#2EFFF80000000044
(1539821183.060955) can1 216#2E0F680820FF907C
(1539821183.061207) can1 217#2EFFF80000000046
(1539821183.061915) can1 218#2E02EA0400FFE01F
(1539821183.062199) can1 219#2E03C004C0FF9067
(1539821183.062938) can1 21A#2E101A04200008A8
(1539821183.063137) can1 21B#2E0A80FEA000017C
(1539821183.063398) can1 344#0000010000000050
(1539821183.063911) can1 21C#2E0F9E0220FF90B2
(1539821183.064182) can1 21D#2E0568FA400000FC
(1539821183.064912) can1 21E#2E0EC0FC60FFC847
(1539821183.065183) can1 21F#2E115A06E00000A8
(1539821183.065913) can1 220#2EFE6400000404C2
(1539821183.066161) can1 221#2E00000000060463
(1539821183.066946) can1 222#2EE80F0000040459
(1539821183.067136) can1 223#2E0000000000005B
(1539821183.067959) can1 224#2E0000000000005C
(1539821183.068208) can1 225#2E0000000000005D
(1539821183.068917) can1 226#2EF601000004045D
(1539821183.069183) can1 227#2E0000000000005F
(1539821183.069893) can1 228#2EF66480C800
(1539821183.070103) can1 229#2E020090C4B5
(1539821183.070877) can1 22A#2E0064B244BA
(1539821183.071079) can1 22B#2E006492449B
(1539821183.071865) can1 22C#2EF464D248D4
(1539821183.072083) can1 22D#2E0600A0C8D1
(1539821183.072861) can1 22E#2E005DD244D7
(1539821183.072989) can1 141#00000046
(1539821183.073107) can1 22F#2E0008B24867
(1539821183.073877) can1 123#0108090D40008A
(1539821183.074119) can1 230#2E7FFF1532002C
(1539821183.074932) can1 231#2E01FFF00000025B
(1539821183.075138) can1 232#2E00FE00FE00FE64
(1539821183.075957) can1 3D0#9780808080808072
(1539821183.076136) can1 3D1#9780808080808073
(1539821183.076942) can1 3D2#9780808080808074
(1539821183.077192) can1 3D3#9780808080808075
(1539821183.083161) can1 128#F40190830037
(1539821183.083309) can1 283#0000000000008C
(1539821183.093386) can1 141#00000046
(1539821183.107888) can1 210#2F0A7EFEA1FFD140
(1539821183.108208) can1 211#2F115A06C0FFF06A
(1539821183.108915) can1 212#2F0EBAFAC0FFA06C
(1539821183.109183) can1 213#2FFFF80000000043
(1539821183.109912) can1 214#2FFFF80000000044
(1539821183.110182) can1 215#2FFFF80000000045
(1539821183.110902) can1 216#2F0F6C0820FF9081
(1539821183.111127) can1 217#2FFFF80000000047
(1539821183.111928) can1 218#2F02E40400FFE01A
(1539821183.112173) can1 219#2F03C204E0FF908A
(1539821183.112891) can1 21A#2F101A04200008A9
(1539821183.113149) can1 21B#2F0A80FEA000017D
(1539821183.113603) can1 141#00000046
(1539821183.113747) can1 128#F40190830037
(1539821183.113914) can1 283#0000000000008C
(1539821183.114034) can1 344#0000010000000050
(1539821183.114185) can1 365#00000080FC0008
(1539821183.114298) can1 21C#2F0FB202A0FF8037
(1539821183.114463) can1 366#007207FF09FE00
(1539821183.114682) can1 21D#2F056AFA4000100F
(1539821183.115195) can1 21E#2F0ED8FB20FFE037
(1539821183.115646) can1 21F#2F115807000000C8
(1539821183.116110) can1 220#2F006400000404C5
(1539821183.116342) can1 221#2FF6000000040458
(1539821183.116941) can1 222#2FFA0D000004046A
(1539821183.117137) can1 223#2F0000000000005C
(1539821183.117942) can1 224#2F0000000000005D
(1539821183.118208) can1 225#2F0000000000005E
(1539821183.118914) can1 226#2F0200000006046B
(1539821183.119182) can1 227#2F00000000000060
(1539821183.119861) can1 228#2F026480C80D
(1539821183.120061) can1 229#2F000090C4B4
(1539821183.120891) can1 22A#2F0064B244BB
(1539821183.121090) can1 22B#2F006492449C
(1539821183.121887) can1 22C#2FFA64D248DB
(1539821183.122099) can1 22D#2F0400A0C8D0
(1539821183.122867) can1 22E#2F0C5ED244E5
(1539821183.123082) can1 22F#2F0007B24867
(1539821183.123558) can1 160#0000081201319C51
(1539821183.123660) can1 161#001E0000008007
(1539821183.124307) can1 230#2F7FFF1533002E
(1539821183.124512) can1 231#2F01FFF00000025C
(1539821183.124920) can1 232#2F00FE00FE00FE65
(1539821183.133936) can1 141#00000046
(1539821183.143937) can1 128#F40190830037
(1539821183.144214) can1 283#0000000000008C
(1539821183.154387) can1 141#00000046
(1539821183.157888) can1 210#300A7CFEA1FFD13F
(1539821183.158149) can1 211#30115406E0FFE075
(1539821183.158889) can1 212#300E94FAA0FFB037
(1539821183.159137) can1 213#30FFF80000000044
(1539821183.159945) can1 214#30FFF80000000045
(1539821183.160194) can1 215#30FFF80000000046
(1539821183.160946) can1 216#300F6C0820FF9082
(1539821183.161160) can1 217#30FFF80000000048
(1539821183.161957) can1 218#3002E203E0FFE800
(1539821183.162171) can1 219#3002FAFA90FF7048
(1539821183.162887) can1 21A#300FD604C00000FD
(1539821183.163146) can1 21B#300A80FE8000015E
(1539821183.163944) can1 21C#300FB202C0FF8860
(1539821183.164109) can1 344#0000010000000050
(1539821183.164228) can1 21D#30055CFA400000F2
(1539821183.164892) can1 21E#300E98FAC00000B8
(1539821183.165141) can1 21F#30115807200000E9
(1539821183.165917) can1 220#30FE6400000404C4
(1539821183.166182) can1 221#30FA00000004045D
(1539821183.166941) can1 222#30040B0000040473
(1539821183.167165) can1 223#300000000000005D
(1539821183.167945) can1 224#300000000000005E
(1539821183.168208) can1 225#300000000000005F
(1539821183.168919) can1 226#300000000006046A
(1539821183.169184) can1 227#3000000000000061
(1539821183.169914) can1 228#30006480C80C
(1539821183.170080) can1 229#30DC00A0C8A5
(1539821183.170877) can1 22A#300064B244BC
(1539821183.171080) can1 22B#30006492449D
(1539821183.171925) can1 22C#300064D248E2
(1539821183.172082) can1 22D#30F600A0C8C3
(1539821183.172895) can1 22E#30065FD244E1
(1539821183.173109) can1 22F#300006B24463
(1539821183.173892) can1 123#0108090D40008A
(1539821183.174162) can1 230#307FFF15340030
(1539821183.174308) can1 141#00000046
(1539821183.174519) can1 128#F40190830037
(1539821183.174676) can1 283#0000000000008C
(1539821183.174938) can1 231#3001FFF00000025D
(1539821183.175385) can1 232#3000FE00FE00FE66
(1539821183.175958) can1 3D0#98F7FB15808080FA
(1539821183.176137) can1 3D1#9880808080808074
(1539821183.176887) can1 3D2#9880808080808075
(1539821183.177147) can1 3D3#9880808080808076
(1539821183.194535) can1 141#00000046
(1539821183.194786) can1 160#0000081201319C51
(1539821183.195036) can1 161#001E0000008007
(1539821183.204813) can1 128#F40190830037
(1539821183.205022) can1 283#0000000000008C
(1539821183.207888) can1 210#310A82FE81FFE136
(1539821183.208148) can1 211#31115406E0FFD066
(1539821183.208887) can1 212#310E92FA00FFE0C6
(1539821183.209218) can1 213#31FFF80000000045
(1539821183.209913) can1 214#31FFF80000000046
(1539821183.210182) can1 215#31FFF80000000047
(1539821183.210933) can1 216#310F6C0820FF9083
(1539821183.211196) can1 217#31FFF80000000049
(1539821183.211925) can1 218#3102E203E0FFE801
(1539821183.212189) can1 219#310328FA60FFA078
(1539821183.212917) can1 21A#310FCE04E000081E
(1539821183.213187) can1 21B#310A80FE8000015F
(1539821183.213894) can1 21C#310F900340FF80B8
(1539821183.214141) can1 21D#310556FA40FFE0CC
(1539821183.214786) can1 141#00000046
(1539821183.214887) can1 21E#310E90FAA0000899
(1539821183.215102) can1 344#0000010000000050
(1539821183.215308) can1 21F#31115807200000EA
(1539821183.215948) can1 220#31046400000404CB
(1539821183.216160) can1 221#31FC000000040460
(1539821183.216888) can1 222#310C09000004047A
(1539821183.217137) can1 223#310000000000005E
(1539821183.217940) can1 224#310000000000005F
(1539821183.218207) can1 225#3100000000000060
(1539821183.218914) can1 226#310000000006046B
(1539821183.219183) can1 227#3100000000000062
(1539821183.219912) can1 228#31006480C80D
(1539821183.220111) can1 229#310C00A0C8D6
(1539821183.220893) can1 22A#310064B244BD
(1539821183.221092) can1 22B#31006492449E
(1539821183.221888) can1 22C#31FE64D248E1
(1539821183.222099) can1 22D#31F600A0C8C4
(1539821183.222889) can1 22E#310060D244DD
(1539821183.223098) can1 22F#310005B24867
(1539821183.223889) can1 230#317FFF15350032
(1539821183.224148) can1 231#3101FFF00000025E
(1539821183.224889) can1 232#3100FE00FE00FE67
(1539821183.235148) can1 141#00000046
(1539821183.235423) can1 128#F40190830037
(1539821183.235513) can1 283#0000000000008C
(1539821183.255748) can1 141#00000046
(1539821183.257890) can1 210#320A82FE81FFE137
(1539821183.258150) can1 211#32115606E0FFC059
(1539821183.258888) can1 212#320EDEFAC0FFA093
(1539821183.259148) can1 213#32FFF80000000046
(1539821183.259888) can1 214#32FFF80000000047
(1539821183.260148) can1 215#32FFF80000000048
(1539821183.260887) can1 216#320F6C0820FF9084
(1539821183.261198) can1 217#32FFF8000000004A
(1539821183.261958) can1 218#3202E203E0FFE802
(1539821183.262159) can1 219#32036E0550FF708A
(1539821183.262943) can1 21A#320FCE04E000081F
(1539821183.263137) can1 21B#320A80FE60000140
(1539821183.263943) can1 21C#320F8A0360FF88DB
(1539821183.264137) can1 21D#32054EFA60FFD0D5
(1539821183.264944) can1 21E#320E90FAA000089A
(1539821183.265144) can1 21F#32115A07000000CD
(1539821183.265814) can1 128#F40190830037
(1539821183.265933) can1 220#32046400000404CC
(1539821183.266065) can1 283#0000000000008C
(1539821183.266299) can1 344#0000010000000050
(1539821183.266386) can1 221#32FA00000004045F
(1539821183.266485) can1 160#0000081201319C51
(1539821183.266732) can1 161#001E0000008007
(1539821183.267558) can1 222#32F0080000040862
(1539821183.267771) can1 223#320000000000005F
(1539821183.268035) can1 224#3200000000000060
(1539821183.268305) can1 225#3200000000000061
(1539821183.268939) can1 226#320000000006046C
(1539821183.269205) can1 227#3200000000000063
(1539821183.269914) can1 228#32006480C80E
(1539821183.270084) can1 229#32FC0090C8B7
(1539821183.270878) can1 22A#320064B244BE
(1539821183.271079) can1 22B#32006492449F
(1539821183.271890) can1 22C#320064D248E4
(1539821183.272105) can1 22D#32FC00A0C8CB
(1539821183.272888) can1 22E#320061D248E3
(1539821183.273101) can1 22F#320004B24867
(1539821183.273889) can1 123#0108090D40008A
(1539821183.274116) can1 230#327FFF15360034
(1539821183.274889) can1 231#3201FFF00000025F
(1539821183.275148) can1 232#3200FE00FE00FE68
(1539821183.275645) can1 141#00000046
(1539821183.276108) can1 3D0#9980808080808074
(1539821183.276297) can1 3D1#9980808080808075
(1539821183.276955) can1 3D2#9980808080808076
(1539821183.277169) can1 3D3#9980808080808077
(1539821183.295986) can1 141#00000046
(1539821183.296143) can1 128#F40190830037
(1539821183.296287) can1 283#0000000000008C
(1539821183.307890) can1 210#330A84FE81FFF14A
(1539821183.308148) can1 211#33114406C0FF90F8
(1539821183.308942) can1 212#330ECAFAE0FFE0E0
(1539821183.309138) can1 213#33FFF80000000047
(1539821183.309943) can1 214#33FFF80000000048
(1539821183.310138) can1 215#33FFF80000000049
(1539821183.310912) can1 216#330F6C0800FF9065
(1539821183.311161) can1 217#33FFF8000000004B
(1539821183.311942) can1 218#33033C03E0FFD046
(1539821183.312166) can1 219#33035EFA50FF9090
(1539821183.312888) can1 21A#330FEE0480FFC097
(1539821183.313148) can1 21B#330A80FE60000141
(1539821183.313888) can1 21C#330F880360FF88DA
(1539821183.314165) can1 21D#330548FA60FFC0C0
(1539821183.314889) can1 21E#330EC0FA20000043
(1539821183.315149) can1 21F#33114806C0FFC03A
(1539821183.315939) can1 220#33026400000404CB
(1539821183.316127) can1 221#33F400000004045A
(1539821183.316283) can1 141#00000046
(1539821183.316496) can1 344#0000010000000050
(1539821183.316752) can1 365#00000080FC0008
(1539821183.316952) can1 366#007207FF09FE00
(1539821183.317070) can1 222#3312070000040480
(1539821183.317500) can1 223#3300000000000060
(1539821183.317964) can1 224#3300000000000061
(1539821183.318183) can1 225#3300000000000062
(1539821183.318955) can1 226#330000000006046D
(1539821183.319191) can1 227#3300000000000064
(1539821183.319920) can1 228#33F86480C807
(1539821183.320081) can1 229#330A00A0C8D6
(1539821183.320888) can1 22A#33EA64B244A9
(1539821183.321098) can1 22B#3300649244A0
(1539821183.321892) can1 22C#330064D248E5
(1539821183.322104) can1 22D#33FA00A0C8CA
(1539821183.322867) can1 22E#330262D248E7
(1539821183.323073) can1 22F#33EA03B24851
(1539821183.323888) can1 230#337FFF15370036
(1539821183.324148) can1 231#3301FFF000000260
(1539821183.324943) can1 232#3300FE00FE00FE69
(1539821183.326513) can1 128#F40190830037
(1539821183.326804) can1 283#0000000000008C
(1539821183.336450) can1 141#00000046
(1539821183.336600) can1 160#0000081201319C51
(1539821183.336751) can1 161#001E0000008007
(1539821183.356816) can1 141#00000046
(1539821183.356989) can1 128#F40190830037
(1539821183.357147) can1 283#0000000000008C
(1539821183.357958) can1 210#340A82FE60000139
(1539821183.358171) can1 211#3411480700FFA04E
(1539821183.358944) can1 212#340EC8FAA0FFA05F
(1539821183.359146) can1 213#34FFF80000000048
(1539821183.359889) can1 214#34FFF80000000049
(1539821183.360197) can1 215#34FFF8000000004A
(1539821183.360948) can1 216#340F6C0800FF9066
(1539821183.361163) can1 217#34FFF8000000004C
(1539821183.361944) can1 218#3403660400FFC082
(1539821183.362205) can1 219#34035CFA40FF907F
(1539821183.362917) can1 21A#340FF00480FFC8A2
(1539821183.363183) can1 21B#340A80FE40000122
(1539821183.363941) can1 21C#340F860360FF88D9
(1539821183.364138) can1 21D#340542FA60FFB0AB
(1539821183.364944) can1 21E#340EC8FA00FFC0EB
(1539821183.365142) can1 21F#34114E0720FFE0C2
(1539821183.365888) can1 220#34066400000404D0
(1539821183.366148) can1 221#3402000000040469
(1539821183.366837) can1 344#0000010000000050
(1539821183.366955) can1 222#34EC06000004045A
(1539821183.367388) can1 223#3400000000000061
(1539821183.367959) can1 224#3400000000000062
(1539821183.368209) can1 225#3400000000000063
(1539821183.368921) can1 226#340000000006046E
(1539821183.369186) can1 227#3400000000000065
(1539821183.369894) can1 228#34FC6480C80C
(1539821183.370106) can1 229#340000A0C8CD
(1539821183.370919) can1 22A#340064B248C4
(1539821183.371082) can1 22B#3400649244A1
(1539821183.371888) can1 22C#340064D248E6
(1539821183.372115) can1 22D#34FE00A0C8CF
(1539821183.372891) can1 22E#34EC54D248C4
(1539821183.373099) can1 22F#340C03B24874
(1539821183.373890) can1 123#0108090D40008A
(1539821183.374102) can1 230#347FFF15380038
(1539821183.374960) can1 231#3401FFF000000261
(1539821183.375172) can1 232#3400FE00FE00FE6A
(1539821183.375917) can1 3D0#9AF5FC10808080F6
(1539821183.376184) can1 3D1#9A80808080808076
(1539821183.376859) can1 141#00000046
(1539821183.376977) can1 3D2#9A80808080808077
(1539821183.377288) can1 3D3#9A80808080808078
(1539821183.387103) can1 128#F40190830037
(1539821183.387293) can1 283#0000000000008C
(1539821183.397138) can1 141#00000046
(1539821183.407279) can1 160#0000081201319C51
(1539821183.407390) can1 161#001E0000008007
(1539821183.407958) can1 210#350A6CFE61FFC1E4
(1539821183.408172) can1 211#3511460700FF802D
(1539821183.408947) can1 212#350EE6FAA0FFD0AE
(1539821183.409140) can1 213#35FFF80000000049
(1539821183.409946) can1 214#35FFF8000000004A
(1539821183.410139) can1 215#35FFF8000000004B
(1539821183.410955) can1 216#350F6C07A0FF80F6
(1539821183.411169) can1 217#35FFF8000000004D
(1539821183.411937) can1 218#3503680400FFC88D
(1539821183.412165) can1 219#35034EFA20FFA062
(1539821183.412889) can1 21A#350FF00480FFC8A3
(1539821183.413150) can1 21B#350A80FE000001E3
(1539821183.413889) can1 21C#350F760440FF80A3
(1539821183.414139) can1 21D#350502FA80FFE0BC
(1539821183.414946) can1 21E#350EC8FA00FFC8F4
(1539821183.415141) can1 21F#3511500740FFE0E5
(1539821183.415914) can1 220#35EA6400000404B5
(1539821183.416185) can1 221#35F8000000060462
(1539821183.416935) can1 222#350E05000004047C
(1539821183.417190) can1 223#3500000000000062
(1539821183.417663) can1 141#00000046
(1539821183.417804) can1 128#F40190830037
(1539821183.417961) can1 283#0000000000008C
(1539821183.418079) can1 344#0000010000000050
(1539821183.418289) can1 224#3500000000000063
(1539821183.418734) can1 225#3500000000000064
(1539821183.419278) can1 226#35FA000000040467
(1539821183.419483) can1 227#3500000000000066
(1539821183.419888) can1 228#35006480C40D
(1539821183.420098) can1 229#350200A0C8D0
(1539821183.420888) can1 22A#350064B248C5
(1539821183.421102) can1 22B#3500649244A2
(1539821183.421889) can1 22C#350064D244E3
(1539821183.422098) can1 22D#350E00A0C4DC
(1539821183.422893) can1 22E#350048D248CD
(1539821183.423104) can1 22F#350003B24869
(1539821183.423888) can1 230#357FFF1539003A
(1539821183.424149) can1 231#3501FFF000000262
(1539821183.424942) can1 232#3500FE00FE00FE6B
(1539821183.437544) can1 141#00000046
(1539821183.447888) can1 128#F40190830037
(1539821183.448183) can1 283#0000000000008C
(1539821183.457775) can1 141#00000046
(1539821183.457932) can1 210#360A4EFE61FFE1E7
(1539821183.458290) can1 211#3611460720FFB07E
(1539821183.458945) can1 212#360F32FBA0FF90BD
(1539821183.459139) can1 213#36FFF8000000004A
(1539821183.459944) can1 214#36FFF8000000004B
(1539821183.460138) can1 215#36FFF8000000004C
(1539821183.460945) can1 216#360F6A0780FF80D5
(1539821183.461138) can1 217#36FFF8000000004E
(1539821183.461889) can1 218#3603680400FFC88E
(1539821183.462151) can1 219#36033804F0FFC047
(1539821183.462889) can1 21A#360FF00480FFC8A4
(1539821183.463149) can1 21B#360A7EFDA0000181
(1539821183.463889) can1 21C#360F720480FF88E8
(1539821183.464148) can1 21D#3604E4FA80FFF0AE
(1539821183.464889) can1 21E#360EC8FA00FFC8F5
(1539821183.465148) can1 21F#3611520780000049
(1539821183.465917) can1 220#360E6400000404DA
(1539821183.466184) can1 221#360E000000040477
(1539821183.466942) can1 222#36EE2D0000040485
(1539821183.467139) can1 223#3600000000000063
(1539821183.467822) can1 344#0000010000000050
(1539821183.467938) can1 224#3600000000000064
(1539821183.468455) can1 225#3600000000000065
(1539821183.468889) can1 226#3600000000060470
(1539821183.469203) can1 227#3600000000000067
(1539821183.469917) can1 228#36006480C812
(1539821183.470066) can1 229#36060090C4C1
(1539821183.470914) can1 22A#360064B248C6
(1539821183.471084) can1 22B#3600649244A3
(1539821183.471891) can1 22C#360064D244E4
(1539821183.472110) can1 22D#360600A0C4D5
(1539821183.472890) can1 22E#36FE3DD248C1
(1539821183.473101) can1 22F#360603B24870
(1539821183.473888) can1 123#0108090D40008A
(1539821183.474149) can1 230#367FFF153A003C
(1539821183.474944) can1 231#3601FFF000000263
(1539821183.475139) can1 232#3600FE00FE00FE6C
(1539821183.475963) can1 3D0#9B80808080808076
(1539821183.476184) can1 3D1#9B80808080808077
(1539821183.476957) can1 3D2#9B80808080808078
(1539821183.477139) can1 3D3#9B80808080808079
(1539821183.478139) can1 141#00000046
(1539821183.478443) can1 128#F40190830037
(1539821183.478491) can1 283#0000000000008C
(1539821183.478619) can1 160#0000081201319C51
(1539821183.478737) can1 161#001E0000008007
(1539821183.498305) can1 141#00000046
(1539821183.507890) can1 210#370A52FE41FFA18C
(1539821183.508152) can1 211#3711620720FF907B
(1539821183.508440) can1 128#F40190830037
(1539821183.508588) can1 283#0000000000008C
(1539821183.509139) can1 212#370F30FBE1FF80ED
(1539821183.509393) can1 213#37FFF8000000004B
(1539821183.509964) can1 214#37FFF8000000004C
(1539821183.510211) can1 215#37FFF8000000004D
(1539821183.510938) can1 216#370F680780FF80D4
(1539821183.511199) can1 217#37FFF8000000004F
(1539821183.511964) can1 218#37034803A0FFC006
(1539821183.512195) can1 219#370462F770FF5076
(1539821183.512954) can1 21A#370FF00480FFC8A5
(1539821183.513139) can1 21B#370A7CFD80000160
(1539821183.513946) can1 21C#370F460500FF8036
(1539821183.514145) can1 21D#3704F6FA80FF9061
(1539821183.514904) can1 21E#370E76F940FF90AB
(1539821183.515166) can1 21F#3711660780FFC01D
(1539821183.515891) can1 220#37EA6400000404B7
(1539821183.516151) can1 221#37F6000000040460
(1539821183.516890) can1 222#37FC3500000408A0
(1539821183.517152) can1 223#3700000000000064
(1539821183.517965) can1 224#3700000000000065
(1539821183.518192) can1 225#3700000000000066
(1539821183.518645) can1 141#00000046
(1539821183.518912) can1 344#0000010000000050
(1539821183.519079) can1 226#3700000000060471
(1539821183.519189) can1 365#00000080FC0008
(1539821183.519439) can1 366#007207FF09FE00
(1539821183.519558) can1 227#3700000000000068
(1539821183.520029) can1 228#37FE6480C40D
(1539821183.520189) can1 229#37F000A0C8C0
(1539821183.520882) can1 22A#370064B248C7
(1539821183.521072) can1 22B#3700649244A4
(1539821183.521883) can1 22C#370064D244E5
(1539821183.522097) can1 22D#37E200A0C4B2
(1539821183.522891) can1 22E#37F434D248AF
(1539821183.523098) can1 22F#37EC03B24453
(1539821183.523891) can1 230#377FFF153B003E
(1539821183.524150) can1 231#3701FFF000000264
(1539821183.524890) can1 232#3700FE00FE00FE6D
(1539821183.538970) can1 141#00000046
(1539821183.539296) can1 128#F40190830037
(1539821183.539438) can1 283#0000000000008C
(1539821183.549206) can1 160#0000081201319C51
(1539821183.549450) can1 161#001E0000008007
(1539821183.557893) can1 210#380A62FE01FFB16D
(1539821183.558150) can1 211#38115C0740FF9096
(1539821183.558909) can1 212#380F2CFBE1FF70DA
(1539821183.559149) can1 213#38FFF8000000004C
(1539821183.559389) can1 141#00000046
(1539821183.559889) can1 214#38FFF8000000004D
(1539821183.560150) can1 215#38FFF8000000004E
(1539821183.560953) can1 216#380F660780FF80D3
(1539821183.561183) can1 217#38FFF80000000050
(1539821183.561942) can1 218#3803400380FFD0EF
(1539821183.562164) can1 219#38031C04D0FFE02D
(1539821183.562945) can1 21A#380FF00480FFC8A6
(1539821183.563144) can1 21B#380A6AFD60FFC1EE
(1539821183.563889) can1 21C#380F3C0600FFC06E
(1539821183.564151) can1 21D#3804B0FA40FFA0EC
(1539821183.564890) can1 21E#380E48F8C0FF80ED
(1539821183.565151) can1 21F#38115E07A0FFE056
(1539821183.565889) can1 220#38066400000404D4
(1539821183.566168) can1 221#380200000004046D
(1539821183.566889) can1 222#38FA3C00000608A8
(1539821183.567150) can1 223#3800000000000065
(1539821183.567959) can1 224#3800000000000066
(1539821183.568173) can1 225#3800000000000067
(1539821183.568973) can1 226#3800000000060472
