(1537932772.004230) can1 210#F7FFF80000000008
(1537932772.004419) can1 211#F7FFF80000000009
(1537932772.005181) can1 212#F7FFF8000000000A
(1537932772.005424) can1 213#F7FFF8000000000B
(1537932772.006187) can1 214#F7FFF8000000000C
(1537932772.006425) can1 215#F7FFF8000000000D
(1537932772.007232) can1 216#F7FFF8000000000E
(1537932772.007457) can1 217#F7FFF8000000000F
(1537932772.008233) can1 218#F7FFF80000000010
(1537932772.008456) can1 219#F7FFF80000000011
(1537932772.009297) can1 21A#F7FFF80000000012
(1537932772.009461) can1 21B#F7FFF80000000013
(1537932772.010228) can1 21C#F7FFF80000000014
(1537932772.010444) can1 21D#F7FFF80000000015
(1537932772.011214) can1 21E#F7FFF80000000016
(1537932772.011439) can1 21F#F7FFF80000000017
(1537932772.012198) can1 220#F700000000000021
(1537932772.012451) can1 221#F700000000000022
(1537932772.013217) can1 222#F700000000000023
(1537932772.013458) can1 223#F700000000000024
(1537932772.014209) can1 224#F700000000000025
(1537932772.014457) can1 225#F700000000000026
(1537932772.015234) can1 226#F700000000000027
(1537932772.015457) can1 227#F700000000000028
(1537932772.016165) can1 228#F70000000027
(1537932772.016361) can1 229#F70000000028
(1537932772.017148) can1 22A#F70000000029
(1537932772.017348) can1 22B#F7000000002A
(1537932772.018196) can1 22C#F7000000002B
(1537932772.018339) can1 22D#F7000000002C
(1537932772.019173) can1 22E#F7000000002D
(1537932772.019391) can1 22F#F7000000002E
(1537932772.020151) can1 230#F77FFF42FB00EB
(1537932772.020444) can1 231#F701F9F00000021E
(1537932772.021213) can1 232#F700FE00FE00FE2D
(1537932772.054215) can1 210#F8FFF80000000009
(1537932772.054419) can1 211#F8FFF8000000000A
(1537932772.055229) can1 212#F8FFF8000000000B
(1537932772.055439) can1 213#F8FFF8000000000C
(1537932772.056293) can1 214#F8FFF8000000000D
(1537932772.056424) can1 215#F8FFF8000000000E
(1537932772.057237) can1 216#F8FFF8000000000F
(1537932772.057444) can1 217#F8FFF80000000010
(1537932772.058174) can1 218#F8FFF80000000011
(1537932772.058471) can1 219#F8FFF80000000012
(1537932772.059230) can1 21A#F8FFF80000000013
(1537932772.059446) can1 21B#F8FFF80000000014
(1537932772.060221) can1 21C#F8FFF80000000015
(1537932772.060443) can1 21D#F8FFF80000000016
(1537932772.061219) can1 21E#F8FFF80000000017
(1537932772.061459) can1 21F#F8FFF80000000018
(1537932772.062214) can1 220#F800000000000022
(1537932772.062453) can1 221#F800000000000023
(1537932772.063225) can1 222#F800000000000024
(1537932772.063440) can1 223#F800000000000025
(1537932772.064194) can1 224#F800000000000026
(1537932772.064447) can1 225#F800000000000027
(1537932772.065220) can1 226#F800000000000028
(1537932772.065457) can1 227#F800000000000029
(1537932772.066182) can1 228#F80000000028
(1537932772.066386) can1 229#F80000000029
(1537932772.067204) can1 22A#F8000000002A
(1537932772.067401) can1 22B#F8000000002B
(1537932772.068212) can1 22C#F8000000002C
(1537932772.068412) can1 22D#F8000000002D
(1537932772.069191) can1 22E#F8000000002E
(1537932772.069419) can1 22F#F8000000002F
(1537932772.070187) can1 123#0108050D400086
(1537932772.070393) can1 230#F87FFF42FC00ED
(1537932772.071220) can1 231#F801F9F00000021F
(1537932772.071456) can1 232#F800FE00FE00FE2E
(1537932772.072226) can1 3D0#7C80808080808057
(1537932772.072457) can1 3D1#7C80808080808058
(1537932772.073214) can1 3D2#7C80808080808059
(1537932772.073455) can1 3D3#7C8080808080805A
(1537932772.104211) can1 210#F9FFF8000000000A
(1537932772.104448) can1 211#F9FFF8000000000B
(1537932772.105222) can1 212#F9FFF8000000000C
(1537932772.105439) can1 213#F9FFF8000000000D
(1537932772.106235) can1 214#F9FFF8000000000E
(1537932772.106441) can1 215#F9FFF8000000000F
(1537932772.107205) can1 216#F9FFF80000000010
(1537932772.107453) can1 217#F9FFF80000000011
(1537932772.108237) can1 218#F9FFF80000000012
(1537932772.108441) can1 219#F9FFF80000000013
(1537932772.109217) can1 21A#F9FFF80000000014
(1537932772.109442) can1 21B#F9FFF80000000015
(1537932772.110220) can1 21C#F9FFF80000000016
(1537932772.110455) can1 21D#F9FFF80000000017
(1537932772.111234) can1 21E#F9FFF80000000018
(1537932772.111457) can1 21F#F9FFF80000000019
(1537932772.112238) can1 220#F900000000000023
(1537932772.112455) can1 221#F900000000000024
(1537932772.113196) can1 222#F900000000000025
(1537932772.113456) can1 223#F900000000000026
(1537932772.114213) can1 224#F900000000000027
(1537932772.114451) can1 225#F900000000000028
(1537932772.115199) can1 226#F900000000000029
(1537932772.115458) can1 227#F90000000000002A
(1537932772.116144) can1 228#F90000000029
(1537932772.116381) can1 229#F9000000002A
(1537932772.117198) can1 22A#F9000000002B
(1537932772.117388) can1 22B#F9000000002C
(1537932772.118210) can1 22C#F9000000002D
(1537932772.118406) can1 22D#F9000000002E
(1537932772.119217) can1 22E#F9000000002F
(1537932772.119412) can1 22F#F90000000030
(1537932772.120193) can1 230#F97FFF42FD00EF
(1537932772.120439) can1 231#F901F9F000000220
(1537932772.121205) can1 232#F900FE00FE00FE2F
(1537932772.154208) can1 210#FAFFF8000000000B
(1537932772.154493) can1 211#FAFFF8000000000C
(1537932772.155214) can1 212#FAFFF8000000000D
(1537932772.155450) can1 213#FAFFF8000000000E
(1537932772.156291) can1 214#FAFFF8000000000F
(1537932772.156443) can1 215#FAFFF80000000010
(1537932772.157157) can1 216#FAFFF80000000011
(1537932772.157404) can1 217#FAFFF80000000012
(1537932772.158169) can1 218#FAFFF80000000013
(1537932772.158427) can1 219#FAFFF80000000014
(1537932772.159179) can1 21A#FAFFF80000000015
(1537932772.159407) can1 21B#FAFFF80000000016
(1537932772.160167) can1 21C#FAFFF80000000017
(1537932772.160420) can1 21D#FAFFF80000000018
(1537932772.161172) can1 21E#FAFFF80000000019
(1537932772.161403) can1 21F#FAFFF8000000001A
(1537932772.162164) can1 220#FA00000000000024
(1537932772.162445) can1 221#FA00000000000025
(1537932772.163234) can1 222#FA00000000000026
(1537932772.163441) can1 223#FA00000000000027
(1537932772.164319) can1 224#FA00000000000028
(1537932772.164412) can1 225#FA00000000000029
(1537932772.165216) can1 226#FA0000000000002A
(1537932772.165441) can1 227#FA0000000000002B
(1537932772.166157) can1 228#FA000000002A
(1537932772.166389) can1 229#FA000000002B
(1537932772.167144) can1 22A#FA000000002C
(1537932772.167331) can1 22B#FA000000002D
(1537932772.168161) can1 22C#FA000000002E
(1537932772.168384) can1 22D#FA000000002F
(1537932772.169195) can1 22E#FA0000000030
(1537932772.169413) can1 22F#FA0000000031
(1537932772.170184) can1 123#0108050D400086
(1537932772.170349) can1 230#FA7FFF42FE00F1
(1537932772.171201) can1 231#FA01F9F000000221
(1537932772.171437) can1 232#FA00FE00FE00FE30
(1537932772.172220) can1 3D0#7D80808080808058
(1537932772.172450) can1 3D1#7D80808080808059
(1537932772.173190) can1 3D2#7D8080808080805A
(1537932772.173430) can1 3D3#7D8080808080805B
(1537932772.204208) can1 210#FBFFF8000000000C
(1537932772.204509) can1 211#FBFFF8000000000D
(1537932772.205330) can1 212#FBFFF8000000000E
(1537932772.205410) can1 213#FBFFF8000000000F
(1537932772.206226) can1 214#FBFFF80000000010
(1537932772.206449) can1 215#FBFFF80000000011
(1537932772.207219) can1 216#FBFFF80000000012
(1537932772.207399) can1 217#FBFFF80000000013
(1537932772.208234) can1 218#FBFFF80000000014
(1537932772.208461) can1 219#FBFFF80000000015
(1537932772.209227) can1 21A#FBFFF80000000016
(1537932772.209448) can1 21B#FBFFF80000000017
(1537932772.210230) can1 21C#FBFFF80000000018
(1537932772.210472) can1 21D#FBFFF80000000019
(1537932772.211236) can1 21E#FBFFF8000000001A
(1537932772.211402) can1 21F#FBFFF8000000001B
(1537932772.212279) can1 220#FB00000000000025
(1537932772.212453) can1 221#FB00000000000026
(1537932772.213185) can1 222#FB00000000000027
(1537932772.213474) can1 223#FB00000000000028
(1537932772.214217) can1 224#FB00000000000029
(1537932772.214445) can1 225#FB0000000000002A
(1537932772.215173) can1 226#FB0000000000002B
(1537932772.215450) can1 227#FB0000000000002C
(1537932772.216189) can1 228#FB000000002B
(1537932772.216367) can1 229#FB000000002C
(1537932772.217149) can1 22A#FB000000002D
(1537932772.217379) can1 22B#FB000000002E
(1537932772.218232) can1 22C#FB000000002F
(1537932772.218404) can1 22D#FB0000000030
(1537932772.219212) can1 22E#FB0000000031
(1537932772.219386) can1 22F#FB0000000032
(1537932772.220215) can1 230#FB7FFF42FF00F3
(1537932772.220402) can1 231#FB01F9F000000222
(1537932772.221219) can1 232#FB00FE00FE00FE31
(1537932772.254168) can1 210#FCFFF8000000000D
(1537932772.254424) can1 211#FCFFF8000000000E
(1537932772.255175) can1 212#FCFFF8000000000F
(1537932772.255448) can1 213#FCFFF80000000010
(1537932772.256296) can1 214#FCFFF80000000011
(1537932772.256482) can1 215#FCFFF80000000012
(1537932772.257217) can1 216#FCFFF80000000013
(1537932772.257450) can1 217#FCFFF80000000014
(1537932772.258234) can1 218#FCFFF80000000015
(1537932772.258459) can1 219#FCFFF80000000016
(1537932772.259224) can1 21A#FCFFF80000000017
(1537932772.259450) can1 21B#FCFFF80000000018
(1537932772.260209) can1 21C#FCFFF80000000019
(1537932772.260447) can1 21D#FCFFF8000000001A
(1537932772.261228) can1 21E#FCFFF8000000001B
(1537932772.261436) can1 21F#FCFFF8000000001C
(1537932772.262211) can1 220#FC00000000000026
(1537932772.262449) can1 221#FC00000000000027
(1537932772.263219) can1 222#FC00000000000028
(1537932772.263446) can1 223#FC00000000000029
(1537932772.264224) can1 224#FC0000000000002A
(1537932772.264461) can1 225#FC0000000000002B
(1537932772.265178) can1 226#FC0000000000002C
(1537932772.265407) can1 227#FC0000000000002D
(1537932772.266163) can1 228#FC000000002C
(1537932772.266355) can1 229#FC000000002D
(1537932772.267122) can1 22A#FC000000002E
(1537932772.267341) can1 22B#FC000000002F
(1537932772.268150) can1 22C#FC0000000030
(1537932772.268350) can1 22D#FC0000000031
(1537932772.269126) can1 22E#FC0000000032
(1537932772.269341) can1 22F#FC0000000033
(1537932772.270206) can1 123#0108050D400086
(1537932772.270377) can1 230#FC7FFF430000F6
(1537932772.271221) can1 231#FC01F9F000000223
(1537932772.271460) can1 232#FC00FE00FE00FE32
(1537932772.272213) can1 3D0#7E80808080808059
(1537932772.272439) can1 3D1#7E8080808080805A
(1537932772.273226) can1 3D2#7E8080808080805B
(1537932772.273458) can1 3D3#7E8080808080805C
(1537932772.304352) can1 210#FDFFF8000000000E
(1537932772.304385) can1 211#FDFFF8000000000F
(1537932772.305219) can1 212#FDFFF80000000010
(1537932772.305447) can1 213#FDFFF80000000011
(1537932772.306215) can1 214#FDFFF80000000012
(1537932772.306453) can1 215#FDFFF80000000013
(1537932772.307215) can1 216#FDFFF80000000014
(1537932772.307456) can1 217#FDFFF80000000015
(1537932772.308196) can1 218#FDFFF80000000016
(1537932772.308401) can1 219#FDFFF80000000017
(1537932772.309204) can1 21A#FDFFF80000000018
(1537932772.309442) can1 21B#FDFFF80000000019
(1537932772.310208) can1 21C#FDFFF8000000001A
(1537932772.310451) can1 21D#FDFFF8000000001B
(1537932772.311209) can1 21E#FDFFF8000000001C
(1537932772.311445) can1 21F#FDFFF8000000001D
(1537932772.312220) can1 220#FD00000000000027
(1537932772.312444) can1 221#FD00000000000028
(1537932772.313216) can1 222#FD00000000000029
(1537932772.313443) can1 223#FD0000000000002A
(1537932772.314213) can1 224#FD0000000000002B
(1537932772.314415) can1 225#FD0000000000002C
(1537932772.315174) can1 226#FD0000000000002D
(1537932772.315433) can1 227#FD0000000000002E
(1537932772.316153) can1 228#FD000000002D
(1537932772.316327) can1 229#FD000000002E
(1537932772.317137) can1 22A#FD000000002F
(1537932772.317323) can1 22B#FD0000000030
(1537932772.318141) can1 22C#FD0000000031
(1537932772.318369) can1 22D#FD0000000032
(1537932772.319170) can1 22E#FD0000000033
(1537932772.319367) can1 22F#FD0000000034
(1537932772.320149) can1 230#FD7FFF430100F8
(1537932772.320452) can1 231#FD01F9F000000224
(1537932772.321181) can1 232#FD00FE00FE00FE33
(1537932772.354209) can1 210#FEFFF8000000000F
(1537932772.354456) can1 211#FEFFF80000000010
(1537932772.355230) can1 212#FEFFF80000000011
(1537932772.355455) can1 213#FEFFF80000000012
(1537932772.356240) can1 214#FEFFF80000000013
(1537932772.356427) can1 215#FEFFF80000000014
(1537932772.357191) can1 216#FEFFF80000000015
(1537932772.357403) can1 217#FEFFF80000000016
(1537932772.358174) can1 218#FEFFF80000000017
(1537932772.358405) can1 219#FEFFF80000000018
(1537932772.359191) can1 21A#FEFFF80000000019
(1537932772.359404) can1 21B#FEFFF8000000001A
(1537932772.360164) can1 21C#FEFFF8000000001B
(1537932772.360413) can1 21D#FEFFF8000000001C
(1537932772.361175) can1 21E#FEFFF8000000001D
(1537932772.361412) can1 21F#FEFFF8000000001E
(1537932772.362175) can1 220#FE00000000000028
(1537932772.362451) can1 221#FE00000000000029
(1537932772.363199) can1 222#FE0000000000002A
(1537932772.363440) can1 223#FE0000000000002B
(1537932772.364208) can1 224#FE0000000000002C
(1537932772.364447) can1 225#FE0000000000002D
(1537932772.365215) can1 226#FE0000000000002E
(1537932772.365447) can1 227#FE0000000000002F
(1537932772.366155) can1 228#FE000000002E
(1537932772.366404) can1 229#FE000000002F
(1537932772.367182) can1 22A#FE0000000030
(1537932772.367381) can1 22B#FE0000000031
(1537932772.368213) can1 22C#FE0000000032
(1537932772.368391) can1 22D#FE0000000033
(1537932772.369176) can1 22E#FE0000000034
(1537932772.369394) can1 22F#FE0000000035
(1537932772.370158) can1 123#0108050D400086
(1537932772.370363) can1 230#FE7FFF430200FA
(1537932772.371172) can1 231#FE01F9F000000225
(1537932772.371410) can1 232#FE00FE00FE00FE34
(1537932772.372176) can1 3D0#7F8080808080805A
(1537932772.372411) can1 3D1#7F8080808080805B
(1537932772.373170) can1 3D2#7F8080808080805C
(1537932772.373410) can1 3D3#7F8080808080805D
(1537932772.404211) can1 210#FFFFF80000000010
(1537932772.404449) can1 211#FFFFF80000000011
(1537932772.405221) can1 212#FFFFF80000000012
(1537932772.405444) can1 213#FFFFF80000000013
(1537932772.406233) can1 214#FFFFF80000000014
(1537932772.406481) can1 215#FFFFF80000000015
(1537932772.407233) can1 216#FFFFF80000000016
(1537932772.407489) can1 217#FFFFF80000000017
(1537932772.408226) can1 218#FFFFF80000000018
(1537932772.408414) can1 219#FFFFF80000000019
(1537932772.409232) can1 21A#FFFFF8000000001A
(1537932772.409439) can1 21B#FFFFF8000000001B
(1537932772.410210) can1 21C#FFFFF8000000001C
(1537932772.410444) can1 21D#FFFFF8000000001D
(1537932772.411223) can1 21E#FFFFF8000000001E
(1537932772.411449) can1 21F#FFFFF8000000001F
(1537932772.412215) can1 220#FF00000000000029
(1537932772.412453) can1 221#FF0000000000002A
(1537932772.413208) can1 222#FF0000000000002B
(1537932772.413446) can1 223#FF0000000000002C
(1537932772.414217) can1 224#FF0000000000002D
(1537932772.414440) can1 225#FF0000000000002E
(1537932772.415210) can1 226#FF0000000000002F
(1537932772.415465) can1 227#FF00000000000030
(1537932772.416226) can1 228#FF000000002F
(1537932772.416390) can1 229#FF0000000030
(1537932772.417129) can1 22A#FF0000000031
(1537932772.417394) can1 22B#FF0000000032
(1537932772.418215) can1 22C#FF0000000033
(1537932772.418400) can1 22D#FF0000000034
(1537932772.419173) can1 22E#FF0000000035
(1537932772.419396) can1 22F#FF0000000036
(1537932772.420197) can1 230#FF7FFF430300FC
(1537932772.420424) can1 231#FF01F9F000000226
(1537932772.421207) can1 232#FF00FE00FE00FE35
(1537932772.454214) can1 210#00FFF80000000011
(1537932772.454447) can1 211#00FFF80000000012
(1537932772.455194) can1 212#00FFF80000000013
(1537932772.455463) can1 213#00FFF80000000014
(1537932772.456315) can1 214#00FFF80000000015
(1537932772.456425) can1 215#00FFF80000000016
(1537932772.457347) can1 216#00FFF80000000017
(1537932772.457392) can1 217#00FFF80000000018
(1537932772.458211) can1 218#00FFF80000000019
(1537932772.458449) can1 219#00FFF8000000001A
(1537932772.459218) can1 21A#00FFF8000000001B
(1537932772.459442) can1 21B#00FFF8000000001C
(1537932772.460211) can1 21C#00FFF8000000001D
(1537932772.460437) can1 21D#00FFF8000000001E
(1537932772.461211) can1 21E#00FFF8000000001F
(1537932772.461456) can1 21F#00FFF80000000020
(1537932772.462216) can1 220#000000000000002A
(1537932772.462483) can1 221#000000000000002B
(1537932772.463212) can1 222#000000000000002C
(1537932772.463439) can1 223#000000000000002D
(1537932772.464215) can1 224#000000000000002E
(1537932772.464458) can1 225#000000000000002F
(1537932772.465217) can1 226#0000000000000030
(1537932772.465441) can1 227#0000000000000031
(1537932772.466121) can1 228#000000000030
(1537932772.466363) can1 229#000000000031
(1537932772.467092) can1 22A#000000000032
(1537932772.467340) can1 22B#000000000033
(1537932772.468207) can1 22C#000000000034
(1537932772.468361) can1 22D#000000000035
(1537932772.469191) can1 22E#000000000036
(1537932772.469400) can1 22F#000000000037
(1537932772.470209) can1 123#0108050D400086
(1537932772.470376) can1 230#007FFF430400FE
(1537932772.471206) can1 231#0001F9F000000227
(1537932772.471450) can1 232#0000FE00FE00FE36
(1537932772.472220) can1 3D0#808080808080805B
(1537932772.472428) can1 3D1#808080808080805C
(1537932772.473163) can1 3D2#808080808080805D
(1537932772.473394) can1 3D3#808080808080805E
(1537932772.504163) can1 210#01FFF80000000012
(1537932772.504412) can1 211#01FFF80000000013
(1537932772.505163) can1 212#01FFF80000000014
(1537932772.505447) can1 213#01FFF80000000015
(1537932772.506160) can1 214#01FFF80000000016
(1537932772.506410) can1 215#01FFF80000000017
(1537932772.507168) can1 216#01FFF80000000018
(1537932772.507407) can1 217#01FFF80000000019
(1537932772.508166) can1 218#01FFF8000000001A
(1537932772.508423) can1 219#01FFF8000000001B
(1537932772.509255) can1 21A#01FFF8000000001C
(1537932772.509410) can1 21B#01FFF8000000001D
(1537932772.510169) can1 21C#01FFF8000000001E
(1537932772.510408) can1 21D#01FFF8000000001F
(1537932772.511169) can1 21E#01FFF80000000020
(1537932772.511408) can1 21F#01FFF80000000021
(1537932772.512166) can1 220#010000000000002B
(1537932772.512408) can1 221#010000000000002C
(1537932772.513165) can1 222#010000000000002D
(1537932772.513394) can1 223#010000000000002E
(1537932772.514153) can1 224#010000000000002F
(1537932772.514409) can1 225#0100000000000030
(1537932772.515168) can1 226#0100000000000031
(1537932772.515423) can1 227#0100000000000032
(1537932772.516141) can1 228#010000000031
(1537932772.516359) can1 229#010000000032
(1537932772.517117) can1 22A#010000000033
(1537932772.517338) can1 22B#010000000034
(1537932772.518154) can1 22C#010000000035
(1537932772.518359) can1 22D#010000000036
(1537932772.519118) can1 22E#010000000037
(1537932772.519347) can1 22F#010000000038
(1537932772.520153) can1 230#017FFF43050000
(1537932772.520410) can1 231#0101F9F000000228
(1537932772.521168) can1 232#0100FE00FE00FE37
(1537932772.554154) can1 210#02FFF80000000013
(1537932772.554410) can1 211#02FFF80000000014
(1537932772.555169) can1 212#02FFF80000000015
(1537932772.555417) can1 213#02FFF80000000016
(1537932772.556183) can1 214#02FFF80000000017
(1537932772.556394) can1 215#02FFF80000000018
(1537932772.557153) can1 216#02FFF80000000019
(1537932772.557408) can1 217#02FFF8000000001A
(1537932772.558183) can1 218#02FFF8000000001B
(1537932772.558389) can1 219#02FFF8000000001C
(1537932772.559153) can1 21A#02FFF8000000001D
(1537932772.559409) can1 21B#02FFF8000000001E
(1537932772.560168) can1 21C#02FFF8000000001F
(1537932772.560407) can1 21D#02FFF80000000020
(1537932772.561163) can1 21E#02FFF80000000021
(1537932772.561396) can1 21F#02FFF80000000022
(1537932772.562154) can1 220#020000000000002C
(1537932772.562409) can1 221#020000000000002D
(1537932772.563182) can1 222#020000000000002E
(1537932772.563389) can1 223#020000000000002F
(1537932772.564152) can1 224#0200000000000030
(1537932772.564409) can1 225#0200000000000031
(1537932772.565179) can1 226#0200000000000032
(1537932772.565395) can1 227#0200000000000033
(1537932772.566152) can1 228#020000000032
(1537932772.566315) can1 229#020000000033
(1537932772.567111) can1 22A#020000000034
(1537932772.567337) can1 22B#020000000035
(1537932772.568152) can1 22C#020000000036
(1537932772.568377) can1 22D#020000000037
(1537932772.569155) can1 22E#020000000038
(1537932772.569360) can1 22F#020000000039
(1537932772.570129) can1 123#0108050D400086
(1537932772.570358) can1 230#027FFF43060002
(1537932772.571169) can1 231#0201F9F000000229
(1537932772.571406) can1 232#0200FE00FE00FE38
(1537932772.572167) can1 3D0#818080808080805C
(1537932772.572406) can1 3D1#818080808080805D
(1537932772.573182) can1 3D2#818080808080805E
(1537932772.573391) can1 3D3#818080808080805F
(1537932772.604214) can1 210#03FFF80000000014
(1537932772.604490) can1 211#03FFF80000000015
(1537932772.605211) can1 212#03FFF80000000016
(1537932772.605443) can1 213#03FFF80000000017
(1537932772.606224) can1 214#03FFF80000000018
(1537932772.606457) can1 215#03FFF80000000019
(1537932772.607177) can1 216#03FFF8000000001A
(1537932772.607453) can1 217#03FFF8000000001B
(1537932772.608232) can1 218#03FFF8000000001C
(1537932772.608420) can1 219#03FFF8000000001D
(1537932772.609278) can1 21A#03FFF8000000001E
(1537932772.609449) can1 21B#03FFF8000000001F
(1537932772.610218) can1 21C#03FFF80000000020
(1537932772.610489) can1 21D#03FFF80000000021
(1537932772.611210) can1 21E#03FFF80000000022
(1537932772.611421) can1 21F#03FFF80000000023
(1537932772.612186) can1 220#030000000000002D
(1537932772.612433) can1 221#030000000000002E
(1537932772.613169) can1 222#030000000000002F
(1537932772.613407) can1 223#0300000000000030
(1537932772.614166) can1 224#0300000000000031
(1537932772.614463) can1 225#0300000000000032
(1537932772.615184) can1 226#0300000000000033
(1537932772.615401) can1 227#0300000000000034
(1537932772.616083) can1 228#030000000033
(1537932772.616329) can1 229#030000000034
(1537932772.617148) can1 22A#030000000035
(1537932772.617309) can1 22B#030000000036
(1537932772.618129) can1 22C#030000000037
(1537932772.618357) can1 22D#030000000038
(1537932772.619112) can1 22E#030000000039
(1537932772.619331) can1 22F#03000000003A
(1537932772.620206) can1 230#037FFF43070004
(1537932772.620457) can1 231#0301F9F00000022A
(1537932772.621163) can1 232#0300FE00FE00FE39
(1537932772.654204) can1 210#04FFF80000000015
(1537932772.654434) can1 211#04FFF80000000016
(1537932772.655219) can1 212#04FFF80000000017
(1537932772.655446) can1 213#04FFF80000000018
(1537932772.656223) can1 214#04FFF80000000019
(1537932772.656473) can1 215#04FFF8000000001A
(1537932772.657206) can1 216#04FFF8000000001B
(1537932772.657451) can1 217#04FFF8000000001C
(1537932772.658162) can1 218#04FFF8000000001D
(1537932772.658439) can1 219#04FFF8000000001E
(1537932772.659223) can1 21A#04FFF8000000001F
(1537932772.659448) can1 21B#04FFF80000000020
(1537932772.660228) can1 21C#04FFF80000000021
(1537932772.660421) can1 21D#04FFF80000000022
(1537932772.661186) can1 21E#04FFF80000000023
(1537932772.661439) can1 21F#04FFF80000000024
(1537932772.662230) can1 220#040000000000002E
(1537932772.662472) can1 221#040000000000002F
(1537932772.663212) can1 222#0400000000000030
(1537932772.663455) can1 223#0400000000000031
(1537932772.664205) can1 224#0400000000000032
(1537932772.664469) can1 225#0400000000000033
(1537932772.665230) can1 226#0400000000000034
(1537932772.665449) can1 227#0400000000000035
(1537932772.666112) can1 228#040000000034
(1537932772.666364) can1 229#040000000035
(1537932772.667146) can1 22A#040000000036
(1537932772.667379) can1 22B#040000000037
(1537932772.668144) can1 22C#040000000038
(1537932772.668362) can1 22D#040000000039
(1537932772.669186) can1 22E#04000000003A
(1537932772.669394) can1 22F#04000000003B
(1537932772.670167) can1 123#0108050D400086
(1537932772.670379) can1 230#047FFF43080006
(1537932772.671203) can1 231#0401F9F00000022B
(1537932772.671437) can1 232#0400FE00FE00FE3A
(1537932772.672211) can1 3D0#828080808080805D
(1537932772.672443) can1 3D1#828080808080805E
(1537932772.673212) can1 3D2#828080808080805F
(1537932772.673453) can1 3D3#8280808080808060
(1537932772.704203) can1 210#05FFF80000000016
(1537932772.704486) can1 211#05FFF80000000017
(1537932772.705210) can1 212#05FFF80000000018
(1537932772.705448) can1 213#05FFF80000000019
(1537932772.706226) can1 214#05FFF8000000001A
(1537932772.706436) can1 215#05FFF8000000001B
(1537932772.707226) can1 216#05FFF8000000001C
(1537932772.707450) can1 217#05FFF8000000001D
(1537932772.708226) can1 218#05FFF8000000001E
(1537932772.708453) can1 219#05FFF8000000001F
(1537932772.709243) can1 21A#05FFF80000000020
(1537932772.709436) can1 21B#05FFF80000000021
(1537932772.710217) can1 21C#05FFF80000000022
(1537932772.710452) can1 21D#05FFF80000000023
(1537932772.711237) can1 21E#05FFF80000000024
(1537932772.711445) can1 21F#05FFF80000000025
(1537932772.712228) can1 220#050000000000002F
(1537932772.712437) can1 221#0500000000000030
(1537932772.713224) can1 222#0500000000000031
(1537932772.713438) can1 223#0500000000000032
(1537932772.714238) can1 224#0500000000000033
(1537932772.714445) can1 225#0500000000000034
(1537932772.715215) can1 226#0500000000000035
(1537932772.715434) can1 227#0500000000000036
(1537932772.716187) can1 228#050000000035
(1537932772.716409) can1 229#050000000036
(1537932772.717188) can1 22A#050000000037
(1537932772.717384) can1 22B#050000000038
(1537932772.718208) can1 22C#050000000039
(1537932772.718395) can1 22D#05000000003A
(1537932772.719184) can1 22E#05000000003B
(1537932772.719383) can1 22F#05000000003C
(1537932772.720208) can1 230#057FFF43090008
(1537932772.720429) can1 231#0501F9F00000022C
(1537932772.721166) can1 232#0500FE00FE00FE3B
(1537932772.754164) can1 210#06FFF80000000017
(1537932772.754453) can1 211#06FFF80000000018
(1537932772.755234) can1 212#06FFF80000000019
(1537932772.755442) can1 213#06FFF8000000001A
(1537932772.756231) can1 214#06FFF8000000001B
(1537932772.756472) can1 215#06FFF8000000001C
(1537932772.757232) can1 216#06FFF8000000001D
(1537932772.757457) can1 217#06FFF8000000001E
(1537932772.758201) can1 218#06FFF8000000001F
(1537932772.758464) can1 219#06FFF80000000020
(1537932772.759212) can1 21A#06FFF80000000021
(1537932772.759435) can1 21B#06FFF80000000022
(1537932772.760209) can1 21C#06FFF80000000023
(1537932772.760437) can1 21D#06FFF80000000024
(1537932772.761208) can1 21E#06FFF80000000025
(1537932772.761455) can1 21F#06FFF80000000026
(1537932772.762190) can1 220#0600000000000030
(1537932772.762453) can1 221#0600000000000031
(1537932772.763218) can1 222#0600000000000032
(1537932772.763451) can1 223#0600000000000033
(1537932772.764168) can1 224#0600000000000034
(1537932772.764441) can1 225#0600000000000035
(1537932772.765221) can1 226#0600000000000036
(1537932772.765437) can1 227#0600000000000037
(1537932772.766153) can1 228#060000000036
(1537932772.766365) can1 229#060000000037
(1537932772.767191) can1 22A#060000000038
(1537932772.767367) can1 22B#060000000039
(1537932772.768196) can1 22C#06000000003A
(1537932772.768377) can1 22D#06000000003B
(1537932772.769199) can1 22E#06000000003C
(1537932772.769369) can1 22F#06000000003D
(1537932772.770187) can1 123#0108050D400086
(1537932772.770375) can1 230#067FFF430A000A
(1537932772.771197) can1 231#0601F9F00000022D
(1537932772.771462) can1 232#0600FE00FE00FE3C
(1537932772.772227) can1 3D0#838080808080805E
(1537932772.772390) can1 3D1#838080808080805F
(1537932772.773208) can1 3D2#8380808080808060
(1537932772.773445) can1 3D3#8380808080808061
(1537932772.804198) can1 210#07FFF80000000018
(1537932772.804412) can1 211#07FFF80000000019
(1537932772.805196) can1 212#07FFF8000000001A
(1537932772.805428) can1 213#07FFF8000000001B
(1537932772.806203) can1 214#07FFF8000000001C
(1537932772.806424) can1 215#07FFF8000000001D
(1537932772.807198) can1 216#07FFF8000000001E
(1537932772.807435) can1 217#07FFF8000000001F
(1537932772.808212) can1 218#07FFF80000000020
(1537932772.808422) can1 219#07FFF80000000021
(1537932772.809202) can1 21A#07FFF80000000022
(1537932772.809439) can1 21B#07FFF80000000023
(1537932772.810208) can1 21C#07FFF80000000024
(1537932772.810425) can1 21D#07FFF80000000025
(1537932772.811202) can1 21E#07FFF80000000026
(1537932772.811436) can1 21F#07FFF80000000027
(1537932772.812212) can1 220#0700000000000031
(1537932772.812432) can1 221#0700000000000032
(1537932772.813222) can1 222#0700000000000033
(1537932772.813432) can1 223#0700000000000034
(1537932772.814200) can1 224#0700000000000035
(1537932772.814434) can1 225#0700000000000036
(1537932772.815211) can1 226#0700000000000037
(1537932772.815435) can1 227#0700000000000038
(1537932772.816208) can1 228#070000000037
(1537932772.816368) can1 229#070000000038
(1537932772.817127) can1 22A#070000000039
(1537932772.817362) can1 22B#07000000003A
(1537932772.818204) can1 22C#07000000003B
(1537932772.818341) can1 22D#07000000003C
(1537932772.819149) can1 22E#07000000003D
(1537932772.819344) can1 22F#07000000003E
(1537932772.820157) can1 230#077FFF430B000C
(1537932772.820416) can1 231#0701F9F00000022E
(1537932772.821166) can1 232#0700FE00FE00FE3D
(1537932772.854166) can1 210#08FFF80000000019
(1537932772.854417) can1 211#08FFF8000000001A
(1537932772.855177) can1 212#08FFF8000000001B
(1537932772.855414) can1 213#08FFF8000000001C
(1537932772.856170) can1 214#08FFF8000000001D
(1537932772.856444) can1 215#08FFF8000000001E
(1537932772.857160) can1 216#08FFF8000000001F
(1537932772.857426) can1 217#08FFF80000000020
(1537932772.858256) can1 218#08FFF80000000021
(1537932772.858403) can1 219#08FFF80000000022
(1537932772.859161) can1 21A#08FFF80000000023
(1537932772.859390) can1 21B#08FFF80000000024
(1537932772.860148) can1 21C#08FFF80000000025
(1537932772.860407) can1 21D#08FFF80000000026
(1537932772.861165) can1 21E#08FFF80000000027
(1537932772.861406) can1 21F#08FFF80000000028
(1537932772.862165) can1 220#0800000000000032
(1537932772.862404) can1 221#0800000000000033
(1537932772.863165) can1 222#0800000000000034
(1537932772.863404) can1 223#0800000000000035
(1537932772.864162) can1 224#0800000000000036
(1537932772.864403) can1 225#0800000000000037
(1537932772.865161) can1 226#0800000000000038
(1537932772.865390) can1 227#0800000000000039
(1537932772.866110) can1 228#080000000038
(1537932772.866336) can1 229#080000000039
(1537932772.867110) can1 22A#08000000003A
(1537932772.867333) can1 22B#08000000003B
(1537932772.868151) can1 22C#08000000003C
(1537932772.868362) can1 22D#08000000003D
(1537932772.869125) can1 22E#08000000003E
(1537932772.869355) can1 22F#08000000003F
(1537932772.870120) can1 123#0108050D400086
(1537932772.870335) can1 230#087FFF430C000E
(1537932772.871149) can1 231#0801F9F00000022F
(1537932772.871406) can1 232#0800FE00FE00FE3E
(1537932772.872217) can1 3D0#848080808080805F
(1537932772.872441) can1 3D1#8480808080808060
(1537932772.873210) can1 3D2#8480808080808061
(1537932772.873434) can1 3D3#8480808080808062
(1537932772.904203) can1 210#09FFF8000000001A
(1537932772.904439) can1 211#09FFF8000000001B
(1537932772.905221) can1 212#09FFF8000000001C
(1537932772.905446) can1 213#09FFF8000000001D
(1537932772.906300) can1 214#09FFF8000000001E
(1537932772.906455) can1 215#09FFF8000000001F
(1537932772.907294) can1 216#09FFF80000000020
(1537932772.907452) can1 217#09FFF80000000021
(1537932772.908290) can1 218#09FFF80000000022
(1537932772.908436) can1 219#09FFF80000000023
(1537932772.909206) can1 21A#09FFF80000000024
(1537932772.909452) can1 21B#09FFF80000000025
(1537932772.910210) can1 21C#09FFF80000000026
(1537932772.910432) can1 21D#09FFF80000000027
(1537932772.911208) can1 21E#09FFF80000000028
(1537932772.911432) can1 21F#09FFF80000000029
(1537932772.912203) can1 220#0900000000000033
(1537932772.912437) can1 221#0900000000000034
(1537932772.913215) can1 222#0900000000000035
(1537932772.913436) can1 223#0900000000000036
(1537932772.914170) can1 224#0900000000000037
(1537932772.914399) can1 225#0900000000000038
(1537932772.915162) can1 226#0900000000000039
(1537932772.915407) can1 227#090000000000003A
(1537932772.916111) can1 228#090000000039
(1537932772.916343) can1 229#09000000003A
(1537932772.917118) can1 22A#09000000003B
(1537932772.917336) can1 22B#09000000003C
(1537932772.918155) can1 22C#09000000003D
(1537932772.918363) can1 22D#09000000003E
(1537932772.919161) can1 22E#09000000003F
(1537932772.919349) can1 22F#090000000040
(1537932772.920159) can1 230#097FFF430D0010
(1537932772.920429) can1 231#0901F9F000000230
(1537932772.921167) can1 232#0900FE00FE00FE3F
(1537932772.954159) can1 210#0AFFF8000000001B
(1537932772.954406) can1 211#0AFFF8000000001C
(1537932772.955163) can1 212#0AFFF8000000001D
(1537932772.955403) can1 213#0AFFF8000000001E
(1537932772.956251) can1 214#0AFFF8000000001F
(1537932772.956407) can1 215#0AFFF80000000020
(1537932772.957174) can1 216#0AFFF80000000021
(1537932772.957388) can1 217#0AFFF80000000022
(1537932772.958148) can1 218#0AFFF80000000023
(1537932772.958405) can1 219#0AFFF80000000024
(1537932772.959163) can1 21A#0AFFF80000000025
(1537932772.959401) can1 21B#0AFFF80000000026
(1537932772.960161) can1 21C#0AFFF80000000027
(1537932772.960402) can1 21D#0AFFF80000000028
(1537932772.961160) can1 21E#0AFFF80000000029
(1537932772.961403) can1 21F#0AFFF8000000002A
(1537932772.962169) can1 220#0A00000000000034
(1537932772.962410) can1 221#0A00000000000035
(1537932772.963202) can1 222#0A00000000000036
(1537932772.963405) can1 223#0A00000000000037
(1537932772.964178) can1 224#0A00000000000038
(1537932772.964449) can1 225#0A00000000000039
(1537932772.965226) can1 226#0A0000000000003A
(1537932772.965450) can1 227#0A0000000000003B
(1537932772.966283) can1 228#0A000000003A
(1537932772.966309) can1 229#0A000000003B
(1537932772.967261) can1 22A#0A000000003C
(1537932772.967326) can1 22B#0A000000003D
(1537932772.968301) can1 22C#0A000000003E
(1537932772.968357) can1 22D#0A000000003F
(1537932772.969287) can1 22E#0A0000000040
(1537932772.969351) can1 22F#0A0000000041
(1537932772.970179) can1 123#0108050D400086
(1537932772.970389) can1 230#0A7FFF430E0012
(1537932772.971211) can1 231#0A01F9F000000231
(1537932772.971444) can1 232#0A00FE00FE00FE40
(1537932772.972219) can1 3D0#8580808080808060
(1537932772.972443) can1 3D1#8580808080808061
(1537932772.973218) can1 3D2#8580808080808062
(1537932772.973453) can1 3D3#8580808080808063
(1537932773.004212) can1 210#0BFFF8000000001C
(1537932773.004443) can1 211#0BFFF8000000001D
(1537932773.005233) can1 212#0BFFF8000000001E
(1537932773.005445) can1 213#0BFFF8000000001F
(1537932773.006226) can1 214#0BFFF80000000020
(1537932773.006450) can1 215#0BFFF80000000021
(1537932773.007221) can1 216#0BFFF80000000022
(1537932773.007442) can1 217#0BFFF80000000023
(1537932773.008179) can1 218#0BFFF80000000024
(1537932773.008432) can1 219#0BFFF80000000025
(1537932773.009209) can1 21A#0BFFF80000000026
(1537932773.009415) can1 21B#0BFFF80000000027
(1537932773.010160) can1 21C#0BFFF80000000028
(1537932773.010413) can1 21D#0BFFF80000000029
(1537932773.011171) can1 21E#0BFFF8000000002A
(1537932773.011411) can1 21F#0BFFF8000000002B
(1537932773.012251) can1 220#0B00000000000035
(1537932773.012405) can1 221#0B00000000000036
(1537932773.013159) can1 222#0B00000000000037
(1537932773.013410) can1 223#0B00000000000038
(1537932773.014168) can1 224#0B00000000000039
(1537932773.014393) can1 225#0B0000000000003A
(1537932773.015158) can1 226#0B0000000000003B
(1537932773.015409) can1 227#0B0000000000003C
(1537932773.016132) can1 228#0B000000003B
(1537932773.016354) can1 229#0B000000003C
(1537932773.017080) can1 22A#0B000000003D
(1537932773.017341) can1 22B#0B000000003E
(1537932773.018142) can1 22C#0B000000003F
(1537932773.018350) can1 22D#0B0000000040
(1537932773.019156) can1 22E#0B0000000041
(1537932773.019358) can1 22F#0B0000000042
(1537932773.020198) can1 230#0B7FFF430F0014
(1537932773.020460) can1 231#0B01F9F000000232
(1537932773.021220) can1 232#0B00FE00FE00FE41
(1537932773.054199) can1 210#0CFFF8000000001D
(1537932773.054430) can1 211#0CFFF8000000001E
(1537932773.055208) can1 212#0CFFF8000000001F
(1537932773.055429) can1 213#0CFFF80000000020
(1537932773.056219) can1 214#0CFFF80000000021
(1537932773.056451) can1 215#0CFFF80000000022
(1537932773.057212) can1 216#0CFFF80000000023
(1537932773.057431) can1 217#0CFFF80000000024
(1537932773.058202) can1 218#0CFFF80000000025
(1537932773.058429) can1 219#0CFFF80000000026
(1537932773.059198) can1 21A#0CFFF80000000027
(1537932773.059431) can1 21B#0CFFF80000000028
(1537932773.060209) can1 21C#0CFFF80000000029
(1537932773.060433) can1 21D#0CFFF8000000002A
(1537932773.061203) can1 21E#0CFFF8000000002B
(1537932773.061429) can1 21F#0CFFF8000000002C
(1537932773.062202) can1 220#0C00000000000036
(1537932773.062427) can1 221#0C00000000000037
(1537932773.063198) can1 222#0C00000000000038
(1537932773.063423) can1 223#0C00000000000039
(1537932773.064208) can1 224#0C0000000000003A
(1537932773.064450) can1 225#0C0000000000003B
(1537932773.065201) can1 226#0C0000000000003C
(1537932773.065439) can1 227#0C0000000000003D
(1537932773.066170) can1 228#0C000000003C
(1537932773.066354) can1 229#0C000000003D
(1537932773.067182) can1 22A#0C000000003E
(1537932773.067361) can1 22B#0C000000003F
(1537932773.068142) can1 22C#0C0000000040
(1537932773.068374) can1 22D#0C0000000041
(1537932773.069199) can1 22E#0C0000000042
(1537932773.069366) can1 22F#0C0000000043
(1537932773.070186) can1 123#0108050D400086
(1537932773.070365) can1 230#0C7FFF43100016
(1537932773.071195) can1 231#0C01F9F000000233
(1537932773.071400) can1 232#0C00FE00FE00FE42
(1537932773.072157) can1 3D0#8680808080808061
(1537932773.072415) can1 3D1#8680808080808062
(1537932773.073174) can1 3D2#8680808080808063
(1537932773.073437) can1 3D3#8680808080808064
(1537932773.104242) can1 210#0DFFF8000000001E
(1537932773.104465) can1 211#0DFFF8000000001F
(1537932773.105185) can1 212#0DFFF80000000020
(1537932773.105441) can1 213#0DFFF80000000021
(1537932773.106258) can1 214#0DFFF80000000022
(1537932773.106410) can1 215#0DFFF80000000023
(1537932773.107181) can1 216#0DFFF80000000024
(1537932773.107408) can1 217#0DFFF80000000025
(1537932773.108173) can1 218#0DFFF80000000026
(1537932773.108412) can1 219#0DFFF80000000027
(1537932773.109163) can1 21A#0DFFF80000000028
(1537932773.109398) can1 21B#0DFFF80000000029
(1537932773.110156) can1 21C#0DFFF8000000002A
(1537932773.110434) can1 21D#0DFFF8000000002B
(1537932773.111184) can1 21E#0DFFF8000000002C
(1537932773.111395) can1 21F#0DFFF8000000002D
(1537932773.112169) can1 220#0D00000000000037
(1537932773.112409) can1 221#0D00000000000038
(1537932773.113162) can1 222#0D00000000000039
(1537932773.113406) can1 223#0D0000000000003A
(1537932773.114157) can1 224#0D0000000000003B
(1537932773.114412) can1 225#0D0000000000003C
(1537932773.115214) can1 226#0D0000000000003D
(1537932773.115436) can1 227#0D0000000000003E
(1537932773.116172) can1 228#0D000000003D
(1537932773.116351) can1 229#0D000000003E
(1537932773.117284) can1 22A#0D000000003F
(1537932773.117308) can1 22B#0D0000000040
(1537932773.118131) can1 22C#0D0000000041
(1537932773.118367) can1 22D#0D0000000042
(1537932773.119170) can1 22E#0D0000000043
(1537932773.119346) can1 22F#0D0000000044
(1537932773.120190) can1 230#0D7FFF43110018
(1537932773.120433) can1 231#0D01F9F000000234
(1537932773.121202) can1 232#0D00FE00FE00FE43
(1537932773.154207) can1 210#0EFFF8000000001F
(1537932773.154466) can1 211#0EFFF80000000020
(1537932773.155198) can1 212#0EFFF80000000021
(1537932773.155429) can1 213#0EFFF80000000022
(1537932773.156223) can1 214#0EFFF80000000023
(1537932773.156480) can1 215#0EFFF80000000024
(1537932773.157198) can1 216#0EFFF80000000025
(1537932773.157445) can1 217#0EFFF80000000026
(1537932773.158223) can1 218#0EFFF80000000027
(1537932773.158444) can1 219#0EFFF80000000028
(1537932773.159224) can1 21A#0EFFF80000000029
(1537932773.159451) can1 21B#0EFFF8000000002A
(1537932773.160208) can1 21C#0EFFF8000000002B
(1537932773.160424) can1 21D#0EFFF8000000002C
(1537932773.161201) can1 21E#0EFFF8000000002D
(1537932773.161431) can1 21F#0EFFF8000000002E
(1537932773.162205) can1 220#0E00000000000038
(1537932773.162443) can1 221#0E00000000000039
(1537932773.163206) can1 222#0E0000000000003A
(1537932773.163419) can1 223#0E0000000000003B
(1537932773.164188) can1 224#0E0000000000003C
(1537932773.164431) can1 225#0E0000000000003D
(1537932773.165294) can1 226#0E0000000000003E
(1537932773.165404) can1 227#0E0000000000003F
(1537932773.166144) can1 228#0E000000003E
(1537932773.166394) can1 229#0E000000003F
(1537932773.167173) can1 22A#0E0000000040
(1537932773.167370) can1 22B#0E0000000041
(1537932773.168145) can1 22C#0E0000000042
(1537932773.168363) can1 22D#0E0000000043
(1537932773.169139) can1 22E#0E0000000044
(1537932773.169339) can1 22F#0E0000000045
(1537932773.170150) can1 123#0108050D400086
(1537932773.170355) can1 230#0E7FFF4312001A
(1537932773.171169) can1 231#0E01F9F000000235
(1537932773.171396) can1 232#0E00FE00FE00FE44
(1537932773.172155) can1 3D0#8780808080808062
(1537932773.172414) can1 3D1#8780808080808063
(1537932773.173167) can1 3D2#8780808080808064
(1537932773.173447) can1 3D3#8780808080808065
(1537932773.204158) can1 210#0FFFF80000000020
(1537932773.204414) can1 211#0FFFF80000000021
(1537932773.205162) can1 212#0FFFF80000000022
(1537932773.205400) can1 213#0FFFF80000000023
(1537932773.206155) can1 214#0FFFF80000000024
(1537932773.206415) can1 215#0FFFF80000000025
(1537932773.207166) can1 216#0FFFF80000000026
(1537932773.207395) can1 217#0FFFF80000000027
(1537932773.208163) can1 218#0FFFF80000000028
(1537932773.208401) can1 219#0FFFF80000000029
(1537932773.209160) can1 21A#0FFFF8000000002A
(1537932773.209413) can1 21B#0FFFF8000000002B
(1537932773.210157) can1 21C#0FFFF8000000002C
(1537932773.210435) can1 21D#0FFFF8000000002D
(1537932773.211144) can1 21E#0FFFF8000000002E
(1537932773.211400) can1 21F#0FFFF8000000002F
(1537932773.212159) can1 220#0F00000000000039
(1537932773.212398) can1 221#0F0000000000003A
(1537932773.213156) can1 222#0F0000000000003B
(1537932773.213386) can1 223#0F0000000000003C
(1537932773.214144) can1 224#0F0000000000003D
(1537932773.214401) can1 225#0F0000000000003E
(1537932773.215160) can1 226#0F0000000000003F
(1537932773.215398) can1 227#0F00000000000040
(1537932773.216119) can1 228#0F000000003F
(1537932773.216369) can1 229#0F0000000040
(1537932773.217144) can1 22A#0F0000000041
(1537932773.217307) can1 22B#0F0000000042
(1537932773.218155) can1 22C#0F0000000043
(1537932773.218325) can1 22D#0F0000000044
(1537932773.219136) can1 22E#0F0000000045
(1537932773.219343) can1 22F#0F0000000046
(1537932773.220143) can1 230#0F7FFF4313001C
(1537932773.220389) can1 231#0F01F9F000000236
(1537932773.221198) can1 232#0F00FE00FE00FE45
(1537932773.254143) can1 210#10FFF80000000021
(1537932773.254397) can1 211#10FFF80000000022
(1537932773.255167) can1 212#10FFF80000000023
(1537932773.255380) can1 213#10FFF80000000024
(1537932773.256153) can1 214#10FFF80000000025
(1537932773.256417) can1 215#10FFF80000000026
(1537932773.257168) can1 216#10FFF80000000027
(1537932773.257382) can1 217#10FFF80000000028
(1537932773.258147) can1 218#10FFF80000000029
(1537932773.258397) can1 219#10FFF8000000002A
(1537932773.259166) can1 21A#10FFF8000000002B
(1537932773.259380) can1 21B#10FFF8000000002C
(1537932773.260147) can1 21C#10FFF8000000002D
(1537932773.260407) can1 21D#10FFF8000000002E
(1537932773.261127) can1 21E#10FFF8000000002F
(1537932773.261394) can1 21F#10FFF80000000030
(1537932773.262171) can1 220#100000000000003A
(1537932773.262429) can1 221#100000000000003B
(1537932773.263150) can1 222#100000000000003C
(1537932773.263401) can1 223#100000000000003D
(1537932773.264166) can1 224#100000000000003E
(1537932773.264430) can1 225#100000000000003F
(1537932773.265148) can1 226#1000000000000040
(1537932773.265402) can1 227#1000000000000041
(1537932773.266118) can1 228#100000000040
(1537932773.266347) can1 229#100000000041
(1537932773.267118) can1 22A#100000000042
(1537932773.267302) can1 22B#100000000043
(1537932773.268118) can1 22C#100000000044
(1537932773.268345) can1 22D#100000000045
(1537932773.269114) can1 22E#100000000046
(1537932773.269344) can1 22F#100000000047
(1537932773.270158) can1 123#0108050D400086
(1537932773.270330) can1 230#107FFF4314001E
(1537932773.271146) can1 231#1001F9F000000237
(1537932773.271400) can1 232#1000FE00FE00FE46
(1537932773.272170) can1 3D0#8880808080808063
(1537932773.272379) can1 3D1#8880808080808064
(1537932773.273144) can1 3D2#8880808080808065
(1537932773.273349) can1 3D3#8880808080808066
(1537932773.304162) can1 210#11FFF80000000022
(1537932773.304411) can1 211#11FFF80000000023
(1537932773.305161) can1 212#11FFF80000000024
(1537932773.305386) can1 213#11FFF80000000025
(1537932773.306144) can1 214#11FFF80000000026
(1537932773.306403) can1 215#11FFF80000000027
(1537932773.307167) can1 216#11FFF80000000028
(1537932773.307390) can1 217#11FFF80000000029
(1537932773.308162) can1 218#11FFF8000000002A
(1537932773.308399) can1 219#11FFF8000000002B
(1537932773.309157) can1 21A#11FFF8000000002C
(1537932773.309398) can1 21B#11FFF8000000002D
(1537932773.310162) can1 21C#11FFF8000000002E
(1537932773.310398) can1 21D#11FFF8000000002F
(1537932773.311155) can1 21E#11FFF80000000030
(1537932773.311396) can1 21F#11FFF80000000031
(1537932773.312168) can1 220#110000000000003B
(1537932773.312382) can1 221#110000000000003C
(1537932773.313142) can1 222#110000000000003D
(1537932773.313401) can1 223#110000000000003E
(1537932773.314170) can1 224#110000000000003F
(1537932773.314433) can1 225#1100000000000040
(1537932773.315143) can1 226#1100000000000041
(1537932773.315400) can1 227#1100000000000042
(1537932773.316119) can1 228#110000000041
(1537932773.316304) can1 229#110000000042
(1537932773.317131) can1 22A#110000000043
(1537932773.317330) can1 22B#110000000044
(1537932773.318158) can1 22C#110000000045
(1537932773.318356) can1 22D#110000000046
(1537932773.319158) can1 22E#110000000047
(1537932773.319338) can1 22F#110000000048
(1537932773.320147) can1 230#117FFF43150020
(1537932773.320403) can1 231#1101F9F000000238
(1537932773.321209) can1 232#1100FE00FE00FE47
(1537932773.354145) can1 210#12FFF80000000023
(1537932773.354399) can1 211#12FFF80000000024
(1537932773.355156) can1 212#12FFF80000000025
(1537932773.355398) can1 213#12FFF80000000026
(1537932773.356253) can1 214#12FFF80000000027
(1537932773.356416) can1 215#12FFF80000000028
(1537932773.357151) can1 216#12FFF80000000029
(1537932773.357386) can1 217#12FFF8000000002A
(1537932773.358156) can1 218#12FFF8000000002B
(1537932773.358396) can1 219#12FFF8000000002C
(1537932773.359168) can1 21A#12FFF8000000002D
(1537932773.359382) can1 21B#12FFF8000000002E
(1537932773.360142) can1 21C#12FFF8000000002F
(1537932773.360463) can1 21D#12FFF80000000030
(1537932773.361221) can1 21E#12FFF80000000031
(1537932773.361446) can1 21F#12FFF80000000032
(1537932773.362147) can1 220#120000000000003C
(1537932773.362424) can1 221#120000000000003D
(1537932773.363165) can1 222#120000000000003E
(1537932773.363405) can1 223#120000000000003F
(1537932773.364251) can1 224#1200000000000040
(1537932773.364408) can1 225#1200000000000041
(1537932773.365216) can1 226#1200000000000042
(1537932773.365458) can1 227#1200000000000043
(1537932773.366138) can1 228#120000000042
(1537932773.366341) can1 229#120000000043
(1537932773.367152) can1 22A#120000000044
(1537932773.367315) can1 22B#120000000045
(1537932773.368125) can1 22C#120000000046
(1537932773.368355) can1 22D#120000000047
(1537932773.369147) can1 22E#120000000048
(1537932773.369316) can1 22F#120000000049
(1537932773.370149) can1 123#0108050D400086
(1537932773.370379) can1 230#127FFF43160022
(1537932773.371223) can1 231#1201F9F000000239
(1537932773.371381) can1 232#1200FE00FE00FE48
(1537932773.372191) can1 3D0#8980808080808064
(1537932773.372428) can1 3D1#8980808080808065
(1537932773.373196) can1 3D2#8980808080808066
(1537932773.373423) can1 3D3#8980808080808067
(1537932773.404216) can1 210#13FFF80000000024
(1537932773.404462) can1 211#13FFF80000000025
(1537932773.405221) can1 212#13FFF80000000026
(1537932773.405444) can1 213#13FFF80000000027
(1537932773.406164) can1 214#13FFF80000000028
(1537932773.406487) can1 215#13FFF80000000029
(1537932773.407208) can1 216#13FFF8000000002A
(1537932773.407450) can1 217#13FFF8000000002B
(1537932773.408312) can1 218#13FFF8000000002C
(1537932773.408426) can1 219#13FFF8000000002D
(1537932773.409230) can1 21A#13FFF8000000002E
(1537932773.409451) can1 21B#13FFF8000000002F
(1537932773.410218) can1 21C#13FFF80000000030
(1537932773.410468) can1 21D#13FFF80000000031
(1537932773.411205) can1 21E#13FFF80000000032
(1537932773.411431) can1 21F#13FFF80000000033
(1537932773.412201) can1 220#130000000000003D
(1537932773.412421) can1 221#130000000000003E
(1537932773.413188) can1 222#130000000000003F
(1537932773.413427) can1 223#1300000000000040
(1537932773.414201) can1 224#1300000000000041
(1537932773.414469) can1 225#1300000000000042
(1537932773.415197) can1 226#1300000000000043
(1537932773.415436) can1 227#1300000000000044
(1537932773.416233) can1 228#130000000043
(1537932773.416396) can1 229#130000000044
(1537932773.417166) can1 22A#130000000045
(1537932773.417335) can1 22B#130000000046
(1537932773.418149) can1 22C#130000000047
(1537932773.418314) can1 22D#130000000048
(1537932773.419127) can1 22E#130000000049
(1537932773.419355) can1 22F#13000000004A
(1537932773.420151) can1 230#137FFF43170024
(1537932773.420438) can1 231#1301F9F00000023A
(1537932773.421175) can1 232#1300FE00FE00FE49
(1537932773.454281) can1 210#14FFF80000000025
(1537932773.454442) can1 211#14FFF80000000026
(1537932773.455220) can1 212#14FFF80000000027
(1537932773.455434) can1 213#14FFF80000000028
(1537932773.456246) can1 214#14FFF80000000029
(1537932773.456406) can1 215#14FFF8000000002A
(1537932773.457182) can1 216#14FFF8000000002B
(1537932773.457407) can1 217#14FFF8000000002C
(1537932773.458144) can1 218#14FFF8000000002D
(1537932773.458405) can1 219#14FFF8000000002E
(1537932773.459161) can1 21A#14FFF8000000002F
(1537932773.459390) can1 21B#14FFF80000000030
(1537932773.460221) can1 21C#14FFF80000000031
(1537932773.460433) can1 21D#14FFF80000000032
(1537932773.461144) can1 21E#14FFF80000000033
(1537932773.461395) can1 21F#14FFF80000000034
(1537932773.462150) can1 220#140000000000003E
(1537932773.462409) can1 221#140000000000003F
(1537932773.463162) can1 222#1400000000000040
(1537932773.463407) can1 223#1400000000000041
(1537932773.464165) can1 224#1400000000000042
(1537932773.464452) can1 225#1400000000000043
(1537932773.465179) can1 226#1400000000000044
(1537932773.465390) can1 227#1400000000000045
(1537932773.466113) can1 228#140000000044
(1537932773.466382) can1 229#140000000045
(1537932773.467115) can1 22A#140000000046
(1537932773.467369) can1 22B#140000000047
(1537932773.468149) can1 22C#140000000048
(1537932773.468372) can1 22D#140000000049
(1537932773.469197) can1 22E#14000000004A
(1537932773.469366) can1 22F#14000000004B
(1537932773.470175) can1 123#0108050D400086
(1537932773.470377) can1 230#147FFF43180026
(1537932773.471202) can1 231#1401F9F00000023B
(1537932773.471449) can1 232#1400FE00FE00FE4A
(1537932773.472209) can1 3D0#8A80808080808065
(1537932773.472434) can1 3D1#8A80808080808066
(1537932773.473204) can1 3D2#8A80808080808067
(1537932773.473426) can1 3D3#8A80808080808068
(1537932773.504148) can1 210#15FFF80000000026
(1537932773.504399) can1 211#15FFF80000000027
(1537932773.505157) can1 212#15FFF80000000028
(1537932773.505396) can1 213#15FFF80000000029
(1537932773.506161) can1 214#15FFF8000000002A
(1537932773.506382) can1 215#15FFF8000000002B
(1537932773.507141) can1 216#15FFF8000000002C
(1537932773.507397) can1 217#15FFF8000000002D
(1537932773.508132) can1 218#15FFF8000000002E
(1537932773.508395) can1 219#15FFF8000000002F
(1537932773.509154) can1 21A#15FFF80000000030
(1537932773.509395) can1 21B#15FFF80000000031
(1537932773.510154) can1 21C#15FFF80000000032
(1537932773.510395) can1 21D#15FFF80000000033
(1537932773.511172) can1 21E#15FFF80000000034
(1537932773.511390) can1 21F#15FFF80000000035
(1537932773.512198) can1 220#150000000000003F
(1537932773.512391) can1 221#1500000000000040
(1537932773.513151) can1 222#1500000000000041
(1537932773.513406) can1 223#1500000000000042
(1537932773.514153) can1 224#1500000000000043
(1537932773.514385) can1 225#1500000000000044
(1537932773.515145) can1 226#1500000000000045
(1537932773.515397) can1 227#1500000000000046
(1537932773.516109) can1 228#150000000045
(1537932773.516322) can1 229#150000000046
(1537932773.517121) can1 22A#150000000047
(1537932773.517300) can1 22B#150000000048
(1537932773.518125) can1 22C#150000000049
(1537932773.518360) can1 22D#15000000004A
(1537932773.519113) can1 22E#15000000004B
(1537932773.519331) can1 22F#15000000004C
(1537932773.520133) can1 230#157FFF43190028
(1537932773.520379) can1 231#1501F9F00000023C
(1537932773.521176) can1 232#1500FE00FE00FE4B
(1537932773.554207) can1 210#16FFF80000000027
(1537932773.554422) can1 211#16FFF80000000028
(1537932773.555159) can1 212#16FFF80000000029
(1537932773.555391) can1 213#16FFF8000000002A
(1537932773.556196) can1 214#16FFF8000000002B
(1537932773.556403) can1 215#16FFF8000000002C
(1537932773.557194) can1 216#16FFF8000000002D
(1537932773.557447) can1 217#16FFF8000000002E
(1537932773.558166) can1 218#16FFF8000000002F
(1537932773.558404) can1 219#16FFF80000000030
(1537932773.559153) can1 21A#16FFF80000000031
(1537932773.559411) can1 21B#16FFF80000000032
(1537932773.560179) can1 21C#16FFF80000000033
(1537932773.560402) can1 21D#16FFF80000000034
(1537932773.561153) can1 21E#16FFF80000000035
(1537932773.561439) can1 21F#16FFF80000000036
(1537932773.562218) can1 220#1600000000000040
(1537932773.562464) can1 221#1600000000000041
(1537932773.563191) can1 222#1600000000000042
(1537932773.563439) can1 223#1600000000000043
(1537932773.564199) can1 224#1600000000000044
(1537932773.564424) can1 225#1600000000000045
(1537932773.565196) can1 226#1600000000000046
(1537932773.565452) can1 227#1600000000000047
(1537932773.566156) can1 228#160000000046
(1537932773.566370) can1 229#160000000047
(1537932773.567189) can1 22A#160000000048
(1537932773.567364) can1 22B#160000000049
(1537932773.568163) can1 22C#16000000004A
(1537932773.568380) can1 22D#16000000004B
(1537932773.569163) can1 22E#16000000004C
(1537932773.569383) can1 22F#16000000004D
(1537932773.570142) can1 123#0108050D400086
(1537932773.570373) can1 230#167FFF431A002A
(1537932773.571207) can1 231#1601F9F00000023D
(1537932773.571403) can1 232#1600FE00FE00FE4C
(1537932773.572192) can1 3D0#8B80808080808066
(1537932773.572432) can1 3D1#8B80808080808067
(1537932773.573202) can1 3D2#8B80808080808068
(1537932773.573418) can1 3D3#8B80808080808069
(1537932773.604300) can1 210#17FFF80000000028
(1537932773.604400) can1 211#17FFF80000000029
(1537932773.605215) can1 212#17FFF8000000002A
(1537932773.605427) can1 213#17FFF8000000002B
(1537932773.606159) can1 214#17FFF8000000002C
(1537932773.606437) can1 215#17FFF8000000002D
(1537932773.607217) can1 216#17FFF8000000002E
(1537932773.607455) can1 217#17FFF8000000002F
(1537932773.608148) can1 218#17FFF80000000030
(1537932773.608442) can1 219#17FFF80000000031
(1537932773.609219) can1 21A#17FFF80000000032
(1537932773.609444) can1 21B#17FFF80000000033
(1537932773.610217) can1 21C#17FFF80000000034
(1537932773.610438) can1 21D#17FFF80000000035
(1537932773.611217) can1 21E#17FFF80000000036
(1537932773.611434) can1 21F#17FFF80000000037
(1537932773.612174) can1 220#1700000000000041
(1537932773.612401) can1 221#1700000000000042
(1537932773.613164) can1 222#1700000000000043
(1537932773.613440) can1 223#1700000000000044
(1537932773.614192) can1 224#1700000000000045
(1537932773.614434) can1 225#1700000000000046
(1537932773.615190) can1 226#1700000000000047
(1537932773.615425) can1 227#1700000000000048
(1537932773.616171) can1 228#170000000047
(1537932773.616323) can1 229#170000000048
(1537932773.617099) can1 22A#170000000049
(1537932773.617383) can1 22B#17000000004A
(1537932773.618131) can1 22C#17000000004B
(1537932773.618384) can1 22D#17000000004C
(1537932773.619192) can1 22E#17000000004D
(1537932773.619362) can1 22F#17000000004E
(1537932773.620193) can1 230#177FFF431B002C
(1537932773.620417) can1 231#1701F9F00000023E
(1537932773.621207) can1 232#1700FE00FE00FE4D
(1537932773.654193) can1 210#18FFF80000000029
(1537932773.654428) can1 211#18FFF8000000002A
(1537932773.655203) can1 212#18FFF8000000002B
(1537932773.655382) can1 213#18FFF8000000002C
(1537932773.656190) can1 214#18FFF8000000002D
(1537932773.656437) can1 215#18FFF8000000002E
(1537932773.657218) can1 216#18FFF8000000002F
(1537932773.657442) can1 217#18FFF80000000030
(1537932773.658293) can1 218#18FFF80000000031
(1537932773.658436) can1 219#18FFF80000000032
(1537932773.659301) can1 21A#18FFF80000000033
(1537932773.659471) can1 21B#18FFF80000000034
(1537932773.660218) can1 21C#18FFF80000000035
(1537932773.660443) can1 21D#18FFF80000000036
(1537932773.661197) can1 21E#18FFF80000000037
(1537932773.661416) can1 21F#18FFF80000000038
(1537932773.662196) can1 220#1800000000000042
(1537932773.662435) can1 221#1800000000000043
(1537932773.663183) can1 222#1800000000000044
(1537932773.663417) can1 223#1800000000000045
(1537932773.664200) can1 224#1800000000000046
(1537932773.664416) can1 225#1800000000000047
(1537932773.665200) can1 226#1800000000000048
(1537932773.665415) can1 227#1800000000000049
(1537932773.666141) can1 228#180000000048
(1537932773.666354) can1 229#180000000049
(1537932773.667129) can1 22A#18000000004A
(1537932773.667345) can1 22B#18000000004B
(1537932773.668174) can1 22C#18000000004C
(1537932773.668325) can1 22D#18000000004D
(1537932773.669169) can1 22E#18000000004E
(1537932773.669380) can1 22F#18000000004F
(1537932773.670193) can1 123#0108050D400086
(1537932773.670376) can1 230#187FFF431C002E
(1537932773.671231) can1 231#1801F9F00000023F
(1537932773.671381) can1 232#1800FE00FE00FE4E
(1537932773.672141) can1 3D0#8C80808080808067
(1537932773.672396) can1 3D1#8C80808080808068
(1537932773.673199) can1 3D2#8C80808080808069
(1537932773.673425) can1 3D3#8C8080808080806A
(1537932773.704312) can1 210#19FFF8000000002A
(1537932773.704391) can1 211#19FFF8000000002B
(1537932773.705332) can1 212#19FFF8000000002C
(1537932773.705425) can1 213#19FFF8000000002D
(1537932773.706294) can1 214#19FFF8000000002E
(1537932773.706376) can1 215#19FFF8000000002F
(1537932773.707312) can1 216#19FFF80000000030
(1537932773.707393) can1 217#19FFF80000000031
(1537932773.708378) can1 218#19FFF80000000032
(1537932773.708402) can1 219#19FFF80000000033
(1537932773.709328) can1 21A#19FFF80000000034
(1537932773.709373) can1 21B#19FFF80000000035
(1537932773.710293) can1 21C#19FFF80000000036
(1537932773.710463) can1 21D#19FFF80000000037
(1537932773.711212) can1 21E#19FFF80000000038
(1537932773.711427) can1 21F#19FFF80000000039
(1537932773.712197) can1 220#1900000000000043
(1537932773.712422) can1 221#1900000000000044
(1537932773.713152) can1 222#1900000000000045
(1537932773.713411) can1 223#1900000000000046
(1537932773.714207) can1 224#1900000000000047
(1537932773.714430) can1 225#1900000000000048
(1537932773.715207) can1 226#1900000000000049
(1537932773.715431) can1 227#190000000000004A
(1537932773.716142) can1 228#190000000049
(1537932773.716388) can1 229#19000000004A
(1537932773.717178) can1 22A#19000000004B
(1537932773.717376) can1 22B#19000000004C
(1537932773.718196) can1 22C#19000000004D
(1537932773.718378) can1 22D#19000000004E
(1537932773.719191) can1 22E#19000000004F
(1537932773.719358) can1 22F#190000000050
(1537932773.720192) can1 230#197FFF431D0030
(1537932773.720431) can1 231#1901F9F000000240
(1537932773.721203) can1 232#1900FE00FE00FE4F
(1537932773.754198) can1 210#1AFFF8000000002B
(1537932773.754423) can1 211#1AFFF8000000002C
(1537932773.755197) can1 212#1AFFF8000000002D
(1537932773.755443) can1 213#1AFFF8000000002E
(1537932773.756190) can1 214#1AFFF8000000002F
(1537932773.756440) can1 215#1AFFF80000000030
(1537932773.757183) can1 216#1AFFF80000000031
(1537932773.757414) can1 217#1AFFF80000000032
(1537932773.758195) can1 218#1AFFF80000000033
(1537932773.758434) can1 219#1AFFF80000000034
(1537932773.759216) can1 21A#1AFFF80000000035
(1537932773.759442) can1 21B#1AFFF80000000036
(1537932773.760202) can1 21C#1AFFF80000000037
(1537932773.760423) can1 21D#1AFFF80000000038
(1537932773.761194) can1 21E#1AFFF80000000039
(1537932773.761421) can1 21F#1AFFF8000000003A
(1537932773.762190) can1 220#1A00000000000044
(1537932773.762431) can1 221#1A00000000000045
(1537932773.763155) can1 222#1A00000000000046
(1537932773.763438) can1 223#1A00000000000047
(1537932773.764215) can1 224#1A00000000000048
(1537932773.764374) can1 225#1A00000000000049
(1537932773.765195) can1 226#1A0000000000004A
(1537932773.765408) can1 227#1A0000000000004B
(1537932773.766117) can1 228#1A000000004A
(1537932773.766367) can1 229#1A000000004B
(1537932773.767115) can1 22A#1A000000004C
(1537932773.767368) can1 22B#1A000000004D
(1537932773.768163) can1 22C#1A000000004E
(1537932773.768365) can1 22D#1A000000004F
(1537932773.769190) can1 22E#1A0000000050
(1537932773.769364) can1 22F#1A0000000051
(1537932773.770173) can1 123#0108050D400086
(1537932773.770373) can1 230#1A7FFF431E0032
(1537932773.771200) can1 231#1A01F9F000000241
(1537932773.771435) can1 232#1A00FE00FE00FE50
(1537932773.772203) can1 3D0#8D80808080808068
(1537932773.772428) can1 3D1#8D80808080808069
(1537932773.773199) can1 3D2#8D8080808080806A
(1537932773.773423) can1 3D3#8D8080808080806B
(1537932773.804192) can1 210#1BFFF8000000002C
(1537932773.804438) can1 211#1BFFF8000000002D
(1537932773.805196) can1 212#1BFFF8000000002E
(1537932773.805470) can1 213#1BFFF8000000002F
(1537932773.806198) can1 214#1BFFF80000000030
(1537932773.806458) can1 215#1BFFF80000000031
(1537932773.807325) can1 216#1BFFF80000000032
(1537932773.807418) can1 217#1BFFF80000000033
(1537932773.808277) can1 218#1BFFF80000000034
(1537932773.808392) can1 219#1BFFF80000000035
(1537932773.809209) can1 21A#1BFFF80000000036
(1537932773.809452) can1 21B#1BFFF80000000037
(1537932773.810205) can1 21C#1BFFF80000000038
(1537932773.810431) can1 21D#1BFFF80000000039
(1537932773.811200) can1 21E#1BFFF8000000003A
(1537932773.811424) can1 21F#1BFFF8000000003B
(1537932773.812196) can1 220#1B00000000000045
(1537932773.812379) can1 221#1B00000000000046
(1537932773.813171) can1 222#1B00000000000047
(1537932773.813440) can1 223#1B00000000000048
(1537932773.814214) can1 224#1B00000000000049
(1537932773.814421) can1 225#1B0000000000004A
(1537932773.815190) can1 226#1B0000000000004B
(1537932773.815426) can1 227#1B0000000000004C
(1537932773.816144) can1 228#1B000000004B
(1537932773.816376) can1 229#1B000000004C
(1537932773.817140) can1 22A#1B000000004D
(1537932773.817375) can1 22B#1B000000004E
(1537932773.818208) can1 22C#1B000000004F
(1537932773.818336) can1 22D#1B0000000050
(1537932773.819172) can1 22E#1B0000000051
(1537932773.819347) can1 22F#1B0000000052
(1537932773.820171) can1 230#1B7FFF431F0034
(1537932773.820389) can1 231#1B01F9F000000242
(1537932773.821172) can1 232#1B00FE00FE00FE51
(1537932773.854254) can1 210#1CFFF8000000002D
(1537932773.854393) can1 211#1CFFF8000000002E
(1537932773.855204) can1 212#1CFFF8000000002F
(1537932773.855426) can1 213#1CFFF80000000030
(1537932773.856197) can1 214#1CFFF80000000031
(1537932773.856396) can1 215#1CFFF80000000032
(1537932773.857142) can1 216#1CFFF80000000033
(1537932773.857403) can1 217#1CFFF80000000034
(1537932773.858149) can1 218#1CFFF80000000035
(1537932773.858398) can1 219#1CFFF80000000036
(1537932773.859172) can1 21A#1CFFF80000000037
(1537932773.859391) can1 21B#1CFFF80000000038
(1537932773.860140) can1 21C#1CFFF80000000039
(1537932773.860394) can1 21D#1CFFF8000000003A
(1537932773.861193) can1 21E#1CFFF8000000003B
(1537932773.861432) can1 21F#1CFFF8000000003C
(1537932773.862210) can1 220#1C00000000000046
(1537932773.862437) can1 221#1C00000000000047
(1537932773.863326) can1 222#1C00000000000048
(1537932773.863425) can1 223#1C00000000000049
(1537932773.864310) can1 224#1C0000000000004A
(1537932773.864390) can1 225#1C0000000000004B
(1537932773.865317) can1 226#1C0000000000004C
(1537932773.865391) can1 227#1C0000000000004D
(1537932773.866263) can1 228#1C000000004C
(1537932773.866278) can1 229#1C000000004D
(1537932773.867138) can1 22A#1C000000004E
(1537932773.867317) can1 22B#1C000000004F
(1537932773.868195) can1 22C#1C0000000050
(1537932773.868377) can1 22D#1C0000000051
(1537932773.869195) can1 22E#1C0000000052
(1537932773.869371) can1 22F#1C0000000053
(1537932773.870198) can1 123#0108050D400086
(1537932773.870348) can1 230#1C7FFF43200036
(1537932773.871161) can1 231#1C01F9F000000243
(1537932773.871437) can1 232#1C00FE00FE00FE52
(1537932773.872203) can1 3D0#8E80808080808069
(1537932773.872434) can1 3D1#8E8080808080806A
(1537932773.873214) can1 3D2#8E8080808080806B
(1537932773.873432) can1 3D3#8E8080808080806C
(1537932773.904193) can1 210#1DFFF8000000002E
(1537932773.904565) can1 211#1DFFF8000000002F
(1537932773.905196) can1 212#1DFFF80000000030
(1537932773.905428) can1 213#1DFFF80000000031
(1537932773.906199) can1 214#1DFFF80000000032
(1537932773.906423) can1 215#1DFFF80000000033
(1537932773.907204) can1 216#1DFFF80000000034
(1537932773.907432) can1 217#1DFFF80000000035
(1537932773.908174) can1 218#1DFFF80000000036
(1537932773.908388) can1 219#1DFFF80000000037
(1537932773.909187) can1 21A#1DFFF80000000038
(1537932773.909424) can1 21B#1DFFF80000000039
(1537932773.910195) can1 21C#1DFFF8000000003A
(1537932773.910424) can1 21D#1DFFF8000000003B
(1537932773.911194) can1 21E#1DFFF8000000003C
(1537932773.911434) can1 21F#1DFFF8000000003D
(1537932773.912196) can1 220#1D00000000000047
(1537932773.912416) can1 221#1D00000000000048
(1537932773.913190) can1 222#1D00000000000049
(1537932773.913430) can1 223#1D0000000000004A
(1537932773.914160) can1 224#1D0000000000004B
(1537932773.914424) can1 225#1D0000000000004C
(1537932773.915192) can1 226#1D0000000000004D
(1537932773.915418) can1 227#1D0000000000004E
(1537932773.916140) can1 228#1D000000004D
(1537932773.916317) can1 229#1D000000004E
(1537932773.917164) can1 22A#1D000000004F
(1537932773.917370) can1 22B#1D0000000050
(1537932773.918195) can1 22C#1D0000000051
(1537932773.918383) can1 22D#1D0000000052
(1537932773.919166) can1 22E#1D0000000053
(1537932773.919371) can1 22F#1D0000000054
(1537932773.920194) can1 230#1D7FFF43210038
(1537932773.920435) can1 231#1D01F9F000000244
(1537932773.921174) can1 232#1D00FE00FE00FE53
(1537932773.954186) can1 210#1EFFF8000000002F
(1537932773.954424) can1 211#1EFFF80000000030
(1537932773.955209) can1 212#1EFFF80000000031
(1537932773.955424) can1 213#1EFFF80000000032
(1537932773.956207) can1 214#1EFFF80000000033
(1537932773.956423) can1 215#1EFFF80000000034
(1537932773.957181) can1 216#1EFFF80000000035
(1537932773.957418) can1 217#1EFFF80000000036
(1537932773.958199) can1 218#1EFFF80000000037
(1537932773.958446) can1 219#1EFFF80000000038
(1537932773.959221) can1 21A#1EFFF80000000039
(1537932773.959430) can1 21B#1EFFF8000000003A
(1537932773.960220) can1 21C#1EFFF8000000003B
(1537932773.960442) can1 21D#1EFFF8000000003C
(1537932773.961211) can1 21E#1EFFF8000000003D
(1537932773.961433) can1 21F#1EFFF8000000003E
(1537932773.962172) can1 220#1E00000000000048
(1537932773.962427) can1 221#1E00000000000049
(1537932773.963220) can1 222#1E0000000000004A
(1537932773.963429) can1 223#1E0000000000004B
(1537932773.964201) can1 224#1E0000000000004C
(1537932773.964438) can1 225#1E0000000000004D
(1537932773.965212) can1 226#1E0000000000004E
(1537932773.965417) can1 227#1E0000000000004F
(1537932773.966188) can1 228#1E000000004E
(1537932773.966365) can1 229#1E000000004F
(1537932773.967193) can1 22A#1E0000000050
(1537932773.967355) can1 22B#1E0000000051
(1537932773.968173) can1 22C#1E0000000052
(1537932773.968370) can1 22D#1E0000000053
(1537932773.969191) can1 22E#1E0000000054
(1537932773.969384) can1 22F#1E0000000055
(1537932773.970164) can1 123#0108050D400086
(1537932773.970380) can1 230#1E7FFF4322003A
(1537932773.971172) can1 231#1E01F9F000000245
(1537932773.971375) can1 232#1E00FE00FE00FE54
(1537932773.972194) can1 3D0#8F8080808080806A
(1537932773.972439) can1 3D1#8F8080808080806B
(1537932773.973193) can1 3D2#8F8080808080806C
(1537932773.973436) can1 3D3#8F8080808080806D
(1537932774.004187) can1 210#1FFFF80000000030
(1537932774.004442) can1 211#1FFFF80000000031
(1537932774.005198) can1 212#1FFFF80000000032
(1537932774.005419) can1 213#1FFFF80000000033
(1537932774.006191) can1 214#1FFFF80000000034
(1537932774.006468) can1 215#1FFFF80000000035
(1537932774.007191) can1 216#1FFFF80000000036
(1537932774.007429) can1 217#1FFFF80000000037
(1537932774.008180) can1 218#1FFFF80000000038
(1537932774.008458) can1 219#1FFFF80000000039
(1537932774.009194) can1 21A#1FFFF8000000003A
(1537932774.009442) can1 21B#1FFFF8000000003B
(1537932774.010211) can1 21C#1FFFF8000000003C
(1537932774.010457) can1 21D#1FFFF8000000003D
(1537932774.011194) can1 21E#1FFFF8000000003E
(1537932774.011415) can1 21F#1FFFF8000000003F
(1537932774.012203) can1 220#1F00000000000049
(1537932774.012416) can1 221#1F0000000000004A
(1537932774.013181) can1 222#1F0000000000004B
(1537932774.013429) can1 223#1F0000000000004C
(1537932774.014188) can1 224#1F0000000000004D
(1537932774.014439) can1 225#1F0000000000004E
(1537932774.015202) can1 226#1F0000000000004F
(1537932774.015425) can1 227#1F00000000000050
(1537932774.016152) can1 228#1F000000004F
(1537932774.016370) can1 229#1F0000000050
(1537932774.017121) can1 22A#1F0000000051
(1537932774.017376) can1 22B#1F0000000052
(1537932774.018138) can1 22C#1F0000000053
(1537932774.018386) can1 22D#1F0000000054
(1537932774.019161) can1 22E#1F0000000055
(1537932774.019382) can1 22F#1F0000000056
(1537932774.020159) can1 230#1F7FFF4323003C
(1537932774.020443) can1 231#1F01F9F000000246
(1537932774.021241) can1 232#1F00FE00FE00FE55
(1537932774.054297) can1 210#20FFF80000000031
(1537932774.054431) can1 211#20FFF80000000032
(1537932774.055263) can1 212#20FFF80000000033
(1537932774.055444) can1 213#20FFF80000000034
(1537932774.056188) can1 214#20FFF80000000035
(1537932774.056423) can1 215#20FFF80000000036
(1537932774.057181) can1 216#20FFF80000000037
(1537932774.057422) can1 217#20FFF80000000038
(1537932774.058187) can1 218#20FFF80000000039
(1537932774.058433) can1 219#20FFF8000000003A
(1537932774.059192) can1 21A#20FFF8000000003B
(1537932774.059433) can1 21B#20FFF8000000003C
(1537932774.060210) can1 21C#20FFF8000000003D
(1537932774.060456) can1 21D#20FFF8000000003E
(1537932774.061184) can1 21E#20FFF8000000003F
(1537932774.061425) can1 21F#20FFF80000000040
(1537932774.062188) can1 220#200000000000004A
(1537932774.062384) can1 221#200000000000004B
(1537932774.063192) can1 222#200000000000004C
(1537932774.063432) can1 223#200000000000004D
(1537932774.064209) can1 224#200000000000004E
(1537932774.064435) can1 225#200000000000004F
(1537932774.065213) can1 226#2000000000000050
(1537932774.065387) can1 227#2000000000000051
(1537932774.066121) can1 228#200000000050
(1537932774.066326) can1 229#200000000051
(1537932774.067172) can1 22A#200000000052
(1537932774.067343) can1 22B#200000000053
(1537932774.068097) can1 22C#200000000054
(1537932774.068349) can1 22D#200000000055
(1537932774.069170) can1 22E#200000000056
(1537932774.069371) can1 22F#200000000057
(1537932774.070111) can1 123#0108050D400086
(1537932774.070339) can1 230#207FFF4324003E
(1537932774.071147) can1 231#2001F9F000000247
(1537932774.071401) can1 232#2000FE00FE00FE56
(1537932774.072200) can1 3D0#908080808080806B
(1537932774.072421) can1 3D1#908080808080806C
(1537932774.073192) can1 3D2#908080808080806D
(1537932774.073418) can1 3D3#908080808080806E
(1537932774.104189) can1 210#21FFF80000000032
(1537932774.104471) can1 211#21FFF80000000033
(1537932774.105193) can1 212#21FFF80000000034
(1537932774.105418) can1 213#21FFF80000000035
(1537932774.106178) can1 214#21FFF80000000036
(1537932774.106432) can1 215#21FFF80000000037
(1537932774.107137) can1 216#21FFF80000000038
(1537932774.107411) can1 217#21FFF80000000039
(1537932774.108130) can1 218#21FFF8000000003A
(1537932774.108420) can1 219#21FFF8000000003B
(1537932774.109203) can1 21A#21FFF8000000003C
(1537932774.109417) can1 21B#21FFF8000000003D
(1537932774.110193) can1 21C#21FFF8000000003E
(1537932774.110412) can1 21D#21FFF8000000003F
(1537932774.111203) can1 21E#21FFF80000000040
(1537932774.111427) can1 21F#21FFF80000000041
(1537932774.112205) can1 220#210000000000004B
(1537932774.112413) can1 221#210000000000004C
(1537932774.113175) can1 222#210000000000004D
(1537932774.113415) can1 223#210000000000004E
(1537932774.114188) can1 224#210000000000004F
(1537932774.114428) can1 225#2100000000000050
(1537932774.115198) can1 226#2100000000000051
(1537932774.115420) can1 227#2100000000000052
(1537932774.116161) can1 228#210000000051
(1537932774.116355) can1 229#210000000052
(1537932774.117269) can1 22A#210000000053
(1537932774.117292) can1 22B#210000000054
(1537932774.118221) can1 22C#210000000055
(1537932774.118344) can1 22D#210000000056
(1537932774.119193) can1 22E#210000000057
(1537932774.119377) can1 22F#210000000058
(1537932774.120162) can1 230#217FFF43250040
(1537932774.120433) can1 231#2101F9F000000248
(1537932774.121145) can1 232#2100FE00FE00FE57
(1537932774.154184) can1 210#22FFF80000000033
(1537932774.154468) can1 211#22FFF80000000034
(1537932774.155190) can1 212#22FFF80000000035
(1537932774.155416) can1 213#22FFF80000000036
(1537932774.156192) can1 214#22FFF80000000037
(1537932774.156431) can1 215#22FFF80000000038
(1537932774.157205) can1 216#22FFF80000000039
(1537932774.157416) can1 217#22FFF8000000003A
(1537932774.158293) can1 218#22FFF8000000003B
(1537932774.158402) can1 219#22FFF8000000003C
(1537932774.159205) can1 21A#22FFF8000000003D
(1537932774.159418) can1 21B#22FFF8000000003E
(1537932774.160191) can1 21C#22FFF8000000003F
(1537932774.160383) can1 21D#22FFF80000000040
(1537932774.161135) can1 21E#22FFF80000000041
(1537932774.161425) can1 21F#22FFF80000000042
(1537932774.162209) can1 220#220000000000004C
(1537932774.162482) can1 221#220000000000004D
(1537932774.163137) can1 222#220000000000004E
(1537932774.163392) can1 223#220000000000004F
(1537932774.164156) can1 224#2200000000000050
(1537932774.164469) can1 225#2200000000000051
(1537932774.165192) can1 226#2200000000000052
(1537932774.165433) can1 227#2200000000000053
(1537932774.166162) can1 228#220000000052
(1537932774.166385) can1 229#220000000053
(1537932774.167160) can1 22A#220000000054
(1537932774.167343) can1 22B#220000000055
(1537932774.168182) can1 22C#220000000056
(1537932774.168381) can1 22D#220000000057
(1537932774.169172) can1 22E#220000000058
(1537932774.169372) can1 22F#220000000059
(1537932774.170140) can1 123#0108050D400086
(1537932774.170365) can1 230#227FFF43260042
(1537932774.171167) can1 231#2201F9F000000249
(1537932774.171380) can1 232#2200FE00FE00FE58
(1537932774.172191) can1 3D0#918080808080806C
(1537932774.172431) can1 3D1#918080808080806D
(1537932774.173182) can1 3D2#918080808080806E
(1537932774.173427) can1 3D3#918080808080806F
(1537932774.204176) can1 210#23FFF80000000034
(1537932774.204469) can1 211#23FFF80000000035
(1537932774.205189) can1 212#23FFF80000000036
(1537932774.205463) can1 213#23FFF80000000037
(1537932774.206185) can1 214#23FFF80000000038
(1537932774.206484) can1 215#23FFF80000000039
(1537932774.207307) can1 216#23FFF8000000003A
(1537932774.207386) can1 217#23FFF8000000003B
(1537932774.208293) can1 218#23FFF8000000003C
(1537932774.208370) can1 219#23FFF8000000003D
(1537932774.209188) can1 21A#23FFF8000000003E
(1537932774.209429) can1 21B#23FFF8000000003F
(1537932774.210211) can1 21C#23FFF80000000040
(1537932774.210465) can1 21D#23FFF80000000041
(1537932774.211182) can1 21E#23FFF80000000042
(1537932774.211418) can1 21F#23FFF80000000043
(1537932774.212187) can1 220#230000000000004D
(1537932774.212394) can1 221#230000000000004E
(1537932774.213171) can1 222#230000000000004F
(1537932774.213387) can1 223#2300000000000050
(1537932774.214195) can1 224#2300000000000051
(1537932774.214421) can1 225#2300000000000052
(1537932774.215193) can1 226#2300000000000053
(1537932774.215430) can1 227#2300000000000054
(1537932774.216140) can1 228#230000000053
(1537932774.216362) can1 229#230000000054
(1537932774.217177) can1 22A#230000000055
(1537932774.217368) can1 22B#230000000056
(1537932774.218184) can1 22C#230000000057
(1537932774.218395) can1 22D#230000000058
(1537932774.219153) can1 22E#230000000059
(1537932774.219383) can1 22F#23000000005A
(1537932774.220192) can1 230#237FFF43270044
(1537932774.220418) can1 231#2301F9F00000024A
(1537932774.221147) can1 232#2300FE00FE00FE59
(1537932774.254193) can1 210#24FFF80000000035
(1537932774.254415) can1 211#24FFF80000000036
(1537932774.255305) can1 212#24FFF80000000037
(1537932774.255385) can1 213#24FFF80000000038
(1537932774.256301) can1 214#24FFF80000000039
(1537932774.256392) can1 215#24FFF8000000003A
(1537932774.257137) can1 216#24FFF8000000003B
(1537932774.257399) can1 217#24FFF8000000003C
(1537932774.258201) can1 218#24FFF8000000003D
(1537932774.258407) can1 219#24FFF8000000003E
(1537932774.259145) can1 21A#24FFF8000000003F
(1537932774.259373) can1 21B#24FFF80000000040
(1537932774.260134) can1 21C#24FFF80000000041
(1537932774.260390) can1 21D#24FFF80000000042
(1537932774.261205) can1 21E#24FFF80000000043
(1537932774.261414) can1 21F#24FFF80000000044
(1537932774.262210) can1 220#240000000000004E
(1537932774.262433) can1 221#240000000000004F
(1537932774.263186) can1 222#2400000000000050
(1537932774.263428) can1 223#2400000000000051
(1537932774.264204) can1 224#2400000000000052
(1537932774.264434) can1 225#2400000000000053
(1537932774.265208) can1 226#2400000000000054
(1537932774.265428) can1 227#2400000000000055
(1537932774.266108) can1 228#240000000054
(1537932774.266315) can1 229#240000000055
(1537932774.267171) can1 22A#240000000056
(1537932774.267358) can1 22B#240000000057
(1537932774.268152) can1 22C#240000000058
(1537932774.268397) can1 22D#240000000059
(1537932774.269106) can1 22E#24000000005A
(1537932774.269356) can1 22F#24000000005B
(1537932774.270181) can1 123#0108050D400086
(1537932774.270333) can1 230#247FFF43280046
(1537932774.271177) can1 231#2401F9F00000024B
(1537932774.271385) can1 232#2400FE00FE00FE5A
(1537932774.272175) can1 3D0#928080808080806D
(1537932774.272368) can1 3D1#928080808080806E
(1537932774.273182) can1 3D2#928080808080806F
(1537932774.273380) can1 3D3#9280808080808070
(1537932774.304176) can1 210#25FFF80000000036
(1537932774.304481) can1 211#25FFF80000000037
(1537932774.305195) can1 212#25FFF80000000038
(1537932774.305441) can1 213#25FFF80000000039
(1537932774.306190) can1 214#25FFF8000000003A
(1537932774.306418) can1 215#25FFF8000000003B
(1537932774.307205) can1 216#25FFF8000000003C
(1537932774.307449) can1 217#25FFF8000000003D
(1537932774.308172) can1 218#25FFF8000000003E
(1537932774.308461) can1 219#25FFF8000000003F
(1537932774.309188) can1 21A#25FFF80000000040
(1537932774.309425) can1 21B#25FFF80000000041
(1537932774.310207) can1 21C#25FFF80000000042
(1537932774.310442) can1 21D#25FFF80000000043
(1537932774.311216) can1 21E#25FFF80000000044
(1537932774.311448) can1 21F#25FFF80000000045
(1537932774.312168) can1 220#250000000000004F
(1537932774.312396) can1 221#2500000000000050
(1537932774.313151) can1 222#2500000000000051
(1537932774.313421) can1 223#2500000000000052
(1537932774.314201) can1 224#2500000000000053
(1537932774.314419) can1 225#2500000000000054
(1537932774.315225) can1 226#2500000000000055
(1537932774.315423) can1 227#2500000000000056
(1537932774.316100) can1 228#250000000055
(1537932774.316367) can1 229#250000000056
(1537932774.317198) can1 22A#250000000057
(1537932774.317366) can1 22B#250000000058
(1537932774.318192) can1 22C#250000000059
(1537932774.318378) can1 22D#25000000005A
(1537932774.319158) can1 22E#25000000005B
(1537932774.319395) can1 22F#25000000005C
(1537932774.320159) can1 230#257FFF43290048
(1537932774.320431) can1 231#2501F9F00000024C
(1537932774.321209) can1 232#2500FE00FE00FE5B
(1537932774.354192) can1 210#26FFF80000000037
(1537932774.354413) can1 211#26FFF80000000038
(1537932774.355204) can1 212#26FFF80000000039
(1537932774.355445) can1 213#26FFF8000000003A
(1537932774.356203) can1 214#26FFF8000000003B
(1537932774.356443) can1 215#26FFF8000000003C
(1537932774.357184) can1 216#26FFF8000000003D
(1537932774.357444) can1 217#26FFF8000000003E
(1537932774.358148) can1 218#26FFF8000000003F
(1537932774.358462) can1 219#26FFF80000000040
(1537932774.359188) can1 21A#26FFF80000000041
(1537932774.359416) can1 21B#26FFF80000000042
(1537932774.360186) can1 21C#26FFF80000000043
(1537932774.360414) can1 21D#26FFF80000000044
(1537932774.361186) can1 21E#26FFF80000000045
(1537932774.361437) can1 21F#26FFF80000000046
(1537932774.362198) can1 220#2600000000000050
(1537932774.362422) can1 221#2600000000000051
(1537932774.363206) can1 222#2600000000000052
(1537932774.363430) can1 223#2600000000000053
(1537932774.364202) can1 224#2600000000000054
(1537932774.364426) can1 225#2600000000000055
(1537932774.365203) can1 226#2600000000000056
(1537932774.365428) can1 227#2600000000000057
(1537932774.366160) can1 228#260000000056
(1537932774.366343) can1 229#260000000057
(1537932774.367153) can1 22A#260000000058
(1537932774.367322) can1 22B#260000000059
(1537932774.368153) can1 22C#26000000005A
(1537932774.368373) can1 22D#26000000005B
(1537932774.369153) can1 22E#26000000005C
(1537932774.369407) can1 22F#26000000005D
(1537932774.370157) can1 123#0108050D400086
(1537932774.370363) can1 230#267FFF432A004A
(1537932774.371189) can1 231#2601F9F00000024D
(1537932774.371383) can1 232#2600FE00FE00FE5C
(1537932774.372183) can1 3D0#938080808080806E
(1537932774.372420) can1 3D1#938080808080806F
(1537932774.373188) can1 3D2#9380808080808070
(1537932774.373411) can1 3D3#9380808080808071
(1537932774.404191) can1 210#27FFF80000000038
(1537932774.404467) can1 211#27FFF80000000039
(1537932774.405188) can1 212#27FFF8000000003A
(1537932774.405427) can1 213#27FFF8000000003B
(1537932774.406205) can1 214#27FFF8000000003C
(1537932774.406394) can1 215#27FFF8000000003D
(1537932774.407184) can1 216#27FFF8000000003E
(1537932774.407376) can1 217#27FFF8000000003F
(1537932774.408205) can1 218#27FFF80000000040
(1537932774.408455) can1 219#27FFF80000000041
(1537932774.409195) can1 21A#27FFF80000000042
(1537932774.409421) can1 21B#27FFF80000000043
(1537932774.410192) can1 21C#27FFF80000000044
(1537932774.410414) can1 21D#27FFF80000000045
(1537932774.411196) can1 21E#27FFF80000000046
(1537932774.411409) can1 21F#27FFF80000000047
(1537932774.412186) can1 220#2700000000000051
(1537932774.412368) can1 221#2700000000000052
(1537932774.413131) can1 222#2700000000000053
(1537932774.413424) can1 223#2700000000000054
(1537932774.414282) can1 224#2700000000000055
(1537932774.414367) can1 225#2700000000000056
(1537932774.415296) can1 226#2700000000000057
(1537932774.415387) can1 227#2700000000000058
(1537932774.416261) can1 228#270000000057
(1537932774.416288) can1 229#270000000058
(1537932774.417174) can1 22A#270000000059
(1537932774.417365) can1 22B#27000000005A
(1537932774.418196) can1 22C#27000000005B
(1537932774.418367) can1 22D#27000000005C
(1537932774.419147) can1 22E#27000000005D
(1537932774.419368) can1 22F#27000000005E
(1537932774.420179) can1 230#277FFF432B004C
(1537932774.420419) can1 231#2701F9F00000024E
(1537932774.421189) can1 232#2700FE00FE00FE5D
(1537932774.454146) can1 210#28FFF80000000039
(1537932774.454432) can1 211#28FFF8000000003A
(1537932774.455207) can1 212#28FFF8000000003B
(1537932774.455425) can1 213#28FFF8000000003C
(1537932774.456182) can1 214#28FFF8000000003D
(1537932774.456420) can1 215#28FFF8000000003E
(1537932774.457258) can1 216#28FFF8000000003F
(1537932774.457433) can1 217#28FFF80000000040
(1537932774.458194) can1 218#28FFF80000000041
(1537932774.458433) can1 219#28FFF80000000042
(1537932774.459180) can1 21A#28FFF80000000043
(1537932774.459415) can1 21B#28FFF80000000044
(1537932774.460185) can1 21C#28FFF80000000045
(1537932774.460412) can1 21D#28FFF80000000046
(1537932774.461184) can1 21E#28FFF80000000047
(1537932774.461423) can1 21F#28FFF80000000048
(1537932774.462180) can1 220#2800000000000052
(1537932774.462405) can1 221#2800000000000053
(1537932774.463190) can1 222#2800000000000054
(1537932774.463369) can1 223#2800000000000055
(1537932774.464282) can1 224#2800000000000056
(1537932774.464366) can1 225#2800000000000057
(1537932774.465182) can1 226#2800000000000058
(1537932774.465422) can1 227#2800000000000059
(1537932774.466162) can1 228#280000000058
(1537932774.466332) can1 229#280000000059
(1537932774.467123) can1 22A#28000000005A
(1537932774.467363) can1 22B#28000000005B
(1537932774.468154) can1 22C#28000000005C
(1537932774.468377) can1 22D#28000000005D
(1537932774.469116) can1 22E#28000000005E
(1537932774.469339) can1 22F#28000000005F
(1537932774.470172) can1 123#0108050D400086
(1537932774.470342) can1 230#287FFF432C004E
(1537932774.471165) can1 231#2801F9F00000024F
(1537932774.471418) can1 232#2800FE00FE00FE5E
(1537932774.472145) can1 3D0#948080808080806F
(1537932774.472413) can1 3D1#9480808080808070
(1537932774.473130) can1 3D2#9480808080808071
(1537932774.473386) can1 3D3#9480808080808072
(1537932774.504176) can1 210#29FFF8000000003A
(1537932774.504413) can1 211#29FFF8000000003B
(1537932774.505193) can1 212#29FFF8000000003C
(1537932774.505417) can1 213#29FFF8000000003D
(1537932774.506202) can1 214#29FFF8000000003E
(1537932774.506425) can1 215#29FFF8000000003F
(1537932774.507201) can1 216#29FFF80000000040
(1537932774.507428) can1 217#29FFF80000000041
(1537932774.508245) can1 218#29FFF80000000042
(1537932774.508437) can1 219#29FFF80000000043
(1537932774.509204) can1 21A#29FFF80000000044
(1537932774.509427) can1 21B#29FFF80000000045
(1537932774.510216) can1 21C#29FFF80000000046
(1537932774.510426) can1 21D#29FFF80000000047
(1537932774.511213) can1 21E#29FFF80000000048
(1537932774.511422) can1 21F#29FFF80000000049
(1537932774.512183) can1 220#2900000000000053
(1537932774.512398) can1 221#2900000000000054
(1537932774.513165) can1 222#2900000000000055
(1537932774.513389) can1 223#2900000000000056
(1537932774.514205) can1 224#2900000000000057
(1537932774.514483) can1 225#2900000000000058
(1537932774.515194) can1 226#2900000000000059
(1537932774.515439) can1 227#290000000000005A
(1537932774.516156) can1 228#290000000059
(1537932774.516331) can1 229#29000000005A
(1537932774.517177) can1 22A#29000000005B
(1537932774.517364) can1 22B#29000000005C
(1537932774.518192) can1 22C#29000000005D
(1537932774.518364) can1 22D#29000000005E
(1537932774.519179) can1 22E#29000000005F
(1537932774.519375) can1 22F#290000000060
(1537932774.520187) can1 230#297FFF432D0050
(1537932774.520409) can1 231#2901F9F000000250
(1537932774.521138) can1 232#2900FE00FE00FE5F
(1537932774.554183) can1 210#2AFFF8000000003B
(1537932774.554450) can1 211#2AFFF8000000003C
(1537932774.555222) can1 212#2AFFF8000000003D
(1537932774.555426) can1 213#2AFFF8000000003E
(1537932774.556197) can1 214#2AFFF8000000003F
(1537932774.556413) can1 215#2AFFF80000000040
(1537932774.557122) can1 216#2AFFF80000000041
(1537932774.557381) can1 217#2AFFF80000000042
(1537932774.558209) can1 218#2AFFF80000000043
(1537932774.558411) can1 219#2AFFF80000000044
(1537932774.559198) can1 21A#2AFFF80000000045
(1537932774.559436) can1 21B#2AFFF80000000046
(1537932774.560213) can1 21C#2AFFF80000000047
(1537932774.560433) can1 21D#2AFFF80000000048
(1537932774.561205) can1 21E#2AFFF80000000049
(1537932774.561429) can1 21F#2AFFF8000000004A
(1537932774.562192) can1 220#2A00000000000054
(1537932774.562429) can1 221#2A00000000000055
(1537932774.563194) can1 222#2A00000000000056
(1537932774.563436) can1 223#2A00000000000057
(1537932774.564191) can1 224#2A00000000000058
(1537932774.564413) can1 225#2A00000000000059
(1537932774.565187) can1 226#2A0000000000005A
(1537932774.565435) can1 227#2A0000000000005B
(1537932774.566129) can1 228#2A000000005A
(1537932774.566363) can1 229#2A000000005B
(1537932774.567090) can1 22A#2A000000005C
(1537932774.567340) can1 22B#2A000000005D
(1537932774.568153) can1 22C#2A000000005E
(1537932774.568377) can1 22D#2A000000005F
(1537932774.569153) can1 22E#2A0000000060
(1537932774.569379) can1 22F#2A0000000061
(1537932774.570177) can1 123#0108050D400086
(1537932774.570348) can1 230#2A7FFF432E0052
(1537932774.571137) can1 231#2A01F9F000000251
(1537932774.571370) can1 232#2A00FE00FE00FE60
(1537932774.572175) can1 3D0#9580808080808070
(1537932774.572413) can1 3D1#9580808080808071
(1537932774.573187) can1 3D2#9580808080808072
(1537932774.573406) can1 3D3#9580808080808073
(1537932774.604303) can1 210#2BFFF8000000003C
(1537932774.604414) can1 211#2BFFF8000000003D
(1537932774.605289) can1 212#2BFFF8000000003E
(1537932774.605404) can1 213#2BFFF8000000003F
(1537932774.606321) can1 214#2BFFF80000000040
(1537932774.606413) can1 215#2BFFF80000000041
(1537932774.607306) can1 216#2BFFF80000000042
(1537932774.607384) can1 217#2BFFF80000000043
(1537932774.608148) can1 218#2BFFF80000000044
(1537932774.608428) can1 219#2BFFF80000000045
(1537932774.609135) can1 21A#2BFFF80000000046
(1537932774.609417) can1 21B#2BFFF80000000047
(1537932774.610206) can1 21C#2BFFF80000000048
(1537932774.610380) can1 21D#2BFFF80000000049
(1537932774.611131) can1 21E#2BFFF8000000004A
(1537932774.611385) can1 21F#2BFFF8000000004B
(1537932774.612186) can1 220#2B00000000000055
(1537932774.612417) can1 221#2B00000000000056
(1537932774.613176) can1 222#2B00000000000057
(1537932774.613415) can1 223#2B00000000000058
(1537932774.614185) can1 224#2B00000000000059
(1537932774.614429) can1 225#2B0000000000005A
(1537932774.615204) can1 226#2B0000000000005B
(1537932774.615411) can1 227#2B0000000000005C
(1537932774.616124) can1 228#2B000000005B
(1537932774.616352) can1 229#2B000000005C
(1537932774.617182) can1 22A#2B000000005D
(1537932774.617304) can1 22B#2B000000005E
(1537932774.618107) can1 22C#2B000000005F
(1537932774.618335) can1 22D#2B0000000060
(1537932774.619153) can1 22E#2B0000000061
(1537932774.619385) can1 22F#2B0000000062
(1537932774.620189) can1 230#2B7FFF432F0054
(1537932774.620413) can1 231#2B01F9F000000252
(1537932774.621181) can1 232#2B00FE00FE00FE61
(1537932774.654180) can1 210#2CFFF8000000003D
(1537932774.654450) can1 211#2CFFF8000000003E
(1537932774.655212) can1 212#2CFFF8000000003F
(1537932774.655471) can1 213#2CFFF80000000040
(1537932774.656297) can1 214#2CFFF80000000041
(1537932774.656411) can1 215#2CFFF80000000042
(1537932774.657267) can1 216#2CFFF80000000043
(1537932774.657374) can1 217#2CFFF80000000044
(1537932774.658291) can1 218#2CFFF80000000045
(1537932774.658445) can1 219#2CFFF80000000046
(1537932774.659200) can1 21A#2CFFF80000000047
(1537932774.659411) can1 21B#2CFFF80000000048
(1537932774.660201) can1 21C#2CFFF80000000049
(1537932774.660435) can1 21D#2CFFF8000000004A
(1537932774.661212) can1 21E#2CFFF8000000004B
(1537932774.661421) can1 21F#2CFFF8000000004C
(1537932774.662204) can1 220#2C00000000000056
(1537932774.662420) can1 221#2C00000000000057
(1537932774.663202) can1 222#2C00000000000058
(1537932774.663423) can1 223#2C00000000000059
(1537932774.664153) can1 224#2C0000000000005A
(1537932774.664452) can1 225#2C0000000000005B
(1537932774.665196) can1 226#2C0000000000005C
(1537932774.665447) can1 227#2C0000000000005D
(1537932774.666172) can1 228#2C000000005C
(1537932774.666348) can1 229#2C000000005D
(1537932774.667140) can1 22A#2C000000005E
(1537932774.667331) can1 22B#2C000000005F
(1537932774.668127) can1 22C#2C0000000060
(1537932774.668336) can1 22D#2C0000000061
(1537932774.669103) can1 22E#2C0000000062
(1537932774.669330) can1 22F#2C0000000063
(1537932774.670096) can1 123#0108050D400086
(1537932774.670311) can1 230#2C7FFF43300056
(1537932774.671125) can1 231#2C01F9F000000253
(1537932774.671386) can1 232#2C00FE00FE00FE62
(1537932774.672133) can1 3D0#9680808080808071
(1537932774.672365) can1 3D1#9680808080808072
(1537932774.673133) can1 3D2#9680808080808073
(1537932774.673365) can1 3D3#9680808080808074
(1537932774.704189) can1 210#2DFFF8000000003E
(1537932774.704420) can1 211#2DFFF8000000003F
(1537932774.705141) can1 212#2DFFF80000000040
(1537932774.705417) can1 213#2DFFF80000000041
(1537932774.706179) can1 214#2DFFF80000000042
(1537932774.706419) can1 215#2DFFF80000000043
(1537932774.707190) can1 216#2DFFF80000000044
(1537932774.707408) can1 217#2DFFF80000000045
(1537932774.708189) can1 218#2DFFF80000000046
(1537932774.708410) can1 219#2DFFF80000000047
(1537932774.709185) can1 21A#2DFFF80000000048
(1537932774.709433) can1 21B#2DFFF80000000049
(1537932774.710192) can1 21C#2DFFF8000000004A
(1537932774.710430) can1 21D#2DFFF8000000004B
(1537932774.711188) can1 21E#2DFFF8000000004C
(1537932774.711396) can1 21F#2DFFF8000000004D
(1537932774.712167) can1 220#2D00000000000057
(1537932774.712409) can1 221#2D00000000000058
(1537932774.713185) can1 222#2D00000000000059
(1537932774.713416) can1 223#2D0000000000005A
(1537932774.714185) can1 224#2D0000000000005B
(1537932774.714402) can1 225#2D0000000000005C
(1537932774.715177) can1 226#2D0000000000005D
(1537932774.715412) can1 227#2D0000000000005E
(1537932774.716156) can1 228#2D000000005D
(1537932774.716376) can1 229#2D000000005E
(1537932774.717146) can1 22A#2D000000005F
(1537932774.717363) can1 22B#2D0000000060
(1537932774.718158) can1 22C#2D0000000061
(1537932774.718331) can1 22D#2D0000000062
(1537932774.719168) can1 22E#2D0000000063
(1537932774.719364) can1 22F#2D0000000064
(1537932774.720134) can1 230#2D7FFF43310058
(1537932774.720409) can1 231#2D01F9F000000254
(1537932774.721184) can1 232#2D00FE00FE00FE63
(1537932774.754291) can1 210#2EFFF8000000003F
(1537932774.754475) can1 211#2EFFF80000000040
(1537932774.755200) can1 212#2EFFF80000000041
(1537932774.755424) can1 213#2EFFF80000000042
(1537932774.756201) can1 214#2EFFF80000000043
(1537932774.756449) can1 215#2EFFF80000000044
(1537932774.757114) can1 216#2EFFF80000000045
(1537932774.757408) can1 217#2EFFF80000000046
(1537932774.758193) can1 218#2EFFF80000000047
(1537932774.758427) can1 219#2EFFF80000000048
(1537932774.759212) can1 21A#2EFFF80000000049
(1537932774.759419) can1 21B#2EFFF8000000004A
(1537932774.760210) can1 21C#2EFFF8000000004B
(1537932774.760427) can1 21D#2EFFF8000000004C
(1537932774.761183) can1 21E#2EFFF8000000004D
(1537932774.761411) can1 21F#2EFFF8000000004E
(1537932774.762186) can1 220#2E00000000000058
(1537932774.762414) can1 221#2E00000000000059
(1537932774.763190) can1 222#2E0000000000005A
(1537932774.763417) can1 223#2E0000000000005B
(1537932774.764197) can1 224#2E0000000000005C
(1537932774.764440) can1 225#2E0000000000005D
(1537932774.765181) can1 226#2E0000000000005E
(1537932774.765422) can1 227#2E0000000000005F
(1537932774.766151) can1 228#2E000000005E
(1537932774.766364) can1 229#2E000000005F
(1537932774.767175) can1 22A#2E0000000060
(1537932774.767353) can1 22B#2E0000000061
(1537932774.768171) can1 22C#2E0000000062
(1537932774.768360) can1 22D#2E0000000063
(1537932774.769175) can1 22E#2E0000000064
(1537932774.769303) can1 22F#2E0000000065
(1537932774.770133) can1 123#0108050D400086
(1537932774.770332) can1 230#2E7FFF4332005A
(1537932774.771150) can1 231#2E01F9F000000255
(1537932774.771379) can1 232#2E00FE00FE00FE64
(1537932774.772144) can1 3D0#9780808080808072
(1537932774.772423) can1 3D1#9780808080808073
(1537932774.773203) can1 3D2#9780808080808074
(1537932774.773408) can1 3D3#9780808080808075
(1537932774.804244) can1 210#2FFFF80000000040
(1537932774.804383) can1 211#2FFFF80000000041
(1537932774.805197) can1 212#2FFFF80000000042
(1537932774.805431) can1 213#2FFFF80000000043
(1537932774.806190) can1 214#2FFFF80000000044
(1537932774.806410) can1 215#2FFFF80000000045
(1537932774.807183) can1 216#2FFFF80000000046
(1537932774.807429) can1 217#2FFFF80000000047
(1537932774.808202) can1 218#2FFFF80000000048
(1537932774.808449) can1 219#2FFFF80000000049
(1537932774.809181) can1 21A#2FFFF8000000004A
(1537932774.809420) can1 21B#2FFFF8000000004B
(1537932774.810191) can1 21C#2FFFF8000000004C
(1537932774.810413) can1 21D#2FFFF8000000004D
(1537932774.811188) can1 21E#2FFFF8000000004E
(1537932774.811374) can1 21F#2FFFF8000000004F
(1537932774.812159) can1 220#2F00000000000059
(1537932774.812409) can1 221#2F0000000000005A
(1537932774.813183) can1 222#2F0000000000005B
(1537932774.813403) can1 223#2F0000000000005C
(1537932774.814188) can1 224#2F0000000000005D
(1537932774.814412) can1 225#2F0000000000005E
(1537932774.815184) can1 226#2F0000000000005F
(1537932774.815404) can1 227#2F00000000000060
(1537932774.816130) can1 228#2F000000005F
(1537932774.816316) can1 229#2F0000000060
(1537932774.817111) can1 22A#2F0000000061
(1537932774.817349) can1 22B#2F0000000062
(1537932774.818134) can1 22C#2F0000000063
(1537932774.818377) can1 22D#2F0000000064
(1537932774.819156) can1 22E#2F0000000065
(1537932774.819373) can1 22F#2F0000000066
(1537932774.820151) can1 230#2F7FFF4333005C
(1537932774.820390) can1 231#2F01F9F000000256
(1537932774.821183) can1 232#2F00FE00FE00FE65
(1537932774.854187) can1 210#30FFF80000000041
(1537932774.854420) can1 211#30FFF80000000042
(1537932774.855194) can1 212#30FFF80000000043
(1537932774.855417) can1 213#30FFF80000000044
(1537932774.856185) can1 214#30FFF80000000045
(1537932774.856408) can1 215#30FFF80000000046
(1537932774.857178) can1 216#30FFF80000000047
(1537932774.857420) can1 217#30FFF80000000048
(1537932774.858136) can1 218#30FFF80000000049
(1537932774.858379) can1 219#30FFF8000000004A
(1537932774.859190) can1 21A#30FFF8000000004B
(1537932774.859422) can1 21B#30FFF8000000004C
(1537932774.860179) can1 21C#30FFF8000000004D
(1537932774.860406) can1 21D#30FFF8000000004E
(1537932774.861181) can1 21E#30FFF8000000004F
(1537932774.861419) can1 21F#30FFF80000000050
(1537932774.862193) can1 220#300000000000005A
(1537932774.862422) can1 221#300000000000005B
(1537932774.863306) can1 222#300000000000005C
(1537932774.863382) can1 223#300000000000005D
(1537932774.864280) can1 224#300000000000005E
(1537932774.864483) can1 225#300000000000005F
(1537932774.865192) can1 226#3000000000000060
(1537932774.865417) can1 227#3000000000000061
(1537932774.866130) can1 228#300000000060
(1537932774.866350) can1 229#300000000061
(1537932774.867178) can1 22A#300000000062
(1537932774.867346) can1 22B#300000000063
(1537932774.868150) can1 22C#300000000064
(1537932774.868386) can1 22D#300000000065
(1537932774.869151) can1 22E#300000000066
(1537932774.869378) can1 22F#300000000067
(1537932774.870134) can1 123#0108050D400086
(1537932774.870357) can1 230#307FFF4334005E
(1537932774.871185) can1 231#3001F9F000000257
(1537932774.871420) can1 232#3000FE00FE00FE66
(1537932774.872201) can1 3D0#9880808080808073
(1537932774.872357) can1 3D1#9880808080808074
(1537932774.873121) can1 3D2#9880808080808075
(1537932774.873379) can1 3D3#9880808080808076
(1537932774.904183) can1 210#31FFF80000000042
(1537932774.904479) can1 211#31FFF80000000043
(1537932774.905184) can1 212#31FFF80000000044
(1537932774.905418) can1 213#31FFF80000000045
(1537932774.906188) can1 214#31FFF80000000046
(1537932774.906410) can1 215#31FFF80000000047
(1537932774.907202) can1 216#31FFF80000000048
(1537932774.907439) can1 217#31FFF80000000049
(1537932774.908163) can1 218#31FFF8000000004A
(1537932774.908446) can1 219#31FFF8000000004B
(1537932774.909157) can1 21A#31FFF8000000004C
(1537932774.909419) can1 21B#31FFF8000000004D
(1537932774.910190) can1 21C#31FFF8000000004E
(1537932774.910416) can1 21D#31FFF8000000004F
(1537932774.911186) can1 21E#31FFF80000000050
(1537932774.911409) can1 21F#31FFF80000000051
(1537932774.912178) can1 220#310000000000005B
(1537932774.912403) can1 221#310000000000005C
(1537932774.913172) can1 222#310000000000005D
(1537932774.913399) can1 223#310000000000005E
(1537932774.914203) can1 224#310000000000005F
(1537932774.914414) can1 225#3100000000000060
(1537932774.915184) can1 226#3100000000000061
(1537932774.915429) can1 227#3100000000000062
(1537932774.916170) can1 228#310000000061
(1537932774.916351) can1 229#310000000062
(1537932774.917176) can1 22A#310000000063
(1537932774.917358) can1 22B#310000000064
(1537932774.918159) can1 22C#310000000065
(1537932774.918326) can1 22D#310000000066
(1537932774.919177) can1 22E#310000000067
(1537932774.919345) can1 22F#310000000068
(1537932774.920173) can1 230#317FFF43350060
(1537932774.920424) can1 231#3101F9F000000258
(1537932774.921178) can1 232#3100FE00FE00FE67
(1537932774.954312) can1 210#32FFF80000000043
(1537932774.954412) can1 211#32FFF80000000044
(1537932774.955288) can1 212#32FFF80000000045
(1537932774.955433) can1 213#32FFF80000000046
(1537932774.956206) can1 214#32FFF80000000047
(1537932774.956421) can1 215#32FFF80000000048
(1537932774.957253) can1 216#32FFF80000000049
(1537932774.957436) can1 217#32FFF8000000004A
