(1533872830.034877) can1 220#4700000000000071
(1533872830.035106) can1 221#4700000000000072
(1533872830.035779) can1 344#0000010000000050
(1533872830.035901) can1 222#4700000000000073
(1533872830.036347) can1 223#4700000000000074
(1533872830.036966) can1 224#4700000000000075
(1533872830.037166) can1 225#4700000000000076
(1533872830.037926) can1 226#4700000000000077
(1533872830.038190) can1 227#4700000000000078
(1533872830.038853) can1 228#470000000077
(1533872830.039091) can1 229#470000000078
(1533872830.039876) can1 22A#470000000079
(1533872830.040057) can1 22B#47000000007A
(1533872830.040867) can1 22C#47000000007B
(1533872830.041071) can1 22D#47000000007C
(1533872830.041842) can1 22E#47000000007D
(1533872830.042071) can1 22F#47000000007E
(1533872830.042842) can1 230#477FFF744B00BD
(1533872830.043138) can1 231#47002BFC000002AB
(1533872830.043947) can1 232#4700FE00FE00FE7D
(1533872830.045739) can1 141#00000046
(1533872830.046045) can1 160#0000081201319C51
(1533872830.046137) can1 161#001E0000008007
(1533872830.055865) can1 128#F40190830037
(1533872830.056045) can1 283#0000000000008C
(1533872830.065945) can1 141#00000046
(1533872830.077023) can1 210#48FFF80000000059
(1533872830.077227) can1 211#48FFF8000000005A
(1533872830.077935) can1 212#48FFF8000000005B
(1533872830.078260) can1 213#48FFF8000000005C
(1533872830.079020) can1 214#48FFF8000000005D
(1533872830.079217) can1 215#48FFF8000000005E
(1533872830.079942) can1 216#48FFF8000000005F
(1533872830.080151) can1 217#48FFF80000000060
(1533872830.080946) can1 218#48FFF80000000061
(1533872830.081266) can1 219#48FFF80000000062
(1533872830.082099) can1 21A#48FFF80000000063
(1533872830.082120) can1 21B#48FFF80000000064
(1533872830.083025) can1 21C#48FFF80000000065
(1533872830.083192) can1 21D#48FFF80000000066
(1533872830.084005) can1 21E#48FFF80000000067
(1533872830.084261) can1 21F#48FFF80000000068
(1533872830.085025) can1 220#4800000000000072
(1533872830.085246) can1 221#4800000000000073
(1533872830.085932) can1 222#4800000000000074
(1533872830.086115) can1 223#4800000000000075
(1533872830.086592) can1 141#00000046
(1533872830.086838) can1 128#F40190830037
(1533872830.087011) can1 224#4800000000000076
(1533872830.087069) can1 283#0000000000008C
(1533872830.087223) can1 344#0000010000000050
(1533872830.087446) can1 365#00000080FC0008
(1533872830.087503) can1 225#4800000000000077
(1533872830.087671) can1 366#007207FF09FE00
(1533872830.087946) can1 226#4800000000000078
(1533872830.088143) can1 4CB#0C00000000000000
(1533872830.088405) can1 227#4800000000000079
(1533872830.089043) can1 228#480000000078
(1533872830.089300) can1 229#480000000079
(1533872830.089876) can1 22A#48000000007A
(1533872830.090069) can1 22B#48000000007B
(1533872830.090840) can1 22C#48000000007C
(1533872830.091070) can1 22D#48000000007D
(1533872830.091840) can1 22E#48000000007E
(1533872830.092069) can1 22F#48000000007F
(1533872830.092841) can1 123#0108090D40008A
(1533872830.093069) can1 230#487FFF744C00BF
(1533872830.093892) can1 231#48002BFC000002AC
(1533872830.094125) can1 232#4800FE00FE00FE7E
(1533872830.094891) can1 3D0#24808080808080FF
(1533872830.095125) can1 3D1#2480808080808000
(1533872830.095888) can1 3D2#2480808080808001
(1533872830.096136) can1 3D3#2480808080808002
(1533872830.107541) can1 141#00000046
(1533872830.117968) can1 128#F40190830037
(1533872830.118620) can1 283#0000000000008C
(1533872830.119222) can1 160#0000081201319C51
(1533872830.119760) can1 161#001E0000008007
(1533872830.126896) can1 210#49FFF8000000005A
(1533872830.127128) can1 211#49FFF8000000005B
(1533872830.127945) can1 212#49FFF8000000005C
(1533872830.128092) can1 141#00000046
(1533872830.128160) can1 213#49FFF8000000005D
(1533872830.128916) can1 214#49FFF8000000005E
(1533872830.129202) can1 215#49FFF8000000005F
(1533872830.129944) can1 216#49FFF80000000060
(1533872830.130156) can1 217#49FFF80000000061
(1533872830.130942) can1 218#49FFF80000000062
(1533872830.131170) can1 219#49FFF80000000063
(1533872830.131906) can1 21A#49FFF80000000064
(1533872830.132130) can1 21B#49FFF80000000065
(1533872830.132881) can1 21C#49FFF80000000066
(1533872830.133159) can1 21D#49FFF80000000067
(1533872830.133871) can1 21E#49FFF80000000068
(1533872830.134124) can1 21F#49FFF80000000069
(1533872830.134884) can1 220#4900000000000073
(1533872830.135122) can1 221#4900000000000074
(1533872830.135885) can1 222#4900000000000075
(1533872830.136126) can1 223#4900000000000076
(1533872830.136888) can1 224#4900000000000077
(1533872830.137125) can1 225#4900000000000078
(1533872830.137895) can1 226#4900000000000079
(1533872830.138124) can1 227#490000000000007A
(1533872830.138873) can1 228#490000000079
(1533872830.138986) can1 344#0000010000000050
(1533872830.139071) can1 229#49000000007A
(1533872830.139920) can1 22A#49000000007B
(1533872830.140091) can1 22B#49000000007C
(1533872830.140874) can1 22C#49000000007D
(1533872830.141091) can1 22D#49000000007E
(1533872830.141858) can1 22E#49000000007F
(1533872830.142059) can1 22F#490000000080
(1533872830.142871) can1 230#497FFF744D00C1
(1533872830.143135) can1 231#49002BFC000002AD
(1533872830.143971) can1 232#4900FE00FE00FE7F
(1533872830.149160) can1 141#00000046
(1533872830.149887) can1 128#F40190830037
(1533872830.150785) can1 283#0000000000008C
(1533872830.169650) can1 141#00000046
(1533872830.176920) can1 210#4AFFF8000000005B
(1533872830.177189) can1 211#4AFFF8000000005C
(1533872830.177927) can1 212#4AFFF8000000005D
(1533872830.178150) can1 213#4AFFF8000000005E
(1533872830.178925) can1 214#4AFFF8000000005F
(1533872830.179147) can1 215#4AFFF80000000060
(1533872830.179883) can1 216#4AFFF80000000061
(1533872830.180125) can1 217#4AFFF80000000062
(1533872830.180182) can1 128#F40190830037
(1533872830.180776) can1 283#0000000000008C
(1533872830.180994) can1 218#4AFFF80000000063
(1533872830.181376) can1 219#4AFFF80000000064
(1533872830.181947) can1 21A#4AFFF80000000065
(1533872830.182129) can1 21B#4AFFF80000000066
(1533872830.182904) can1 21C#4AFFF80000000067
(1533872830.183138) can1 21D#4AFFF80000000068
(1533872830.183973) can1 21E#4AFFF80000000069
(1533872830.184132) can1 21F#4AFFF8000000006A
(1533872830.184883) can1 220#4A00000000000074
(1533872830.185130) can1 221#4A00000000000075
(1533872830.185885) can1 222#4A00000000000076
(1533872830.186118) can1 223#4A00000000000077
(1533872830.187005) can1 224#4A00000000000078
(1533872830.187229) can1 225#4A00000000000079
(1533872830.188003) can1 226#4A0000000000007A
(1533872830.188165) can1 227#4A0000000000007B
(1533872830.188855) can1 228#4A000000007A
(1533872830.189083) can1 229#4A000000007B
(1533872830.189881) can1 22A#4A000000007C
(1533872830.190072) can1 22B#4A000000007D
(1533872830.190446) can1 141#00000046
(1533872830.190858) can1 22C#4A000000007E
(1533872830.191056) can1 22D#4A000000007F
(1533872830.191252) can1 344#0000010000000050
(1533872830.191866) can1 22E#4A0000000080
(1533872830.191966) can1 160#0000081201319C51
(1533872830.192080) can1 22F#4A0000000081
(1533872830.192898) can1 123#0108090D40008A
(1533872830.193109) can1 230#4A7FFF744E00C3
(1533872830.193869) can1 231#4A002BFC000002AE
(1533872830.194126) can1 232#4A00FE00FE00FE80
(1533872830.194876) can1 3D0#2580808080808000
(1533872830.195160) can1 3D1#2580808080808001
(1533872830.195869) can1 3D2#2580808080808002
(1533872830.196126) can1 3D3#2580808080808003
(1533872830.205965) can1 161#001E0000008007
(1533872830.211040) can1 141#00000046
(1533872830.211675) can1 128#F40190830037
(1533872830.212237) can1 283#0000000000008C
(1533872830.227002) can1 210#4BFFF8000000005C
(1533872830.227167) can1 211#4BFFF8000000005D
(1533872830.227929) can1 212#4BFFF8000000005E
(1533872830.228183) can1 213#4BFFF8000000005F
(1533872830.228912) can1 214#4BFFF80000000060
(1533872830.229148) can1 215#4BFFF80000000061
(1533872830.229930) can1 216#4BFFF80000000062
(1533872830.230147) can1 217#4BFFF80000000063
(1533872830.230887) can1 218#4BFFF80000000064
(1533872830.231103) can1 219#4BFFF80000000065
(1533872830.231196) can1 141#00000046
(1533872830.232010) can1 21A#4BFFF80000000066
(1533872830.232167) can1 21B#4BFFF80000000067
(1533872830.232971) can1 21C#4BFFF80000000068
(1533872830.233122) can1 21D#4BFFF80000000069
(1533872830.233869) can1 21E#4BFFF8000000006A
(1533872830.234126) can1 21F#4BFFF8000000006B
(1533872830.234893) can1 220#4B00000000000075
(1533872830.235128) can1 221#4B00000000000076
(1533872830.235893) can1 222#4B00000000000077
(1533872830.236128) can1 223#4B00000000000078
(1533872830.236892) can1 224#4B00000000000079
(1533872830.237123) can1 225#4B0000000000007A
(1533872830.237927) can1 226#4B0000000000007B
(1533872830.238168) can1 227#4B0000000000007C
(1533872830.238875) can1 228#4B000000007B
(1533872830.239101) can1 229#4B000000007C
(1533872830.239917) can1 22A#4B000000007D
(1533872830.240131) can1 22B#4B000000007E
(1533872830.240869) can1 22C#4B000000007F
(1533872830.241075) can1 22D#4B0000000080
(1533872830.241233) can1 128#F40190830037
(1533872830.241574) can1 283#0000000000008C
(1533872830.241950) can1 344#0000010000000050
(1533872830.242087) can1 22E#4B0000000081
(1533872830.242499) can1 22F#4B0000000082
(1533872830.242841) can1 230#4B7FFF744F00C5
(1533872830.243125) can1 231#4B002BFC000002AF
(1533872830.243894) can1 232#4B00FE00FE00FE81
(1533872830.251296) can1 141#00000046
(1533872830.261662) can1 160#0000081201319C51
(1533872830.262004) can1 161#001E0000008007
(1533872830.271965) can1 141#00000046
(1533872830.272401) can1 128#F40190830037
(1533872830.272856) can1 283#0000000000008C
(1533872830.277013) can1 210#4CFFF8000000005D
(1533872830.277143) can1 211#4CFFF8000000005E
(1533872830.277920) can1 212#4CFFF8000000005F
(1533872830.278129) can1 213#4CFFF80000000060
(1533872830.278921) can1 214#4CFFF80000000061
(1533872830.279180) can1 215#4CFFF80000000062
(1533872830.279924) can1 216#4CFFF80000000063
(1533872830.280118) can1 217#4CFFF80000000064
(1533872830.280952) can1 218#4CFFF80000000065
(1533872830.281189) can1 219#4CFFF80000000066
(1533872830.281927) can1 21A#4CFFF80000000067
(1533872830.282118) can1 21B#4CFFF80000000068
(1533872830.282876) can1 21C#4CFFF80000000069
(1533872830.283106) can1 21D#4CFFF8000000006A
(1533872830.283877) can1 21E#4CFFF8000000006B
(1533872830.284112) can1 21F#4CFFF8000000006C
(1533872830.284932) can1 220#4C00000000000076
(1533872830.285148) can1 221#4C00000000000077
(1533872830.285930) can1 222#4C00000000000078
(1533872830.286138) can1 223#4C00000000000079
(1533872830.286915) can1 224#4C0000000000007A
(1533872830.287210) can1 225#4C0000000000007B
(1533872830.287893) can1 226#4C0000000000007C
(1533872830.288184) can1 227#4C0000000000007D
(1533872830.288894) can1 228#4C000000007C
(1533872830.289093) can1 229#4C000000007D
(1533872830.289908) can1 22A#4C000000007E
(1533872830.290075) can1 22B#4C000000007F
(1533872830.290925) can1 22C#4C0000000080
(1533872830.291113) can1 22D#4C0000000081
(1533872830.291926) can1 22E#4C0000000082
(1533872830.292065) can1 22F#4C0000000083
(1533872830.292564) can1 141#00000046
(1533872830.292981) can1 123#0108090D40008A
(1533872830.293143) can1 344#0000010000000050
(1533872830.293228) can1 230#4C7FFF745000C7
(1533872830.293893) can1 231#4C002BFC000002B0
(1533872830.294125) can1 232#4C00FE00FE00FE82
(1533872830.294897) can1 3D0#2680808080808001
(1533872830.295127) can1 3D1#2680808080808002
(1533872830.295894) can1 3D2#2680808080808003
(1533872830.296128) can1 3D3#2680808080808004
(1533872830.306221) can1 365#00000080FC0008
(1533872830.306946) can1 366#007207FF09FE00
(1533872830.307616) can1 128#F40190830037
(1533872830.308296) can1 283#0000000000008C
(1533872830.313493) can1 141#00000046
(1533872830.326924) can1 210#4DFFF8000000005E
(1533872830.327178) can1 211#4DFFF8000000005F
(1533872830.327939) can1 212#4DFFF80000000060
(1533872830.328179) can1 213#4DFFF80000000061
(1533872830.328945) can1 214#4DFFF80000000062
(1533872830.329183) can1 215#4DFFF80000000063
(1533872830.329945) can1 216#4DFFF80000000064
(1533872830.330166) can1 217#4DFFF80000000065
(1533872830.330945) can1 218#4DFFF80000000066
(1533872830.331183) can1 219#4DFFF80000000067
(1533872830.331945) can1 21A#4DFFF80000000068
(1533872830.332178) can1 21B#4DFFF80000000069
(1533872830.332945) can1 21C#4DFFF8000000006A
(1533872830.333185) can1 21D#4DFFF8000000006B
(1533872830.333903) can1 21E#4DFFF8000000006C
(1533872830.334151) can1 21F#4DFFF8000000006D
(1533872830.334215) can1 141#00000046
(1533872830.334876) can1 220#4D00000000000077
(1533872830.335110) can1 221#4D00000000000078
(1533872830.335874) can1 222#4D00000000000079
(1533872830.336126) can1 223#4D0000000000007A
(1533872830.336883) can1 224#4D0000000000007B
(1533872830.337165) can1 225#4D0000000000007C
(1533872830.337873) can1 226#4D0000000000007D
(1533872830.338126) can1 227#4D0000000000007E
(1533872830.338878) can1 228#4D000000007D
(1533872830.339058) can1 229#4D000000007E
(1533872830.339875) can1 22A#4D000000007F
(1533872830.340060) can1 22B#4D0000000080
(1533872830.340874) can1 22C#4D0000000081
(1533872830.341082) can1 22D#4D0000000082
(1533872830.341842) can1 22E#4D0000000083
(1533872830.342073) can1 22F#4D0000000084
(1533872830.342881) can1 230#4D7FFF745100C9
(1533872830.343113) can1 231#4D002BFC000002B1
(1533872830.343170) can1 128#F40190830037
(1533872830.343794) can1 283#0000000000008C
(1533872830.343954) can1 232#4D00FE00FE00FE83
(1533872830.344329) can1 160#0000081201319C51
(1533872830.344785) can1 161#001E0000008007
(1533872830.345295) can1 344#0000010000000050
(1533872830.354297) can1 141#00000046
(1533872830.365081) can1 128#F40190830037
(1533872830.365951) can1 283#0000000000008C
(1533872830.375267) can1 141#00000046
(1533872830.376941) can1 210#4EFFF8000000005F
(1533872830.377164) can1 211#4EFFF80000000060
(1533872830.377973) can1 212#4EFFF80000000061
(1533872830.378147) can1 213#4EFFF80000000062
(1533872830.378999) can1 214#4EFFF80000000063
(1533872830.379151) can1 215#4EFFF80000000064
(1533872830.379902) can1 216#4EFFF80000000065
(1533872830.380218) can1 217#4EFFF80000000066
(1533872830.380922) can1 218#4EFFF80000000067
(1533872830.381162) can1 219#4EFFF80000000068
(1533872830.381940) can1 21A#4EFFF80000000069
(1533872830.382154) can1 21B#4EFFF8000000006A
(1533872830.382888) can1 21C#4EFFF8000000006B
(1533872830.383163) can1 21D#4EFFF8000000006C
(1533872830.383879) can1 21E#4EFFF8000000006D
(1533872830.384129) can1 21F#4EFFF8000000006E
(1533872830.384895) can1 220#4E00000000000078
(1533872830.385134) can1 221#4E00000000000079
(1533872830.385885) can1 222#4E0000000000007A
(1533872830.386122) can1 223#4E0000000000007B
(1533872830.386896) can1 224#4E0000000000007C
(1533872830.387156) can1 225#4E0000000000007D
(1533872830.387932) can1 226#4E0000000000007E
(1533872830.388178) can1 227#4E0000000000007F
(1533872830.388897) can1 228#4E000000007E
(1533872830.389107) can1 229#4E000000007F
(1533872830.389908) can1 22A#4E0000000080
(1533872830.390158) can1 22B#4E0000000081
(1533872830.390853) can1 22C#4E0000000082
(1533872830.391119) can1 22D#4E0000000083
(1533872830.391887) can1 22E#4E0000000084
(1533872830.392107) can1 22F#4E0000000085
(1533872830.392887) can1 123#0108090D40008A
(1533872830.393073) can1 230#4E7FFF745200CB
(1533872830.393875) can1 231#4E002BFC000002B2
(1533872830.394156) can1 232#4E00FE00FE00FE84
(1533872830.394892) can1 3D0#2780808080808002
(1533872830.395150) can1 3D1#2780808080808003
(1533872830.395869) can1 3D2#2780808080808004
(1533872830.396053) can1 141#00000046
(1533872830.396169) can1 3D3#2780808080808005
(1533872830.413605) can1 128#F40190830037
(1533872830.414390) can1 283#0000000000008C
(1533872830.415284) can1 344#0000010000000050
(1533872830.416157) can1 160#0000081201319C51
(1533872830.417190) can1 161#001E0000008007
(1533872830.418062) can1 141#00000046
(1533872830.426880) can1 210#4FFFF80000000060
(1533872830.427162) can1 211#4FFFF80000000061
(1533872830.427646) can1 128#F40190830037
(1533872830.427969) can1 212#4FFFF80000000062
(1533872830.428252) can1 283#0000000000008C
(1533872830.428369) can1 213#4FFFF80000000063
(1533872830.428878) can1 214#4FFFF80000000064
(1533872830.429160) can1 215#4FFFF80000000065
(1533872830.429972) can1 216#4FFFF80000000066
(1533872830.430169) can1 217#4FFFF80000000067
(1533872830.430895) can1 218#4FFFF80000000068
(1533872830.431128) can1 219#4FFFF80000000069
(1533872830.431936) can1 21A#4FFFF8000000006A
(1533872830.432141) can1 21B#4FFFF8000000006B
(1533872830.432916) can1 21C#4FFFF8000000006C
(1533872830.433182) can1 21D#4FFFF8000000006D
(1533872830.433907) can1 21E#4FFFF8000000006E
(1533872830.434192) can1 21F#4FFFF8000000006F
(1533872830.434927) can1 220#4F00000000000079
(1533872830.435167) can1 221#4F0000000000007A
(1533872830.435871) can1 222#4F0000000000007B
(1533872830.436189) can1 223#4F0000000000007C
(1533872830.436888) can1 224#4F0000000000007D
(1533872830.437089) can1 141#00000046
(1533872830.437161) can1 225#4F0000000000007E
(1533872830.437962) can1 226#4F0000000000007F
(1533872830.438163) can1 227#4F00000000000080
(1533872830.438859) can1 228#4F000000007F
(1533872830.439055) can1 229#4F0000000080
(1533872830.439844) can1 22A#4F0000000081
(1533872830.440050) can1 22B#4F0000000082
(1533872830.440849) can1 22C#4F0000000083
(1533872830.441041) can1 22D#4F0000000084
(1533872830.441849) can1 22E#4F0000000085
(1533872830.442040) can1 22F#4F0000000086
(1533872830.442847) can1 230#4F7FFF745300CD
(1533872830.443101) can1 231#4F002BFC000002B3
(1533872830.443961) can1 232#4F00FE00FE00FE85
(1533872830.456087) can1 344#0000010000000050
(1533872830.459486) can1 141#00000046
(1533872830.460605) can1 128#F40190830037
(1533872830.461467) can1 283#0000000000008C
(1533872830.476903) can1 210#50FFF80000000061
(1533872830.477153) can1 211#50FFF80000000062
(1533872830.477961) can1 212#50FFF80000000063
(1533872830.478107) can1 213#50FFF80000000064
(1533872830.478860) can1 214#50FFF80000000065
(1533872830.479151) can1 215#50FFF80000000066
(1533872830.479960) can1 216#50FFF80000000067
(1533872830.480163) can1 217#50FFF80000000068
(1533872830.480949) can1 218#50FFF80000000069
(1533872830.481141) can1 219#50FFF8000000006A
(1533872830.481563) can1 141#00000046
(1533872830.482007) can1 21A#50FFF8000000006B
(1533872830.482129) can1 160#0000081201319C51
(1533872830.482240) can1 21B#50FFF8000000006C
(1533872830.482716) can1 161#001E0000008007
(1533872830.482888) can1 21C#50FFF8000000006D
(1533872830.483337) can1 21D#50FFF8000000006E
(1533872830.483882) can1 21E#50FFF8000000006F
(1533872830.484159) can1 21F#50FFF80000000070
(1533872830.484860) can1 220#500000000000007A
(1533872830.485148) can1 221#500000000000007B
(1533872830.485958) can1 222#500000000000007C
(1533872830.486102) can1 223#500000000000007D
(1533872830.486977) can1 224#500000000000007E
(1533872830.487161) can1 225#500000000000007F
(1533872830.487975) can1 226#5000000000000080
(1533872830.488176) can1 227#5000000000000081
(1533872830.488874) can1 228#500000000080
(1533872830.489083) can1 229#500000000081
(1533872830.489192) can1 128#F40190830037
(1533872830.489792) can1 283#0000000000008C
(1533872830.489957) can1 22A#500000000082
(1533872830.490299) can1 22B#500000000083
(1533872830.490873) can1 22C#500000000084
(1533872830.491048) can1 22D#500000000085
(1533872830.491871) can1 22E#500000000086
(1533872830.492080) can1 22F#500000000087
(1533872830.492888) can1 123#0108090D40008A
(1533872830.493115) can1 230#507FFF745400CF
(1533872830.493959) can1 231#50002BFC000002B4
(1533872830.494126) can1 232#5000FE00FE00FE86
(1533872830.495004) can1 3D0#2880808080808003
(1533872830.495205) can1 3D1#2880808080808004
(1533872830.495996) can1 3D2#2880808080808005
(1533872830.496186) can1 3D3#2880808080808006
(1533872830.510709) can1 141#00000046
(1533872830.511415) can1 344#0000010000000050
(1533872830.511956) can1 365#00000080FC0008
(1533872830.512454) can1 366#007207FF09FE00
(1533872830.520774) can1 141#00000046
(1533872830.521390) can1 128#F40190830037
(1533872830.521953) can1 283#0000000000008C
(1533872830.526860) can1 210#51FFF80000000062
(1533872830.527097) can1 211#51FFF80000000063
(1533872830.527955) can1 212#51FFF80000000064
(1533872830.528142) can1 213#51FFF80000000065
(1533872830.528901) can1 214#51FFF80000000066
(1533872830.529153) can1 215#51FFF80000000067
(1533872830.529893) can1 216#51FFF80000000068
(1533872830.530163) can1 217#51FFF80000000069
(1533872830.530999) can1 218#51FFF8000000006A
(1533872830.531164) can1 219#51FFF8000000006B
(1533872830.532006) can1 21A#51FFF8000000006C
(1533872830.532163) can1 21B#51FFF8000000006D
(1533872830.532925) can1 21C#51FFF8000000006E
(1533872830.533188) can1 21D#51FFF8000000006F
(1533872830.533911) can1 21E#51FFF80000000070
(1533872830.534154) can1 21F#51FFF80000000071
(1533872830.534935) can1 220#510000000000007B
(1533872830.535151) can1 221#510000000000007C
(1533872830.535933) can1 222#510000000000007D
(1533872830.536144) can1 223#510000000000007E
(1533872830.536913) can1 224#510000000000007F
(1533872830.537197) can1 225#5100000000000080
(1533872830.537922) can1 226#5100000000000081
(1533872830.538190) can1 227#5100000000000082
(1533872830.538915) can1 228#510000000081
(1533872830.539068) can1 229#510000000082
(1533872830.539839) can1 22A#510000000083
(1533872830.540069) can1 22B#510000000084
(1533872830.540827) can1 22C#510000000085
(1533872830.541056) can1 22D#510000000086
(1533872830.541872) can1 22E#510000000087
(1533872830.542056) can1 22F#510000000088
(1533872830.542873) can1 230#517FFF745500D1
(1533872830.543106) can1 231#51002BFC000002B5
(1533872830.543890) can1 232#5100FE00FE00FE87
(1533872830.544418) can1 141#00000046
(1533872830.551641) can1 128#F40190830037
(1533872830.551947) can1 283#0000000000008C
(1533872830.552210) can1 344#0000010000000050
(1533872830.552440) can1 160#0000081201319C51
(1533872830.552681) can1 161#001E0000008007
(1533872830.561473) can1 141#00000046
(1533872830.576928) can1 210#521C6A17F0BE8940
(1533872830.577132) can1 211#52FFF80000000064
(1533872830.577911) can1 212#52FFF80000000065
(1533872830.578116) can1 213#52FFF80000000066
(1533872830.578938) can1 214#52FFF80000000067
(1533872830.579120) can1 215#52FFF80000000068
(1533872830.579869) can1 216#52FFF80000000069
(1533872830.580102) can1 217#52FFF8000000006A
(1533872830.580879) can1 218#52FFF8000000006B
(1533872830.581144) can1 219#52FFF8000000006C
(1533872830.581869) can1 21A#52FFF8000000006D
(1533872830.581951) can1 141#00000046
(1533872830.582144) can1 21B#52FFF8000000006E
(1533872830.582192) can1 128#F40190830037
(1533872830.582333) can1 283#0000000000008C
(1533872830.582955) can1 21C#52FFF8000000006F
(1533872830.583202) can1 21D#52FFF80000000070
(1533872830.583888) can1 21E#52FFF80000000071
(1533872830.584133) can1 21F#52FFF80000000072
(1533872830.584991) can1 220#5200000000060C8E
(1533872830.585231) can1 221#520000000000007D
(1533872830.586025) can1 222#520000000000007E
(1533872830.586120) can1 223#520000000000007F
(1533872830.586914) can1 224#5200000000000080
(1533872830.587151) can1 225#5200000000000081
(1533872830.588002) can1 226#5200000000000082
(1533872830.588181) can1 227#5200000000000083
(1533872830.588986) can1 228#520000000082
(1533872830.589143) can1 229#520000000083
(1533872830.589979) can1 22A#520000000084
(1533872830.590138) can1 22B#520000000085
(1533872830.590982) can1 22C#520000000086
(1533872830.591108) can1 22D#520000000087
(1533872830.592021) can1 22E#520000000088
(1533872830.592101) can1 22F#520000000089
(1533872830.592984) can1 123#0108090D40008A
(1533872830.593144) can1 230#527FFF745600D3
(1533872830.594027) can1 231#52002BFC000002B6
(1533872830.594120) can1 232#5200FE00FE00FE88
(1533872830.594889) can1 3D0#2980808080808004
(1533872830.595107) can1 3D1#2980808080808005
(1533872830.595872) can1 3D2#2980808080808006
(1533872830.596150) can1 3D3#2980808080808007
(1533872830.602242) can1 141#00000046
(1533872830.602380) can1 344#0000010000000050
(1533872830.612542) can1 128#F40190830037
(1533872830.612729) can1 283#0000000000008C
(1533872830.622749) can1 141#00000046
(1533872830.622939) can1 160#0000081201319C51
(1533872830.623069) can1 161#001E0000008007
(1533872830.627024) can1 210#531B6417E0BE892A
(1533872830.627122) can1 211#53FFF80000000065
(1533872830.627962) can1 212#53FFF80000000066
(1533872830.628123) can1 213#53FFF80000000067
(1533872830.628891) can1 214#53FFF80000000068
(1533872830.629184) can1 215#53FFF80000000069
(1533872830.629998) can1 216#53FFF8000000006A
(1533872830.630162) can1 217#53FFF8000000006B
(1533872830.631026) can1 218#53FFF8000000006C
(1533872830.631206) can1 219#53FFF8000000006D
(1533872830.631873) can1 21A#53FFF8000000006E
(1533872830.632287) can1 21B#53FFF8000000006F
(1533872830.633004) can1 21C#53FFF80000000070
(1533872830.633293) can1 21D#53FFF80000000071
(1533872830.634003) can1 21E#53FFF80000000072
(1533872830.634231) can1 21F#53FFF80000000073
(1533872830.635024) can1 220#5300000000060C8F
(1533872830.635191) can1 221#530000000000007E
(1533872830.636013) can1 222#530000000000007F
(1533872830.636197) can1 223#5300000000000080
(1533872830.636993) can1 224#5300000000000081
(1533872830.637162) can1 225#5300000000000082
(1533872830.638072) can1 226#5300000000000083
(1533872830.638196) can1 227#5300000000000084
(1533872830.638950) can1 228#530000000083
(1533872830.639077) can1 229#530000000084
(1533872830.639843) can1 22A#530000000085
(1533872830.640107) can1 22B#530000000086
(1533872830.640876) can1 22C#530000000087
(1533872830.641065) can1 22D#530000000088
(1533872830.641837) can1 22E#530000000089
(1533872830.642066) can1 22F#53000000008A
(1533872830.642838) can1 230#537FFF745700D5
(1533872830.643071) can1 141#00000046
(1533872830.643167) can1 231#53002BFC000002B7
(1533872830.643303) can1 128#F40190830037
(1533872830.643542) can1 283#0000000000008C
(1533872830.644040) can1 232#5300FE00FE00FE89
(1533872830.654237) can1 344#0000010000000050
(1533872830.664342) can1 141#00000046
(1533872830.674785) can1 128#F40190830037
(1533872830.675464) can1 283#0000000000008C
(1533872830.676926) can1 210#541A5E17E0BE8924
(1533872830.677110) can1 211#54FFF80000000066
(1533872830.677975) can1 212#54FFF80000000067
(1533872830.678112) can1 213#54FFF80000000068
(1533872830.678928) can1 214#54FFF80000000069
(1533872830.679139) can1 215#54FFF8000000006A
(1533872830.679999) can1 216#54FFF8000000006B
(1533872830.680170) can1 217#54FFF8000000006C
(1533872830.680945) can1 218#54FFF8000000006D
(1533872830.681151) can1 219#54FFF8000000006E
(1533872830.681867) can1 21A#54FFF8000000006F
(1533872830.682123) can1 21B#54FFF80000000070
(1533872830.682884) can1 21C#54FFF80000000071
(1533872830.683119) can1 21D#54FFF80000000072
(1533872830.683896) can1 21E#54FFF80000000073
(1533872830.684155) can1 21F#54FFF80000000074
(1533872830.684952) can1 220#5400000000060C90
(1533872830.685102) can1 221#540000000000007F
(1533872830.685859) can1 222#5400000000000080
(1533872830.686147) can1 223#5400000000000081
(1533872830.686957) can1 224#5400000000000082
(1533872830.687179) can1 225#5400000000000083
(1533872830.687966) can1 226#5400000000000084
(1533872830.688118) can1 227#5400000000000085
(1533872830.688828) can1 228#540000000084
(1533872830.689048) can1 229#540000000085
(1533872830.689857) can1 22A#540000000086
(1533872830.690056) can1 22B#540000000087
(1533872830.690668) can1 141#00000046
(1533872830.690837) can1 22C#540000000088
(1533872830.691250) can1 22D#540000000089
(1533872830.691890) can1 22E#54000000008A
(1533872830.692071) can1 22F#54000000008B
(1533872830.692928) can1 123#0108090D40008A
(1533872830.693164) can1 230#547FFF745800D7
(1533872830.693889) can1 231#54002BFC000002B8
(1533872830.694135) can1 232#5400FE00FE00FE8A
(1533872830.694875) can1 3D0#2A80808080808005
(1533872830.695158) can1 3D1#2A80808080808006
(1533872830.695592) can1 160#0000081201319C51
(1533872830.696037) can1 3D2#2A80808080808007
(1533872830.696141) can1 161#001E0000008007
(1533872830.696382) can1 3D3#2A80808080808008
(1533872830.706640) can1 141#00000046
(1533872830.707353) can1 128#F40190830037
(1533872830.707859) can1 283#0000000000008C
(1533872830.708396) can1 344#0000010000000050
(1533872830.709109) can1 365#00000080FC0008
(1533872830.709839) can1 366#007207FF09FE00
(1533872830.726879) can1 210#55195817E0BE891E
(1533872830.727130) can1 211#55FFF80000000067
(1533872830.727234) can1 141#00000046
(1533872830.727937) can1 212#55FFF80000000068
(1533872830.728156) can1 213#55FFF80000000069
(1533872830.728902) can1 214#55FFF8000000006A
(1533872830.729125) can1 215#55FFF8000000006B
(1533872830.729876) can1 216#55FFF8000000006C
(1533872830.730153) can1 217#55FFF8000000006D
(1533872830.730929) can1 218#55FFF8000000006E
(1533872830.731193) can1 219#55FFF8000000006F
(1533872830.731903) can1 21A#55FFF80000000070
(1533872830.732158) can1 21B#55FFF80000000071
(1533872830.732896) can1 21C#55FFF80000000072
(1533872830.733187) can1 21D#55FFF80000000073
(1533872830.733995) can1 21E#55FFF80000000074
(1533872830.734160) can1 21F#55FFF80000000075
(1533872830.734941) can1 220#5500000000060C91
(1533872830.735160) can1 221#5500000000000080
(1533872830.735928) can1 222#5500000000000081
(1533872830.736109) can1 223#5500000000000082
(1533872830.736968) can1 224#5500000000000083
(1533872830.737118) can1 225#5500000000000084
(1533872830.737667) can1 128#F40190830037
(1533872830.737892) can1 226#5500000000000085
(1533872830.738364) can1 227#5500000000000086
(1533872830.738420) can1 283#0000000000008C
(1533872830.738888) can1 228#550000000085
(1533872830.739092) can1 229#550000000086
(1533872830.739913) can1 22A#550000000087
(1533872830.740111) can1 22B#550000000088
(1533872830.740838) can1 22C#550000000089
(1533872830.741069) can1 22D#55000000008A
(1533872830.741878) can1 22E#55000000008B
(1533872830.742055) can1 22F#55000000008C
(1533872830.742847) can1 230#557FFF745900D9
(1533872830.743102) can1 231#55002BFC000002B9
(1533872830.743940) can1 232#5500FE00FE00FE8B
(1533872830.755642) can1 141#00000046
(1533872830.758089) can1 344#0000010000000050
(1533872830.768299) can1 141#00000046
(1533872830.769043) can1 128#F40190830037
(1533872830.769634) can1 283#0000000000008C
(1533872830.770297) can1 160#0000081201319C51
(1533872830.770948) can1 161#001E0000008007
(1533872830.777011) can1 210#56FFF80000000067
(1533872830.777168) can1 211#56FFF80000000068
(1533872830.777944) can1 212#56FFF80000000069
(1533872830.778214) can1 213#56FFF8000000006A
(1533872830.778921) can1 214#56FFF8000000006B
(1533872830.779170) can1 215#56FFF8000000006C
(1533872830.779928) can1 216#56FFF8000000006D
(1533872830.780200) can1 217#56FFF8000000006E
(1533872830.780940) can1 218#56FFF8000000006F
(1533872830.781151) can1 219#56FFF80000000070
(1533872830.781892) can1 21A#56FFF80000000071
(1533872830.782124) can1 21B#56FFF80000000072
(1533872830.782892) can1 21C#56FFF80000000073
(1533872830.783125) can1 21D#56FFF80000000074
(1533872830.783954) can1 21E#56FFF80000000075
(1533872830.784111) can1 21F#56FFF80000000076
(1533872830.784874) can1 220#56000000002000A0
(1533872830.785125) can1 221#5600000000000081
(1533872830.785894) can1 222#5600000000000082
(1533872830.786125) can1 223#5600000000000083
(1533872830.786877) can1 224#5600000000000084
(1533872830.787157) can1 225#5600000000000085
(1533872830.787961) can1 226#5600000000000086
(1533872830.788103) can1 227#5600000000000087
(1533872830.788857) can1 228#560000000086
(1533872830.789047) can1 229#560000000087
(1533872830.789840) can1 22A#560000000088
(1533872830.790071) can1 22B#560000000089
(1533872830.790867) can1 22C#56000000008A
(1533872830.791073) can1 22D#56000000008B
(1533872830.791841) can1 22E#56000000008C
(1533872830.792069) can1 22F#56000000008D
(1533872830.792869) can1 123#0108090D40008A
(1533872830.793075) can1 230#567FFF745A00DB
(1533872830.793893) can1 231#56002BFC000002BA
(1533872830.794125) can1 232#5600FE00FE00FE8C
(1533872830.794877) can1 3D0#2B80808080808006
(1533872830.795154) can1 3D1#2B80808080808007
(1533872830.795543) can1 141#00000046
(1533872830.795982) can1 3D2#2B80808080808008
(1533872830.796281) can1 3D3#2B80808080808009
(1533872830.799495) can1 128#F40190830037
(1533872830.800345) can1 283#0000000000008C
(1533872830.809680) can1 141#00000046
(1533872830.810377) can1 344#0000010000000050
(1533872830.827009) can1 210#57FFF80000000068
(1533872830.827166) can1 211#57FFF80000000069
(1533872830.828008) can1 212#57FFF8000000006A
(1533872830.828165) can1 213#57FFF8000000006B
(1533872830.828920) can1 214#57FFF8000000006C
(1533872830.829187) can1 215#57FFF8000000006D
(1533872830.829875) can1 216#57FFF8000000006E
(1533872830.830125) can1 217#57FFF8000000006F
(1533872830.830439) can1 141#00000046
(1533872830.830955) can1 218#57FFF80000000070
(1533872830.831044) can1 128#F40190830037
(1533872830.831158) can1 219#57FFF80000000071
(1533872830.831608) can1 283#0000000000008C
(1533872830.832114) can1 21A#57FFF80000000072
(1533872830.832369) can1 21B#57FFF80000000073
(1533872830.832877) can1 21C#57FFF80000000074
(1533872830.833119) can1 21D#57FFF80000000075
(1533872830.833899) can1 21E#57FFF80000000076
(1533872830.834118) can1 21F#57FFF80000000077
(1533872830.834925) can1 220#5700000000000081
(1533872830.835149) can1 221#5700000000000082
(1533872830.835918) can1 222#5700000000000083
(1533872830.836151) can1 223#5700000000000084
(1533872830.836928) can1 224#5700000000000085
(1533872830.837116) can1 225#5700000000000086
(1533872830.837993) can1 226#5700000000000087
(1533872830.838156) can1 227#5700000000000088
(1533872830.838842) can1 228#570000000087
(1533872830.839108) can1 229#570000000088
(1533872830.839882) can1 22A#570000000089
(1533872830.840067) can1 22B#57000000008A
(1533872830.840624) can1 160#0000081201319C51
(1533872830.841043) can1 22C#57000000008B
(1533872830.841338) can1 22D#57000000008C
(1533872830.841387) can1 161#001E0000008007
(1533872830.841909) can1 22E#57000000008D
(1533872830.842091) can1 22F#57000000008E
(1533872830.842919) can1 230#577FFF745B00DD
(1533872830.843106) can1 231#57002BFC000002BB
(1533872830.843878) can1 232#5700FE00FE00FE8D
(1533872830.854091) can1 141#00000046
(1533872830.861334) can1 128#F40190830037
(1533872830.862047) can1 283#0000000000008C
(1533872830.862683) can1 344#0000010000000050
(1533872830.871535) can1 141#00000046
(1533872830.876857) can1 210#58164617F0BE8013
(1533872830.877151) can1 211#58FFF8000000006A
(1533872830.877959) can1 212#58FFF8000000006B
(1533872830.878103) can1 213#58FFF8000000006C
(1533872830.878857) can1 214#58FFF8000000006D
(1533872830.879095) can1 215#58FFF8000000006E
(1533872830.879865) can1 216#58FFF8000000006F
(1533872830.880104) can1 217#58FFF80000000070
(1533872830.880954) can1 218#58FFF80000000071
(1533872830.881102) can1 219#58FFF80000000072
(1533872830.881854) can1 21A#58FFF80000000073
(1533872830.882095) can1 21B#58FFF80000000074
(1533872830.882955) can1 21C#58FFF80000000075
(1533872830.883101) can1 21D#58FFF80000000076
(1533872830.883855) can1 21E#58FFF80000000077
(1533872830.884095) can1 21F#58FFF80000000078
(1533872830.884956) can1 220#5800000000060C94
(1533872830.885159) can1 221#5800000000000083
(1533872830.885958) can1 222#5800000000000084
(1533872830.886102) can1 223#5800000000000085
(1533872830.886881) can1 224#5800000000000086
(1533872830.887170) can1 225#5800000000000087
(1533872830.887880) can1 226#5800000000000088
(1533872830.888120) can1 227#5800000000000089
(1533872830.888871) can1 228#580000000088
(1533872830.889075) can1 229#580000000089
(1533872830.889840) can1 22A#58000000008A
(1533872830.890045) can1 22B#58000000008B
(1533872830.890835) can1 22C#58000000008C
(1533872830.891045) can1 22D#58000000008D
(1533872830.891840) can1 22E#58000000008E
(1533872830.892070) can1 22F#58000000008F
(1533872830.892684) can1 141#00000046
(1533872830.892854) can1 123#0108090D40008A
(1533872830.893263) can1 230#587FFF745C00DF
(1533872830.893367) can1 128#F40190830037
(1533872830.893866) can1 231#58002BFC000002BC
(1533872830.893965) can1 283#0000000000008C
(1533872830.894122) can1 232#5800FE00FE00FE8E
(1533872830.894874) can1 3D0#2C80808080808007
(1533872830.895168) can1 3D1#2C80808080808008
(1533872830.895874) can1 3D2#2C80808080808009
(1533872830.896160) can1 3D3#2C8080808080800A
(1533872830.912693) can1 141#00000046
(1533872830.913593) can1 344#0000010000000050
(1533872830.914388) can1 160#0000081201319C51
(1533872830.915285) can1 161#001E0000008007
(1533872830.916145) can1 365#00000080FC0008
(1533872830.916955) can1 366#007207FF09FE00
(1533872830.922844) can1 128#F40190830037
(1533872830.923421) can1 283#0000000000008C
(1533872830.926914) can1 210#59154017E0BE80FD
(1533872830.927111) can1 211#59FFF8000000006B
(1533872830.927942) can1 212#59FFF8000000006C
(1533872830.928166) can1 213#59FFF8000000006D
(1533872830.928939) can1 214#59FFF8000000006E
(1533872830.929159) can1 215#59FFF8000000006F
(1533872830.929940) can1 216#59FFF80000000070
(1533872830.930152) can1 217#59FFF80000000071
(1533872830.930922) can1 218#59FFF80000000072
(1533872830.931211) can1 219#59FFF80000000073
(1533872830.931870) can1 21A#59FFF80000000074
(1533872830.932123) can1 21B#59FFF80000000075
(1533872830.932896) can1 21C#59FFF80000000076
(1533872830.933126) can1 21D#59FFF80000000077
(1533872830.933265) can1 141#00000046
(1533872830.933881) can1 21E#59FFF80000000078
(1533872830.934120) can1 21F#59FFF80000000079
(1533872830.934872) can1 220#5900000000060C95
(1533872830.935126) can1 221#5900000000000084
(1533872830.935893) can1 222#5900000000000085
(1533872830.936124) can1 223#5900000000000086
(1533872830.936891) can1 224#5900000000000087
(1533872830.937153) can1 225#5900000000000088
(1533872830.937882) can1 226#5900000000000089
(1533872830.938163) can1 227#590000000000008A
(1533872830.938888) can1 228#590000000089
(1533872830.939118) can1 229#59000000008A
(1533872830.939909) can1 22A#59000000008B
(1533872830.940077) can1 22B#59000000008C
(1533872830.940910) can1 22C#59000000008D
(1533872830.941086) can1 22D#59000000008E
(1533872830.941925) can1 22E#59000000008F
(1533872830.942053) can1 22F#590000000090
(1533872830.942914) can1 230#597FFF745D00E1
(1533872830.943161) can1 231#59002BFC000002BD
(1533872830.943939) can1 232#5900FE00FE00FE8F
(1533872830.956251) can1 141#00000046
(1533872830.957093) can1 128#F40190830037
(1533872830.957639) can1 283#0000000000008C
(1533872830.964539) can1 344#0000010000000050
(1533872830.975759) can1 141#00000046
(1533872830.976975) can1 210#5AFFF8000000006B
(1533872830.977123) can1 211#5AFFF8000000006C
(1533872830.977869) can1 212#5AFFF8000000006D
(1533872830.978154) can1 213#5AFFF8000000006E
(1533872830.978941) can1 214#5AFFF8000000006F
(1533872830.979177) can1 215#5AFFF80000000070
(1533872830.979942) can1 216#5AFFF80000000071
(1533872830.980166) can1 217#5AFFF80000000072
(1533872830.981002) can1 218#5AFFF80000000073
(1533872830.981157) can1 219#5AFFF80000000074
(1533872830.981912) can1 21A#5AFFF80000000075
(1533872830.982136) can1 21B#5AFFF80000000076
(1533872830.982920) can1 21C#5AFFF80000000077
(1533872830.983146) can1 21D#5AFFF80000000078
(1533872830.983897) can1 21E#5AFFF80000000079
(1533872830.984133) can1 21F#5AFFF8000000007A
(1533872830.984880) can1 220#5A00000000000084
(1533872830.985107) can1 221#5A00000000000085
(1533872830.985292) can1 128#F40190830037
(1533872830.985945) can1 222#5A00000000000086
(1533872830.986112) can1 223#5A00000000000087
(1533872830.986882) can1 224#5A00000000000088
(1533872830.987119) can1 225#5A00000000000089
(1533872830.987872) can1 226#5A0000000000008A
(1533872830.988126) can1 227#5A0000000000008B
(1533872830.988842) can1 228#5A000000008A
(1533872830.989070) can1 229#5A000000008B
(1533872830.989879) can1 22A#5A000000008C
(1533872830.990070) can1 22B#5A000000008D
(1533872830.990831) can1 22C#5A000000008E
(1533872830.991059) can1 22D#5A000000008F
(1533872830.991867) can1 22E#5A0000000090
(1533872830.992072) can1 22F#5A0000000091
(1533872830.992845) can1 123#0108090D40008A
(1533872830.993099) can1 230#5A7FFF745E00E3
(1533872830.993959) can1 231#5A002BFC000002BE
(1533872830.994104) can1 232#5A00FE00FE00FE90
(1533872830.994968) can1 3D0#2D80808080808008
(1533872830.995117) can1 3D1#2D80808080808009
(1533872830.995878) can1 3D2#2D8080808080800A
(1533872830.996155) can1 3D3#2D8080808080800B
(1533872831.002702) can1 283#0000000000008C
(1533872831.003543) can1 160#0000081201319C51
(1533872831.004380) can1 161#001E0000008007
(1533872831.005200) can1 141#00000046
(1533872831.016250) can1 141#00000046
(1533872831.016834) can1 128#F40190830037
(1533872831.017237) can1 283#0000000000008C
(1533872831.017657) can1 344#0000010000000050
(1533872831.026902) can1 210#5BFFF8000000006C
(1533872831.027149) can1 211#5BFFF8000000006D
(1533872831.027889) can1 212#5BFFF8000000006E
(1533872831.028154) can1 213#5BFFF8000000006F
(1533872831.028928) can1 214#5BFFF80000000070
(1533872831.029145) can1 215#5BFFF80000000071
(1533872831.029921) can1 216#5BFFF80000000072
(1533872831.030191) can1 217#5BFFF80000000073
(1533872831.030995) can1 218#5BFFF80000000074
(1533872831.031161) can1 219#5BFFF80000000075
(1533872831.031923) can1 21A#5BFFF80000000076
(1533872831.032199) can1 21B#5BFFF80000000077
(1533872831.032913) can1 21C#5BFFF80000000078
(1533872831.033183) can1 21D#5BFFF80000000079
(1533872831.033911) can1 21E#5BFFF8000000007A
(1533872831.034123) can1 21F#5BFFF8000000007B
(1533872831.034922) can1 220#5B00000000000085
(1533872831.035148) can1 221#5B00000000000086
(1533872831.035870) can1 222#5B00000000000087
(1533872831.036135) can1 223#5B00000000000088
(1533872831.036426) can1 141#00000046
(1533872831.036991) can1 224#5B00000000000089
(1533872831.037160) can1 225#5B0000000000008A
(1533872831.037919) can1 226#5B0000000000008B
(1533872831.038184) can1 227#5B0000000000008C
(1533872831.038912) can1 228#5B000000008B
(1533872831.039102) can1 229#5B000000008C
(1533872831.039874) can1 22A#5B000000008D
(1533872831.040066) can1 22B#5B000000008E
(1533872831.040859) can1 22C#5B000000008F
(1533872831.041066) can1 22D#5B0000000090
(1533872831.041878) can1 22E#5B0000000091
(1533872831.042097) can1 22F#5B0000000092
(1533872831.042876) can1 230#5B7FFF745F00E5
(1533872831.043152) can1 231#5B002BFC000002BF
(1533872831.043961) can1 232#5B00FE00FE00FE91
(1533872831.049777) can1 128#F40190830037
(1533872831.049956) can1 283#0000000000008C
(1533872831.056549) can1 141#00000046
(1533872831.056789) can1 160#0000081201319C51
(1533872831.057044) can1 161#001E0000008007
(1533872831.066488) can1 344#0000010000000050
(1533872831.076646) can1 141#00000046
(1533872831.076886) can1 128#F40190830037
(1533872831.076969) can1 210#5CFFF8000000006D
(1533872831.077094) can1 283#0000000000008C
(1533872831.077485) can1 211#5CFFF8000000006E
(1533872831.077944) can1 212#5CFFF8000000006F
(1533872831.078208) can1 213#5CFFF80000000070
(1533872831.078887) can1 214#5CFFF80000000071
(1533872831.079267) can1 215#5CFFF80000000072
(1533872831.080028) can1 216#5CFFF80000000073
(1533872831.080153) can1 217#5CFFF80000000074
(1533872831.081086) can1 218#5CFFF80000000075
(1533872831.081204) can1 219#5CFFF80000000076
(1533872831.082064) can1 21A#5CFFF80000000077
(1533872831.082183) can1 21B#5CFFF80000000078
(1533872831.083020) can1 21C#5CFFF80000000079
(1533872831.083229) can1 21D#5CFFF8000000007A
(1533872831.083973) can1 21E#5CFFF8000000007B
(1533872831.084141) can1 21F#5CFFF8000000007C
(1533872831.084915) can1 220#5C00000000000086
(1533872831.085183) can1 221#5C00000000000087
(1533872831.085933) can1 222#5C00000000000088
(1533872831.086139) can1 223#5C00000000000089
(1533872831.086874) can1 224#5C0000000000008A
(1533872831.087122) can1 225#5C0000000000008B
(1533872831.087889) can1 226#5C0000000000008C
(1533872831.088149) can1 227#5C0000000000008D
(1533872831.088868) can1 228#5C000000008C
(1533872831.089050) can1 229#5C000000008D
(1533872831.089866) can1 22A#5C000000008E
(1533872831.090050) can1 22B#5C000000008F
(1533872831.090902) can1 22C#5C0000000090
(1533872831.091079) can1 22D#5C0000000091
(1533872831.091897) can1 22E#5C0000000092
(1533872831.092105) can1 22F#5C0000000093
(1533872831.092837) can1 123#0108090D40008A
(1533872831.093201) can1 230#5C7FFF746000E7
(1533872831.094023) can1 231#5C002BFC000002C0
(1533872831.094240) can1 232#5C00FE00FE00FE92
(1533872831.094877) can1 3D0#2E80808080808009
(1533872831.095154) can1 3D1#2E8080808080800A
(1533872831.095889) can1 3D2#2E8080808080800B
(1533872831.096174) can1 3D3#2E8080808080800C
(1533872831.097022) can1 141#00000046
(1533872831.108628) can1 128#F40190830037
(1533872831.108945) can1 283#0000000000008C
(1533872831.117237) can1 141#00000046
(1533872831.117436) can1 344#0000010000000050
(1533872831.117605) can1 365#00000080FC0008
(1533872831.117792) can1 366#007207FF09FE00
(1533872831.117947) can1 4CB#0C00000000000000
(1533872831.126874) can1 210#5DFFF8000000006E
(1533872831.127152) can1 211#5DFFF8000000006F
(1533872831.127966) can1 212#5DFFF80000000070
(1533872831.128118) can1 213#5DFFF80000000071
(1533872831.128714) can1 160#0000081201319C51
(1533872831.128883) can1 214#5DFFF80000000072
(1533872831.129325) can1 161#001E0000008007
(1533872831.129440) can1 215#5DFFF80000000073
(1533872831.129977) can1 216#5DFFF80000000074
(1533872831.130200) can1 217#5DFFF80000000075
(1533872831.130911) can1 218#5DFFF80000000076
(1533872831.131183) can1 219#5DFFF80000000077
(1533872831.131895) can1 21A#5DFFF80000000078
(1533872831.132158) can1 21B#5DFFF80000000079
(1533872831.132931) can1 21C#5DFFF8000000007A
(1533872831.133111) can1 21D#5DFFF8000000007B
(1533872831.133914) can1 21E#5DFFF8000000007C
(1533872831.134133) can1 21F#5DFFF8000000007D
(1533872831.134866) can1 220#5D00000000000087
(1533872831.135166) can1 221#5D00000000000088
(1533872831.135930) can1 222#5D00000000000089
(1533872831.136124) can1 223#5D0000000000008A
(1533872831.136953) can1 224#5D0000000000008B
(1533872831.137212) can1 225#5D0000000000008C
(1533872831.137891) can1 226#5D0000000000008D
(1533872831.138124) can1 227#5D0000000000008E
(1533872831.138770) can1 141#00000046
(1533872831.138962) can1 228#5D000000008D
(1533872831.139218) can1 229#5D000000008E
(1533872831.139514) can1 128#F40190830037
(1533872831.139945) can1 22A#5D000000008F
(1533872831.140062) can1 283#0000000000008C
(1533872831.140166) can1 22B#5D0000000090
(1533872831.140839) can1 22C#5D0000000091
(1533872831.141068) can1 22D#5D0000000092
(1533872831.141839) can1 22E#5D0000000093
(1533872831.142066) can1 22F#5D0000000094
(1533872831.142939) can1 230#5D7FFF746100E9
(1533872831.143170) can1 231#5D002BFC000002C1
(1533872831.143927) can1 232#5D00FE00FE00FE93
(1533872831.159444) can1 141#00000046
(1533872831.169840) can1 128#F40190830037
(1533872831.170427) can1 283#0000000000008C
(1533872831.171033) can1 344#0000010000000050
(1533872831.176878) can1 210#5EFFF8000000006F
(1533872831.177117) can1 211#5EFFF80000000070
(1533872831.177926) can1 212#5EFFF80000000071
(1533872831.178134) can1 213#5EFFF80000000072
(1533872831.178871) can1 214#5EFFF80000000073
(1533872831.179124) can1 215#5EFFF80000000074
(1533872831.179941) can1 216#5EFFF80000000075
(1533872831.180102) can1 141#00000046
(1533872831.180282) can1 217#5EFFF80000000076
(1533872831.180922) can1 218#5EFFF80000000077
(1533872831.181190) can1 219#5EFFF80000000078
(1533872831.181913) can1 21A#5EFFF80000000079
(1533872831.182159) can1 21B#5EFFF8000000007A
(1533872831.182938) can1 21C#5EFFF8000000007B
(1533872831.183160) can1 21D#5EFFF8000000007C
(1533872831.183930) can1 21E#5EFFF8000000007D
(1533872831.184152) can1 21F#5EFFF8000000007E
(1533872831.184889) can1 220#5E00000000000088
(1533872831.185126) can1 221#5E00000000000089
(1533872831.185869) can1 222#5E0000000000008A
(1533872831.186131) can1 223#5E0000000000008B
(1533872831.186927) can1 224#5E0000000000008C
(1533872831.187195) can1 225#5E0000000000008D
(1533872831.187935) can1 226#5E0000000000008E
(1533872831.188197) can1 227#5E0000000000008F
(1533872831.188873) can1 228#5E000000008E
(1533872831.189053) can1 229#5E000000008F
(1533872831.189864) can1 22A#5E0000000090
(1533872831.190069) can1 22B#5E0000000091
(1533872831.190826) can1 22C#5E0000000092
(1533872831.191043) can1 22D#5E0000000093
(1533872831.191850) can1 22E#5E0000000094
(1533872831.192049) can1 22F#5E0000000095
(1533872831.192864) can1 123#0108090D40008A
(1533872831.193069) can1 230#5E7FFF746200EB
(1533872831.193871) can1 231#5E002BFC000002C2
(1533872831.194103) can1 232#5E00FE00FE00FE94
(1533872831.194965) can1 3D0#2F8080808080800A
(1533872831.195168) can1 3D1#2F8080808080800B
(1533872831.195870) can1 3D2#2F8080808080800C
(1533872831.196154) can1 3D3#2F8080808080800D
(1533872831.202564) can1 141#00000046
(1533872831.203447) can1 128#F40190830037
(1533872831.204291) can1 283#0000000000008C
(1533872831.205137) can1 160#0000081201319C51
(1533872831.206045) can1 161#001E0000008007
(1533872831.222628) can1 141#00000046
(1533872831.223556) can1 344#0000010000000050
(1533872831.226866) can1 210#5F15AC1250BE60BA
(1533872831.227164) can1 211#5FFFF80000000071
(1533872831.227936) can1 212#5FFFF80000000072
(1533872831.228150) can1 213#5FFFF80000000073
(1533872831.228891) can1 214#5FFFF80000000074
(1533872831.229123) can1 215#5FFFF80000000075
(1533872831.229884) can1 216#5FFFF80000000076
(1533872831.230153) can1 217#5FFFF80000000077
(1533872831.230873) can1 218#5FFFF80000000078
(1533872831.231174) can1 219#5FFFF80000000079
(1533872831.231865) can1 21A#5FFFF8000000007A
(1533872831.232122) can1 21B#5FFFF8000000007B
(1533872831.232880) can1 21C#5FFFF8000000007C
(1533872831.233167) can1 21D#5FFFF8000000007D
(1533872831.233335) can1 128#F40190830037
(1533872831.233964) can1 21E#5FFFF8000000007E
(1533872831.234022) can1 283#0000000000008C
(1533872831.234145) can1 21F#5FFFF8000000007F
(1533872831.234949) can1 220#5F00000000060C9B
(1533872831.235149) can1 221#5F0000000000008A
(1533872831.235927) can1 222#5F0000000000008B
(1533872831.236140) can1 223#5F0000000000008C
(1533872831.236876) can1 224#5F0000000000008D
(1533872831.237167) can1 225#5F0000000000008E
(1533872831.237878) can1 226#5F0000000000008F
(1533872831.238164) can1 227#5F00000000000090
(1533872831.238874) can1 228#5F000000008F
(1533872831.239097) can1 229#5F0000000090
(1533872831.239847) can1 22A#5F0000000091
(1533872831.240075) can1 22B#5F0000000092
(1533872831.240865) can1 22C#5F0000000093
(1533872831.241116) can1 22D#5F0000000094
(1533872831.241903) can1 22E#5F0000000095
(1533872831.242118) can1 22F#5F0000000096
(1533872831.242903) can1 230#5F7FFF746300ED
(1533872831.243145) can1 231#5F002BFC000002C3
(1533872831.243887) can1 232#5F00FE00FE00FE95
(1533872831.243965) can1 141#00000046
(1533872831.264699) can1 141#00000046
(1533872831.265274) can1 128#F40190830037
(1533872831.265879) can1 283#0000000000008C
(1533872831.275036) can1 344#0000010000000050
(1533872831.275724) can1 160#0000081201319C51
(1533872831.276240) can1 161#001E0000008007
(1533872831.276958) can1 210#60FFF80000000071
(1533872831.277152) can1 211#60FFF80000000072
(1533872831.277857) can1 212#60FFF80000000073
(1533872831.278145) can1 213#60FFF80000000074
(1533872831.278958) can1 214#60FFF80000000075
(1533872831.279101) can1 215#60FFF80000000076
(1533872831.279957) can1 216#60FFF80000000077
(1533872831.280160) can1 217#60FFF80000000078
(1533872831.280955) can1 218#60FFF80000000079
(1533872831.281209) can1 219#60FFF8000000007A
(1533872831.282007) can1 21A#60FFF8000000007B
(1533872831.282160) can1 21B#60FFF8000000007C
(1533872831.282915) can1 21C#60FFF8000000007D
(1533872831.283185) can1 21D#60FFF8000000007E
(1533872831.283889) can1 21E#60FFF8000000007F
(1533872831.284120) can1 21F#60FFF80000000080
(1533872831.284894) can1 220#60000000002000AA
(1533872831.285131) can1 221#600000000000008B
(1533872831.285533) can1 141#00000046
(1533872831.285941) can1 222#600000000000008C
(1533872831.286147) can1 223#600000000000008D
(1533872831.286916) can1 224#600000000000008E
(1533872831.287168) can1 225#600000000000008F
(1533872831.287917) can1 226#6000000000000090
(1533872831.288150) can1 227#6000000000000091
(1533872831.288911) can1 228#600000000090
(1533872831.289122) can1 229#600000000091
(1533872831.289844) can1 22A#600000000092
(1533872831.290070) can1 22B#600000000093
(1533872831.290877) can1 22C#600000000094
(1533872831.291065) can1 22D#600000000095
(1533872831.291877) can1 22E#600000000096
(1533872831.292062) can1 22F#600000000097
(1533872831.292855) can1 123#0108090D40008A
(1533872831.293107) can1 230#607FFF746400EF
(1533872831.293865) can1 231#60002BFC000002C4
(1533872831.294120) can1 232#6000FE00FE00FE96
(1533872831.294883) can1 3D0#308080808080800B
(1533872831.295151) can1 3D1#308080808080800C
(1533872831.295965) can1 3D2#308080808080800D
(1533872831.296116) can1 3D3#308080808080800E
(1533872831.306295) can1 128#F40190830037
(1533872831.307056) can1 283#0000000000008C
(1533872831.307551) can1 141#00000046
(1533872831.326964) can1 210#61FFF80000000072
(1533872831.327085) can1 141#00000046
(1533872831.327144) can1 211#61FFF80000000073
(1533872831.327824) can1 128#F40190830037
(1533872831.327955) can1 212#61FFF80000000074
(1533872831.328322) can1 213#61FFF80000000075
(1533872831.328415) can1 283#0000000000008C
(1533872831.328941) can1 214#61FFF80000000076
(1533872831.329090) can1 344#0000010000000050
(1533872831.329200) can1 215#61FFF80000000077
(1533872831.329673) can1 365#00000080FC0008
(1533872831.329960) can1 216#61FFF80000000078
(1533872831.330368) can1 217#61FFF80000000079
(1533872831.330888) can1 218#61FFF8000000007A
(1533872831.331152) can1 219#61FFF8000000007B
(1533872831.331893) can1 21A#61FFF8000000007C
(1533872831.332110) can1 21B#61FFF8000000007D
(1533872831.332965) can1 21C#61FFF8000000007E
(1533872831.333121) can1 21D#61FFF8000000007F
(1533872831.333870) can1 21E#61FFF80000000080
(1533872831.334123) can1 21F#61FFF80000000081
(1533872831.334883) can1 220#610000000000008B
(1533872831.335120) can1 221#610000000000008C
(1533872831.335874) can1 222#610000000000008D
(1533872831.336107) can1 223#610000000000008E
(1533872831.336965) can1 224#610000000000008F
(1533872831.337164) can1 225#6100000000000090
(1533872831.337326) can1 366#007207FF09FE00
(1533872831.337891) can1 226#6100000000000091
(1533872831.338121) can1 227#6100000000000092
(1533872831.338840) can1 228#610000000091
(1533872831.339068) can1 229#610000000092
(1533872831.339925) can1 22A#610000000093
(1533872831.340088) can1 22B#610000000094
(1533872831.340880) can1 22C#610000000095
(1533872831.341097) can1 22D#610000000096
(1533872831.341881) can1 22E#610000000097
(1533872831.342087) can1 22F#610000000098
(1533872831.342923) can1 230#617FFF746500F1
(1533872831.343150) can1 231#61002BFC000002C5
(1533872831.343940) can1 232#6100FE00FE00FE97
(1533872831.348086) can1 141#00000046
(1533872831.348638) can1 160#0000081201319C51
(1533872831.349247) can1 161#001E0000008007
(1533872831.361291) can1 128#F40190830037
(1533872831.362046) can1 283#0000000000008C
(1533872831.368165) can1 141#00000046
(1533872831.376912) can1 210#62FFF80000000073
(1533872831.377151) can1 211#62FFF80000000074
(1533872831.377920) can1 212#62FFF80000000075
(1533872831.378086) can1 213#62FFF80000000076
(1533872831.378218) can1 344#0000010000000050
(1533872831.378903) can1 214#62FFF80000000077
(1533872831.379118) can1 215#62FFF80000000078
(1533872831.379886) can1 216#62FFF80000000079
(1533872831.380120) can1 217#62FFF8000000007A
(1533872831.380960) can1 218#62FFF8000000007B
(1533872831.381165) can1 219#62FFF8000000007C
(1533872831.381886) can1 21A#62FFF8000000007D
(1533872831.382118) can1 21B#62FFF8000000007E
(1533872831.382932) can1 21C#62FFF8000000007F
(1533872831.383147) can1 21D#62FFF80000000080
(1533872831.383973) can1 21E#62FFF80000000081
(1533872831.384158) can1 21F#62FFF80000000082
(1533872831.384987) can1 220#620000000000008C
(1533872831.385149) can1 221#620000000000008D
(1533872831.385887) can1 222#620000000000008E
(1533872831.386119) can1 223#620000000000008F
(1533872831.386993) can1 224#6200000000000090
(1533872831.387159) can1 225#6200000000000091
(1533872831.387989) can1 226#6200000000000092
(1533872831.388156) can1 227#6200000000000093
(1533872831.388258) can1 141#00000046
(1533872831.388627) can1 128#F40190830037
(1533872831.388993) can1 283#0000000000008C
(1533872831.389005) can1 228#620000000092
(1533872831.389213) can1 229#620000000093
(1533872831.389831) can1 22A#620000000094
(1533872831.390093) can1 22B#620000000095
(1533872831.390823) can1 22C#620000000096
(1533872831.391038) can1 22D#620000000097
(1533872831.391849) can1 22E#620000000098
(1533872831.392048) can1 22F#620000000099
(1533872831.392865) can1 123#0108090D40008A
(1533872831.393067) can1 230#627FFF746600F3
(1533872831.393885) can1 231#62002BFC000002C6
(1533872831.394118) can1 232#6200FE00FE00FE98
(1533872831.394886) can1 3D0#318080808080800C
(1533872831.395117) can1 3D1#318080808080800D
(1533872831.395868) can1 3D2#318080808080800E
(1533872831.396147) can1 3D3#318080808080800F
(1533872831.408338) can1 141#00000046
(1533872831.418489) can1 128#F40190830037
(1533872831.418738) can1 283#0000000000008C
(1533872831.418843) can1 160#0000081201319C51
(1533872831.419035) can1 161#001E0000008007
(1533872831.426866) can1 210#63FFF80000000074
(1533872831.427149) can1 211#63FFF80000000075
(1533872831.427873) can1 212#63FFF80000000076
(1533872831.428112) can1 213#63FFF80000000077
(1533872831.428662) can1 141#00000046
(1533872831.428849) can1 214#63FFF80000000078
(1533872831.429011) can1 344#0000010000000050
(1533872831.429329) can1 215#63FFF80000000079
(1533872831.429883) can1 216#63FFF8000000007A
(1533872831.430117) can1 217#63FFF8000000007B
(1533872831.430966) can1 218#63FFF8000000007C
(1533872831.431131) can1 219#63FFF8000000007D
(1533872831.431942) can1 21A#63FFF8000000007E
(1533872831.432145) can1 21B#63FFF8000000007F
(1533872831.432866) can1 21C#63FFF80000000080
(1533872831.433118) can1 21D#63FFF80000000081
(1533872831.433886) can1 21E#63FFF80000000082
(1533872831.434117) can1 21F#63FFF80000000083
(1533872831.434884) can1 220#630000000000008D
(1533872831.435116) can1 221#630000000000008E
(1533872831.435885) can1 222#630000000000008F
(1533872831.436116) can1 223#6300000000000090
(1533872831.436953) can1 224#6300000000000091
(1533872831.437181) can1 225#6300000000000092
(1533872831.437926) can1 226#6300000000000093
(1533872831.438138) can1 227#6300000000000094
(1533872831.438907) can1 228#630000000093
(1533872831.439081) can1 229#630000000094
(1533872831.439865) can1 22A#630000000095
(1533872831.440046) can1 22B#630000000096
(1533872831.440833) can1 22C#630000000097
(1533872831.441061) can1 22D#630000000098
(1533872831.441831) can1 22E#630000000099
(1533872831.442062) can1 22F#63000000009A
(1533872831.442925) can1 230#637FFF746700F5
(1533872831.443139) can1 231#63002BFC000002C7
(1533872831.443989) can1 232#6300FE00FE00FE99
(1533872831.449073) can1 141#00000046
(1533872831.449305) can1 128#F40190830037
(1533872831.449463) can1 283#0000000000008C
(1533872831.469220) can1 141#00000046
(1533872831.476990) can1 210#64FFF80000000075
(1533872831.477157) can1 211#64FFF80000000076
(1533872831.477916) can1 212#64FFF80000000077
(1533872831.478179) can1 213#64FFF80000000078
(1533872831.478910) can1 214#64FFF80000000079
(1533872831.479111) can1 215#64FFF8000000007A
(1533872831.479360) can1 128#F40190830037
(1533872831.479662) can1 283#0000000000008C
(1533872831.479849) can1 344#0000010000000050
(1533872831.479987) can1 216#64FFF8000000007B
(1533872831.480394) can1 217#64FFF8000000007C
(1533872831.480978) can1 218#64FFF8000000007D
(1533872831.481193) can1 219#64FFF8000000007E
(1533872831.481925) can1 21A#64FFF8000000007F
(1533872831.482138) can1 21B#64FFF80000000080
(1533872831.482913) can1 21C#64FFF80000000081
(1533872831.483161) can1 21D#64FFF80000000082
(1533872831.483970) can1 21E#64FFF80000000083
(1533872831.484140) can1 21F#64FFF80000000084
(1533872831.484906) can1 220#640000000000008E
(1533872831.485135) can1 221#640000000000008F
(1533872831.485870) can1 222#6400000000000090
(1533872831.486147) can1 223#6400000000000091
(1533872831.486956) can1 224#6400000000000092
(1533872831.487152) can1 225#6400000000000093
(1533872831.487916) can1 226#6400000000000094
(1533872831.488142) can1 227#6400000000000095
(1533872831.488900) can1 228#640000000094
(1533872831.489093) can1 229#640000000095
(1533872831.489559) can1 141#00000046
(1533872831.489755) can1 160#0000081201319C51
(1533872831.489988) can1 161#001E0000008007
(1533872831.490501) can1 22A#640000000096
(1533872831.490694) can1 22B#640000000097
(1533872831.490920) can1 22C#640000000098
(1533872831.491132) can1 22D#640000000099
(1533872831.491868) can1 22E#64000000009A
(1533872831.492036) can1 22F#64000000009B
(1533872831.492859) can1 123#0108090D40008A
(1533872831.493064) can1 230#647FFF746800F7
(1533872831.493883) can1 231#64002BFC000002C8
(1533872831.494116) can1 232#6400FE00FE00FE9A
(1533872831.494881) can1 3D0#328080808080800D
(1533872831.495116) can1 3D1#328080808080800E
(1533872831.495881) can1 3D2#328080808080800F
(1533872831.496117) can1 3D3#3280808080808010
(1533872831.510086) can1 141#00000046
(1533872831.510275) can1 128#F40190830037
(1533872831.510393) can1 283#0000000000008C
(1533872831.527200) can1 210#65FFF80000000076
(1533872831.527204) can1 211#65FFF80000000077
(1533872831.528024) can1 212#65FFF80000000078
(1533872831.528243) can1 213#65FFF80000000079
(1533872831.528997) can1 214#65FFF8000000007A
(1533872831.529220) can1 215#65FFF8000000007B
(1533872831.529925) can1 216#65FFF8000000007C
(1533872831.530163) can1 217#65FFF8000000007D
(1533872831.530663) can1 141#00000046
(1533872831.530871) can1 218#65FFF8000000007E
(1533872831.531059) can1 344#0000010000000050
(1533872831.531212) can1 365#00000080FC0008
(1533872831.531340) can1 219#65FFF8000000007F
(1533872831.531349) can1 366#007207FF09FE00
(1533872831.532003) can1 21A#65FFF80000000080
(1533872831.532266) can1 21B#65FFF80000000081
(1533872831.532883) can1 21C#65FFF80000000082
(1533872831.533115) can1 21D#65FFF80000000083
(1533872831.533881) can1 21E#65FFF80000000084
(1533872831.534116) can1 21F#65FFF80000000085
(1533872831.534886) can1 220#650000000000008F
(1533872831.535149) can1 221#6500000000000090
(1533872831.535937) can1 222#6500000000000091
(1533872831.536146) can1 223#6500000000000092
(1533872831.536938) can1 224#6500000000000093
(1533872831.537146) can1 225#6500000000000094
(1533872831.537915) can1 226#6500000000000095
(1533872831.538192) can1 227#6500000000000096
(1533872831.538895) can1 228#650000000095
(1533872831.539066) can1 229#650000000096
(1533872831.539856) can1 22A#650000000097
(1533872831.540063) can1 22B#650000000098
(1533872831.540536) can1 128#F40190830037
(1533872831.540727) can1 283#0000000000008C
(1533872831.541084) can1 22C#650000000099
(1533872831.541496) can1 22D#65000000009A
(1533872831.541877) can1 22E#65000000009B
(1533872831.542065) can1 22F#65000000009C
(1533872831.542933) can1 230#657FFF746900F9
(1533872831.543144) can1 231#65002BFC000002C9
(1533872831.544012) can1 232#6500FE00FE00FE9B
(1533872831.550881) can1 141#00000046
(1533872831.560843) can1 160#0000081201319C51
(1533872831.561115) can1 161#001E0000008007
(1533872831.571240) can1 141#00000046
(1533872831.571570) can1 128#F40190830037
(1533872831.571806) can1 283#0000000000008C
(1533872831.577045) can1 210#66FFF80000000077
(1533872831.577158) can1 211#66FFF80000000078
(1533872831.577920) can1 212#66FFF80000000079
(1533872831.578186) can1 213#66FFF8000000007A
(1533872831.578938) can1 214#66FFF8000000007B
(1533872831.579107) can1 215#66FFF8000000007C
(1533872831.580005) can1 216#66FFF8000000007D
(1533872831.580197) can1 217#66FFF8000000007E
(1533872831.580963) can1 218#66FFF8000000007F
(1533872831.581115) can1 219#66FFF80000000080
(1533872831.581799) can1 344#0000010000000050
(1533872831.581958) can1 21A#66FFF80000000081
(1533872831.582121) can1 21B#66FFF80000000082
(1533872831.582944) can1 21C#66FFF80000000083
(1533872831.583183) can1 21D#66FFF80000000084
(1533872831.584006) can1 21E#66FFF80000000085
(1533872831.584178) can1 21F#66FFF80000000086
(1533872831.585015) can1 220#6600000000000090
(1533872831.585158) can1 221#6600000000000091
(1533872831.585886) can1 222#6600000000000092
(1533872831.586119) can1 223#6600000000000093
(1533872831.586888) can1 224#6600000000000094
(1533872831.587148) can1 225#6600000000000095
(1533872831.587927) can1 226#6600000000000096
(1533872831.588171) can1 227#6600000000000097
(1533872831.588890) can1 228#660000000096
(1533872831.589120) can1 229#660000000097
(1533872831.589887) can1 22A#660000000098
(1533872831.590115) can1 22B#660000000099
(1533872831.590838) can1 22C#66000000009A
(1533872831.591087) can1 22D#66000000009B
(1533872831.591838) can1 22E#66000000009C
(1533872831.592063) can1 22F#66000000009D
(1533872831.592837) can1 123#0108090D40008A
(1533872831.593066) can1 230#667FFF746A00FB
(1533872831.593869) can1 231#66002BFC000002CA
(1533872831.594102) can1 232#6600FE00FE00FE9C
(1533872831.594962) can1 3D0#338080808080800E
(1533872831.595164) can1 3D1#338080808080800F
(1533872831.595875) can1 3D2#3380808080808010
(1533872831.596152) can1 3D3#3380808080808011
(1533872831.608188) can1 141#00000046
(1533872831.609050) can1 128#F40190830037
(1533872831.609860) can1 283#0000000000008C
(1533872831.613254) can1 141#00000046
(1533872831.626932) can1 210#67FFF80000000078
(1533872831.627171) can1 211#67FFF80000000079
(1533872831.628020) can1 212#67FFF8000000007A
(1533872831.628176) can1 213#67FFF8000000007B
(1533872831.629018) can1 214#67FFF8000000007C
(1533872831.629176) can1 215#67FFF8000000007D
(1533872831.629989) can1 216#67FFF8000000007E
(1533872831.630151) can1 217#67FFF8000000007F
(1533872831.630887) can1 218#67FFF80000000080
(1533872831.631139) can1 219#67FFF80000000081
(1533872831.631960) can1 21A#67FFF80000000082
(1533872831.632117) can1 21B#67FFF80000000083
(1533872831.632878) can1 21C#67FFF80000000084
(1533872831.633115) can1 21D#67FFF80000000085
(1533872831.633867) can1 21E#67FFF80000000086
(1533872831.634121) can1 21F#67FFF80000000087
(1533872831.634876) can1 220#6700000000000091
(1533872831.635101) can1 221#6700000000000092
(1533872831.635863) can1 222#6700000000000093
(1533872831.636118) can1 223#6700000000000094
(1533872831.636888) can1 224#6700000000000095
(1533872831.637121) can1 225#6700000000000096
(1533872831.638002) can1 226#6700000000000097
(1533872831.638124) can1 227#6700000000000098
(1533872831.638851) can1 228#670000000097
(1533872831.639091) can1 229#670000000098
(1533872831.639875) can1 22A#670000000099
(1533872831.640069) can1 22B#67000000009A
(1533872831.640749) can1 141#00000046
(1533872831.640859) can1 22C#67000000009B
(1533872831.641209) can1 22D#67000000009C
(1533872831.641294) can1 128#F40190830037
(1533872831.641834) can1 283#0000000000008C
(1533872831.641964) can1 22E#67000000009D
(1533872831.642298) can1 22F#67000000009E
(1533872831.642427) can1 344#0000010000000050
(1533872831.642965) can1 230#677FFF746B00FD
(1533872831.643091) can1 160#0000081201319C51
(1533872831.643210) can1 231#67002BFC000002CB
(1533872831.643614) can1 161#001E0000008007
(1533872831.644096) can1 232#6700FE00FE00FE9D
(1533872831.656090) can1 141#00000046
(1533872831.664845) can1 128#F40190830037
(1533872831.665434) can1 283#0000000000008C
(1533872831.675235) can1 141#00000046
(1533872831.676870) can1 210#68FFF80000000079
(1533872831.677149) can1 211#68FFF8000000007A
(1533872831.677930) can1 212#68FFF8000000007B
(1533872831.678150) can1 213#68FFF8000000007C
(1533872831.678934) can1 214#68FFF8000000007D
(1533872831.679153) can1 215#68FFF8000000007E
(1533872831.679937) can1 216#68FFF8000000007F
(1533872831.680156) can1 217#68FFF80000000080
(1533872831.681001) can1 218#68FFF80000000081
(1533872831.681198) can1 219#68FFF80000000082
(1533872831.681928) can1 21A#68FFF80000000083
(1533872831.682170) can1 21B#68FFF80000000084
(1533872831.682879) can1 21C#68FFF80000000085
(1533872831.683117) can1 21D#68FFF80000000086
(1533872831.683932) can1 21E#68FFF80000000087
(1533872831.684148) can1 21F#68FFF80000000088
(1533872831.684889) can1 220#6800000000000092
(1533872831.685120) can1 221#6800000000000093
(1533872831.685613) can1 344#0000010000000050
(1533872831.685864) can1 222#6800000000000094
(1533872831.686356) can1 223#6800000000000095
(1533872831.686883) can1 224#6800000000000096
(1533872831.687146) can1 225#6800000000000097
(1533872831.687963) can1 226#6800000000000098
(1533872831.688144) can1 227#6800000000000099
(1533872831.688885) can1 228#680000000098
(1533872831.689095) can1 229#680000000099
(1533872831.689876) can1 22A#68000000009A
(1533872831.690100) can1 22B#68000000009B
(1533872831.690876) can1 22C#68000000009C
(1533872831.691122) can1 22D#68000000009D
(1533872831.691920) can1 22E#68000000009E
(1533872831.692095) can1 22F#68000000009F
(1533872831.692916) can1 123#0108090D40008A
(1533872831.693142) can1 230#687FFF746C00FF
(1533872831.693879) can1 231#68002BFC000002CC
(1533872831.694113) can1 232#6800FE00FE00FE9E
(1533872831.694875) can1 3D0#348080808080800F
(1533872831.695115) can1 3D1#3480808080808010
(1533872831.695961) can1 3D2#3480808080808011
(1533872831.696112) can1 3D3#3480808080808012
(1533872831.708188) can1 141#00000046
(1533872831.708847) can1 128#F40190830037
(1533872831.709471) can1 283#0000000000008C
(1533872831.710042) can1 160#0000081201319C51
(1533872831.710528) can1 161#001E0000008007
(1533872831.717152) can1 141#00000046
(1533872831.726866) can1 210#69FFF8000000007A
(1533872831.727116) can1 211#69FFF8000000007B
(1533872831.727412) can1 128#F40190830037
(1533872831.727876) can1 212#69FFF8000000007C
(1533872831.728043) can1 283#0000000000008C
(1533872831.728165) can1 213#69FFF8000000007D
(1533872831.728923) can1 214#69FFF8000000007E
(1533872831.729209) can1 215#69FFF8000000007F
(1533872831.729918) can1 216#69FFF80000000080
(1533872831.730184) can1 217#69FFF80000000081
(1533872831.731018) can1 218#69FFF80000000082
(1533872831.731189) can1 219#69FFF80000000083
(1533872831.732018) can1 21A#69FFF80000000084
(1533872831.732161) can1 21B#69FFF80000000085
(1533872831.732995) can1 21C#69FFF80000000086
(1533872831.733149) can1 21D#69FFF80000000087
(1533872831.733888) can1 21E#69FFF80000000088
(1533872831.734119) can1 21F#69FFF80000000089
(1533872831.734888) can1 220#6900000000000093
(1533872831.735119) can1 221#6900000000000094
(1533872831.735887) can1 222#6900000000000095
(1533872831.736119) can1 223#6900000000000096
(1533872831.736887) can1 224#6900000000000097
(1533872831.737120) can1 225#6900000000000098
(1533872831.737887) can1 226#6900000000000099
(1533872831.738119) can1 227#690000000000009A
(1533872831.738837) can1 228#690000000099
(1533872831.739064) can1 229#69000000009A
(1533872831.739866) can1 22A#69000000009B
(1533872831.740068) can1 22B#69000000009C
(1533872831.740837) can1 22C#69000000009D
(1533872831.741065) can1 22D#69000000009E
(1533872831.741874) can1 22E#69000000009F
(1533872831.742064) can1 22F#6900000000A0
(1533872831.742873) can1 230#697FFF746D0001
(1533872831.743113) can1 231#69002BFC000002CD
(1533872831.743886) can1 232#6900FE00FE00FE9F
(1533872831.745335) can1 141#00000046
(1533872831.745958) can1 344#0000010000000050
(1533872831.746464) can1 365#00000080FC0008
(1533872831.747102) can1 366#007207FF09FE00
(1533872831.759666) can1 141#00000046
(1533872831.760332) can1 128#F40190830037
(1533872831.760856) can1 283#0000000000008C
(1533872831.776999) can1 210#6AFFF8000000007B
(1533872831.777160) can1 211#6AFFF8000000007C
(1533872831.778018) can1 212#6AFFF8000000007D
(1533872831.778182) can1 213#6AFFF8000000007E
(1533872831.778932) can1 214#6AFFF8000000007F
(1533872831.779140) can1 215#6AFFF80000000080
(1533872831.779869) can1 216#6AFFF80000000081
(1533872831.780148) can1 217#6AFFF80000000082
(1533872831.780206) can1 141#00000046
(1533872831.780772) can1 160#0000081201319C51
(1533872831.780931) can1 218#6AFFF80000000083
(1533872831.781186) can1 161#001E0000008007
(1533872831.781423) can1 219#6AFFF80000000084
(1533872831.782017) can1 21A#6AFFF80000000085
(1533872831.782162) can1 21B#6AFFF80000000086
(1533872831.782921) can1 21C#6AFFF80000000087
(1533872831.783183) can1 21D#6AFFF80000000088
(1533872831.783932) can1 21E#6AFFF80000000089
(1533872831.784153) can1 21F#6AFFF8000000008A
(1533872831.784952) can1 220#6A00000000000094
(1533872831.785174) can1 221#6A00000000000095
(1533872831.785946) can1 222#6A00000000000096
(1533872831.786157) can1 223#6A00000000000097
(1533872831.786899) can1 224#6A00000000000098
(1533872831.787121) can1 225#6A00000000000099
(1533872831.787973) can1 226#6A0000000000009A
(1533872831.788168) can1 227#6A0000000000009B
(1533872831.788926) can1 228#6A000000009A
(1533872831.789101) can1 229#6A000000009B
(1533872831.789882) can1 22A#6A000000009C
(1533872831.790112) can1 22B#6A000000009D
(1533872831.790711) can1 128#F40190830037
(1533872831.790832) can1 22C#6A000000009E
(1533872831.791316) can1 22D#6A000000009F
(1533872831.791410) can1 283#0000000000008C
(1533872831.791912) can1 22E#6A00000000A0
(1533872831.792088) can1 344#0000010000000050
(1533872831.792195) can1 22F#6A00000000A1
(1533872831.792892) can1 123#0108090D40008A
(1533872831.793079) can1 230#6A7FFF746E0003
(1533872831.793898) can1 231#6A002BFC000002CE
(1533872831.794149) can1 232#6A00FE00FE00FEA0
(1533872831.794920) can1 3D0#3580808080808010
(1533872831.795164) can1 3D1#3580808080808011
(1533872831.795962) can1 3D2#3580808080808012
(1533872831.796164) can1 3D3#3580808080808013
(1533872831.807756) can1 141#00000046
(1533872831.821331) can1 141#00000046
(1533872831.822070) can1 128#F40190830037
(1533872831.822624) can1 283#0000000000008C
(1533872831.827004) can1 210#6BFFF8000000007C
(1533872831.827175) can1 211#6BFFF8000000007D
(1533872831.827999) can1 212#6BFFF8000000007E
(1533872831.828160) can1 213#6BFFF8000000007F
(1533872831.829003) can1 214#6BFFF80000000080
(1533872831.829161) can1 215#6BFFF80000000081
(1533872831.829917) can1 216#6BFFF80000000082
(1533872831.830177) can1 217#6BFFF80000000083
(1533872831.830998) can1 218#6BFFF80000000084
(1533872831.831160) can1 219#6BFFF80000000085
(1533872831.831933) can1 21A#6BFFF80000000086
(1533872831.832134) can1 21B#6BFFF80000000087
(1533872831.832919) can1 21C#6BFFF80000000088
(1533872831.833151) can1 21D#6BFFF80000000089
(1533872831.833946) can1 21E#6BFFF8000000008A
(1533872831.834141) can1 21F#6BFFF8000000008B
(1533872831.834913) can1 220#6B00000000000095
(1533872831.835153) can1 221#6B00000000000096
(1533872831.835877) can1 222#6B00000000000097
(1533872831.836113) can1 223#6B00000000000098
(1533872831.836873) can1 224#6B00000000000099
(1533872831.837112) can1 225#6B0000000000009A
(1533872831.837873) can1 226#6B0000000000009B
(1533872831.838151) can1 227#6B0000000000009C
(1533872831.838858) can1 228#6B000000009B
(1533872831.839065) can1 229#6B000000009C
(1533872831.839877) can1 22A#6B000000009D
(1533872831.840062) can1 22B#6B000000009E
(1533872831.840845) can1 22C#6B000000009F
(1533872831.841048) can1 22D#6B00000000A0
(1533872831.841860) can1 22E#6B00000000A1
(1533872831.842064) can1 22F#6B00000000A2
(1533872831.842875) can1 230#6B7FFF746F0005
(1533872831.843113) can1 231#6B002BFC000002CF
(1533872831.843886) can1 232#6B00FE00FE00FEA1
(1533872831.847292) can1 141#00000046
(1533872831.847942) can1 344#0000010000000050
(1533872831.852815) can1 128#F40190830037
(1533872831.853685) can1 283#0000000000008C
(1533872831.854536) can1 160#0000081201319C51
(1533872831.855336) can1 161#001E0000008007
(1533872831.862853) can1 141#00000046
(1533872831.876867) can1 210#6CFFF8000000007D
(1533872831.877151) can1 211#6CFFF8000000007E
(1533872831.877861) can1 212#6CFFF8000000007F
(1533872831.878116) can1 213#6CFFF80000000080
(1533872831.878885) can1 214#6CFFF80000000081
(1533872831.879117) can1 215#6CFFF80000000082
(1533872831.879885) can1 216#6CFFF80000000083
(1533872831.880121) can1 217#6CFFF80000000084
(1533872831.880886) can1 218#6CFFF80000000085
(1533872831.881116) can1 219#6CFFF80000000086
(1533872831.881882) can1 21A#6CFFF80000000087
(1533872831.882146) can1 21B#6CFFF80000000088
(1533872831.882887) can1 21C#6CFFF80000000089
(1533872831.883119) can1 21D#6CFFF8000000008A
(1533872831.883559) can1 141#00000046
(1533872831.884003) can1 21E#6CFFF8000000008B
(1533872831.884189) can1 128#F40190830037
(1533872831.884286) can1 21F#6CFFF8000000008C
(1533872831.884677) can1 283#0000000000008C
(1533872831.884937) can1 220#6C00000000000096
(1533872831.885344) can1 221#6C00000000000097
(1533872831.885939) can1 222#6C00000000000098
(1533872831.886144) can1 223#6C00000000000099
(1533872831.886871) can1 224#6C0000000000009A
(1533872831.887153) can1 225#6C0000000000009B
(1533872831.887968) can1 226#6C0000000000009C
(1533872831.888165) can1 227#6C0000000000009D
(1533872831.888883) can1 228#6C000000009C
(1533872831.889116) can1 229#6C000000009D
(1533872831.889885) can1 22A#6C000000009E
(1533872831.890107) can1 22B#6C000000009F
(1533872831.890884) can1 22C#6C00000000A0
(1533872831.891099) can1 22D#6C00000000A1
(1533872831.891923) can1 22E#6C00000000A2
(1533872831.892090) can1 22F#6C00000000A3
(1533872831.892864) can1 123#0108090D40008A
(1533872831.893067) can1 230#6C7FFF74700007
(1533872831.893584) can1 344#0000010000000050
(1533872831.894063) can1 231#6C002BFC000002D0
(1533872831.894328) can1 232#6C00FE00FE00FEA2
(1533872831.894956) can1 3D0#3680808080808011
(1533872831.895202) can1 3D1#3680808080808012
(1533872831.895912) can1 3D2#3680808080808013
(1533872831.896109) can1 3D3#3680808080808014
(1533872831.910035) can1 141#00000046
(1533872831.914700) can1 128#F40190830037
(1533872831.915370) can1 283#0000000000008C
(1533872831.925037) can1 141#00000046
(1533872831.925720) can1 160#0000081201319C51
(1533872831.926536) can1 161#001E0000008007
(1533872831.927006) can1 210#6DFFF8000000007E
(1533872831.927253) can1 211#6DFFF8000000007F
(1533872831.927868) can1 212#6DFFF80000000080
(1533872831.928148) can1 213#6DFFF80000000081
(1533872831.928864) can1 214#6DFFF80000000082
(1533872831.929147) can1 215#6DFFF80000000083
(1533872831.929865) can1 216#6DFFF80000000084
(1533872831.930118) can1 217#6DFFF80000000085
(1533872831.930886) can1 218#6DFFF80000000086
(1533872831.931118) can1 219#6DFFF80000000087
(1533872831.931957) can1 21A#6DFFF80000000088
(1533872831.932119) can1 21B#6DFFF80000000089
(1533872831.932957) can1 21C#6DFFF8000000008A
(1533872831.933119) can1 21D#6DFFF8000000008B
(1533872831.933887) can1 21E#6DFFF8000000008C
(1533872831.934152) can1 21F#6DFFF8000000008D
(1533872831.934857) can1 220#6D00000000000097
(1533872831.935158) can1 221#6D00000000000098
(1533872831.935932) can1 222#6D00000000000099
(1533872831.936157) can1 223#6D0000000000009A
(1533872831.936934) can1 224#6D0000000000009B
(1533872831.937160) can1 225#6D0000000000009C
(1533872831.937966) can1 226#6D0000000000009D
(1533872831.938127) can1 227#6D0000000000009E
(1533872831.938845) can1 228#6D000000009D
(1533872831.939045) can1 229#6D000000009E
(1533872831.939847) can1 22A#6D000000009F
(1533872831.940046) can1 22B#6D00000000A0
(1533872831.940860) can1 22C#6D00000000A1
(1533872831.941065) can1 22D#6D00000000A2
(1533872831.941875) can1 22E#6D00000000A3
(1533872831.942061) can1 22F#6D00000000A4
(1533872831.942871) can1 230#6D7FFF74710009
(1533872831.943100) can1 231#6D002BFC000002D1
(1533872831.943864) can1 232#6D00FE00FE00FEA3
(1533872831.951769) can1 141#00000046
(1533872831.952634) can1 128#F40190830037
(1533872831.953484) can1 283#0000000000008C
(1533872831.954295) can1 344#0000010000000050
(1533872831.955161) can1 365#00000080FC0008
(1533872831.955988) can1 366#007207FF09FE00
(1533872831.966161) can1 141#00000046
(1533872831.976618) can1 128#F40190830037
(1533872831.977040) can1 210#6EFFF8000000007F
(1533872831.977295) can1 211#6EFFF80000000080
(1533872831.977477) can1 283#0000000000008C
(1533872831.978022) can1 212#6EFFF80000000081
(1533872831.978284) can1 213#6EFFF80000000082
(1533872831.978888) can1 214#6EFFF80000000083
(1533872831.979152) can1 215#6EFFF80000000084
(1533872831.979923) can1 216#6EFFF80000000085
(1533872831.980165) can1 217#6EFFF80000000086
(1533872831.980892) can1 218#6EFFF80000000087
(1533872831.981162) can1 219#6EFFF80000000088
(1533872831.981886) can1 21A#6EFFF80000000089
(1533872831.982128) can1 21B#6EFFF8000000008A
(1533872831.982898) can1 21C#6EFFF8000000008B
(1533872831.983100) can1 21D#6EFFF8000000008C
(1533872831.983983) can1 21E#6EFFF8000000008D
(1533872831.984119) can1 21F#6EFFF8000000008E
(1533872831.984911) can1 220#6E00000000000098
(1533872831.985135) can1 221#6E00000000000099
(1533872831.985873) can1 222#6E0000000000009A
(1533872831.986129) can1 223#6E0000000000009B
(1533872831.986743) can1 141#00000046
(1533872831.986992) can1 224#6E0000000000009C
(1533872831.987333) can1 225#6E0000000000009D
(1533872831.987905) can1 226#6E0000000000009E
(1533872831.988163) can1 227#6E0000000000009F
(1533872831.988868) can1 228#6E000000009E
(1533872831.989071) can1 229#6E000000009F
(1533872831.989837) can1 22A#6E00000000A0
(1533872831.990063) can1 22B#6E00000000A1
(1533872831.990922) can1 22C#6E00000000A2
(1533872831.991109) can1 22D#6E00000000A3
(1533872831.991899) can1 22E#6E00000000A4
(1533872831.992117) can1 22F#6E00000000A5
(1533872831.992907) can1 123#0108090D40008A
(1533872831.993092) can1 230#6E7FFF7472000B
(1533872831.993916) can1 231#6E01F7FE000002A1
(1533872831.994138) can1 232#6E00FE00FE00FEA4
(1533872831.994930) can1 3D0#3780808080808012
(1533872831.995164) can1 3D1#3780808080808013
(1533872831.995884) can1 3D2#3780808080808014
(1533872831.996165) can1 3D3#3780808080808015
(1533872831.996945) can1 344#0000010000000050
(1533872831.997525) can1 160#0000081201319C51
(1533872831.998062) can1 161#001E0000008007
(1533872832.009685) can1 141#00000046
(1533872832.010501) can1 128#F40190830037
(1533872832.011082) can1 283#0000000000008C
(1533872832.026952) can1 210#6FFFF80000000080
(1533872832.027152) can1 211#6FFFF80000000081
(1533872832.027946) can1 212#6FFFF80000000082
(1533872832.028025) can1 141#00000046
(1533872832.028136) can1 213#6FFFF80000000083
(1533872832.028927) can1 214#6FFFF80000000084
(1533872832.029131) can1 215#6FFFF80000000085
(1533872832.029874) can1 216#6FFFF80000000086
(1533872832.030150) can1 217#6FFFF80000000087
(1533872832.030946) can1 218#6FFFF80000000088
(1533872832.031151) can1 219#6FFFF80000000089
(1533872832.031873) can1 21A#6FFFF8000000008A
(1533872832.032097) can1 21B#6FFFF8000000008B
(1533872832.032980) can1 21C#6FFFF8000000008C
(1533872832.033175) can1 21D#6FFFF8000000008D
(1533872832.033971) can1 21E#6FFFF8000000008E
(1533872832.034119) can1 21F#6FFFF8000000008F
(1533872832.034880) can1 220#6F00000000000099
(1533872832.035121) can1 221#6F0000000000009A
(1533872832.035960) can1 222#6F0000000000009B
(1533872832.036165) can1 223#6F0000000000009C
(1533872832.036906) can1 224#6F0000000000009D
(1533872832.037150) can1 225#6F0000000000009E
(1533872832.037774) can1 128#F40190830037
(1533872832.037963) can1 226#6F0000000000009F
(1533872832.038105) can1 283#0000000000008C
(1533872832.038321) can1 227#6F000000000000A0
(1533872832.038883) can1 228#6F000000009F
(1533872832.039026) can1 229#6F00000000A0
(1533872832.039873) can1 22A#6F00000000A1
(1533872832.040028) can1 22B#6F00000000A2
(1533872832.040854) can1 22C#6F00000000A3
(1533872832.041048) can1 22D#6F00000000A4
(1533872832.041833) can1 22E#6F00000000A5
(1533872832.042036) can1 22F#6F00000000A6
(1533872832.042832) can1 230#6F7FFF7473000D
(1533872832.043087) can1 231#6F01F7FE000002A2
(1533872832.043842) can1 232#6F00FE00FE00FEA5
(1533872832.047673) can1 141#00000046
(1533872832.047935) can1 344#0000010000000050
(1533872832.067840) can1 141#00000046
(1533872832.068094) can1 128#F40190830037
(1533872832.068262) can1 283#0000000000008C
(1533872832.068421) can1 160#0000081201319C51
(1533872832.068619) can1 161#001E0000008007
(1533872832.076978) can1 210#70FFF80000000081
(1533872832.077124) can1 211#70FFF80000000082
(1533872832.078076) can1 212#70FFF80000000083
(1533872832.078090) can1 213#70FFF80000000084
(1533872832.078910) can1 214#70FFF80000000085
(1533872832.079103) can1 215#70FFF80000000086
(1533872832.079859) can1 216#70FFF80000000087
(1533872832.080172) can1 217#70FFF80000000088
(1533872832.080969) can1 218#70FFF80000000089
(1533872832.081172) can1 219#70FFF8000000008A
(1533872832.081988) can1 21A#70FFF8000000008B
(1533872832.082109) can1 21B#70FFF8000000008C
(1533872832.083026) can1 21C#70FFF8000000008D
(1533872832.083092) can1 21D#70FFF8000000008E
(1533872832.083985) can1 21E#70FFF8000000008F
(1533872832.084159) can1 21F#70FFF80000000090
(1533872832.084950) can1 220#700000000000009A
(1533872832.085158) can1 221#700000000000009B
(1533872832.085990) can1 222#700000000000009C
(1533872832.086157) can1 223#700000000000009D
(1533872832.087092) can1 224#700000000000009E
(1533872832.087215) can1 225#700000000000009F
(1533872832.087977) can1 226#70000000000000A0
(1533872832.088173) can1 227#70000000000000A1
(1533872832.088473) can1 141#00000046
(1533872832.088945) can1 228#7000000000A0
(1533872832.089093) can1 229#7000000000A1
(1533872832.089979) can1 22A#7000000000A2
(1533872832.090101) can1 22B#7000000000A3
(1533872832.090883) can1 22C#7000000000A4
(1533872832.091206) can1 22D#7000000000A5
(1533872832.091851) can1 22E#7000000000A6
(1533872832.092223) can1 22F#7000000000A7
(1533872832.092973) can1 123#0108090D40008A
(1533872832.093211) can1 230#707FFF7474000F
(1533872832.094071) can1 231#7001F7FE000002A3
(1533872832.094132) can1 232#7000FE00FE00FEA6
(1533872832.095080) can1 3D0#3880808080808013
(1533872832.095234) can1 3D1#3880808080808014
(1533872832.095880) can1 3D2#3880808080808015
(1533872832.096165) can1 3D3#3880808080808016
(1533872832.098622) can1 128#F40190830037
(1533872832.098849) can1 283#0000000000008C
(1533872832.099055) can1 344#0000010000000050
(1533872832.108673) can1 141#00000046
(1533872832.127061) can1 210#71FFF80000000082
(1533872832.127090) can1 211#71FFF80000000083
(1533872832.128073) can1 212#71FFF80000000084
(1533872832.128090) can1 213#71FFF80000000085
(1533872832.128964) can1 214#71FFF80000000086
(1533872832.129023) can1 141#00000046
(1533872832.129139) can1 215#71FFF80000000087
(1533872832.129251) can1 128#F40190830037
(1533872832.129425) can1 283#0000000000008C
(1533872832.129944) can1 216#71FFF80000000088
(1533872832.130193) can1 217#71FFF80000000089
(1533872832.130850) can1 218#71FFF8000000008A
(1533872832.131134) can1 219#71FFF8000000008B
(1533872832.131948) can1 21A#71FFF8000000008C
(1533872832.132092) can1 21B#71FFF8000000008D
(1533872832.132848) can1 21C#71FFF8000000008E
(1533872832.133134) can1 21D#71FFF8000000008F
(1533872832.133943) can1 21E#71FFF80000000090
(1533872832.134147) can1 21F#71FFF80000000091
(1533872832.134844) can1 220#710000000000009B
(1533872832.135083) can1 221#710000000000009C
(1533872832.135923) can1 222#710000000000009D
(1533872832.136129) can1 223#710000000000009E
(1533872832.136866) can1 224#710000000000009F
(1533872832.137147) can1 225#71000000000000A0
(1533872832.137959) can1 226#71000000000000A1
(1533872832.138101) can1 227#71000000000000A2
(1533872832.138846) can1 228#7100000000A1
(1533872832.139046) can1 229#7100000000A2
(1533872832.139140) can1 160#0000081201319C51
(1533872832.139335) can1 161#001E0000008007
(1533872832.139844) can1 22A#7100000000A3
(1533872832.140034) can1 22B#7100000000A4
(1533872832.140825) can1 22C#7100000000A5
(1533872832.141034) can1 22D#7100000000A6
(1533872832.141826) can1 22E#7100000000A7
(1533872832.142035) can1 22F#7100000000A8
(1533872832.142826) can1 230#717FFF74750011
(1533872832.143083) can1 231#7101F7FE000002A4
(1533872832.143943) can1 232#7100FE00FE00FEA7
(1533872832.149172) can1 141#00000046
(1533872832.149341) can1 344#0000010000000050
(1533872832.149553) can1 365#00000080FC0008
(1533872832.149694) can1 366#007207FF09FE00
(1533872832.149823) can1 4CB#0C00000000000000
(1533872832.160703) can1 128#F40190830037
(1533872832.161316) can1 283#0000000000008C
(1533872832.170476) can1 141#00000046
(1533872832.176986) can1 210#72FFF80000000083
(1533872832.177130) can1 211#72FFF80000000084
(1533872832.177862) can1 212#72FFF80000000085
(1533872832.178149) can1 213#72FFF80000000086
(1533872832.178891) can1 214#72FFF80000000087
(1533872832.179127) can1 215#72FFF80000000088
(1533872832.179992) can1 216#72FFF80000000089
(1533872832.180138) can1 217#72FFF8000000008A
(1533872832.180936) can1 218#72FFF8000000008B
(1533872832.181150) can1 219#72FFF8000000008C
(1533872832.181950) can1 21A#72FFF8000000008D
(1533872832.182100) can1 21B#72FFF8000000008E
(1533872832.182851) can1 21C#72FFF8000000008F
(1533872832.183138) can1 21D#72FFF80000000090
(1533872832.183949) can1 21E#72FFF80000000091
(1533872832.184095) can1 21F#72FFF80000000092
(1533872832.184849) can1 220#720000000000009C
(1533872832.185089) can1 221#720000000000009D
(1533872832.185950) can1 222#720000000000009E
(1533872832.186095) can1 223#720000000000009F
(1533872832.186952) can1 224#72000000000000A0
(1533872832.187151) can1 225#72000000000000A1
(1533872832.187846) can1 226#72000000000000A2
(1533872832.188138) can1 227#72000000000000A3
(1533872832.188829) can1 228#7200000000A2
(1533872832.189040) can1 229#7200000000A3
(1533872832.189831) can1 22A#7200000000A4
(1533872832.190039) can1 22B#7200000000A5
(1533872832.190832) can1 22C#7200000000A6
(1533872832.191039) can1 22D#7200000000A7
(1533872832.191832) can1 22E#7200000000A8
(1533872832.192038) can1 22F#7200000000A9
(1533872832.192830) can1 123#0108090D40008A
(1533872832.193088) can1 230#727FFF74760013
(1533872832.193949) can1 231#7201F7FE000002A5
(1533872832.194094) can1 232#7200FE00FE00FEA8
(1533872832.194949) can1 3D0#3980808080808014
(1533872832.195094) can1 3D1#3980808080808015
(1533872832.195949) can1 3D2#3980808080808016
(1533872832.196161) can1 3D3#3980808080808017
(1533872832.197946) can1 141#00000046
(1533872832.198794) can1 128#F40190830037
(1533872832.199680) can1 283#0000000000008C
(1533872832.201676) can1 344#0000010000000050
(1533872832.212177) can1 141#00000046
(1533872832.213076) can1 160#0000081201319C51
(1533872832.213604) can1 161#001E0000008007
(1533872832.222582) can1 128#F40190830037
(1533872832.223098) can1 283#0000000000008C
(1533872832.226988) can1 210#73FFF80000000084
(1533872832.227191) can1 211#73FFF80000000085
(1533872832.227990) can1 212#73FFF80000000086
(1533872832.228190) can1 213#73FFF80000000087
(1533872832.228991) can1 214#73FFF80000000088
(1533872832.229137) can1 215#73FFF80000000089
(1533872832.229999) can1 216#73FFF8000000008A
(1533872832.230150) can1 217#73FFF8000000008B
(1533872832.230955) can1 218#73FFF8000000008C
(1533872832.231157) can1 219#73FFF8000000008D
(1533872832.231952) can1 21A#73FFF8000000008E
(1533872832.232156) can1 21B#73FFF8000000008F
(1533872832.232997) can1 21C#73FFF80000000090
(1533872832.233157) can1 21D#73FFF80000000091
(1533872832.233255) can1 141#00000046
(1533872832.233985) can1 21E#73FFF80000000092
(1533872832.234195) can1 21F#73FFF80000000093
(1533872832.234886) can1 220#730000000000009D
(1533872832.235178) can1 221#730000000000009E
(1533872832.235986) can1 222#730000000000009F
(1533872832.236135) can1 223#73000000000000A0
(1533872832.236985) can1 224#73000000000000A1
(1533872832.237190) can1 225#73000000000000A2
(1533872832.237986) can1 226#73000000000000A3
(1533872832.238189) can1 227#73000000000000A4
(1533872832.238886) can1 228#7300000000A3
(1533872832.239077) can1 229#7300000000A4
(1533872832.239867) can1 22A#7300000000A5
(1533872832.240072) can1 22B#7300000000A6
(1533872832.240884) can1 22C#7300000000A7
(1533872832.241074) can1 22D#7300000000A8
(1533872832.241835) can1 22E#7300000000A9
(1533872832.242041) can1 22F#7300000000AA
(1533872832.242831) can1 230#737FFF74770015
(1533872832.243094) can1 231#7301F7FE000002A6
(1533872832.243952) can1 232#7300FE00FE00FEA9
(1533872832.255041) can1 141#00000046
(1533872832.255561) can1 128#F40190830037
(1533872832.256127) can1 283#0000000000008C
(1533872832.256623) can1 344#0000010000000050
(1533872832.276028) can1 141#00000046
(1533872832.276930) can1 210#74FFF80000000085
(1533872832.277133) can1 211#74FFF80000000086
(1533872832.277875) can1 212#74FFF80000000087
(1533872832.278098) can1 213#74FFF80000000088
(1533872832.278880) can1 214#74FFF80000000089
(1533872832.279172) can1 215#74FFF8000000008A
(1533872832.279994) can1 216#74FFF8000000008B
(1533872832.280195) can1 217#74FFF8000000008C
(1533872832.280913) can1 218#74FFF8000000008D
(1533872832.281185) can1 219#74FFF8000000008E
(1533872832.281953) can1 21A#74FFF8000000008F
(1533872832.282095) can1 21B#74FFF80000000090
(1533872832.282854) can1 21C#74FFF80000000091
(1533872832.283143) can1 21D#74FFF80000000092
(1533872832.283980) can1 21E#74FFF80000000093
(1533872832.284112) can1 21F#74FFF80000000094
(1533872832.284963) can1 220#740000000000009E
(1533872832.285167) can1 221#740000000000009F
(1533872832.285851) can1 222#74000000000000A0
(1533872832.286140) can1 223#74000000000000A1
(1533872832.286952) can1 224#74000000000000A2
(1533872832.287153) can1 225#74000000000000A3
(1533872832.287953) can1 226#74000000000000A4
(1533872832.288151) can1 227#74000000000000A5
(1533872832.288872) can1 228#7400000000A4
(1533872832.289086) can1 229#7400000000A5
(1533872832.289181) can1 128#F40190830037
(1533872832.289845) can1 22A#7400000000A6
(1533872832.289947) can1 283#0000000000008C
(1533872832.290027) can1 22B#7400000000A7
(1533872832.290769) can1 160#0000081201319C51
(1533872832.290928) can1 22C#7400000000A8
(1533872832.291284) can1 22D#7400000000A9
(1533872832.291568) can1 161#001E0000008007
(1533872832.291999) can1 22E#7400000000AA
(1533872832.292276) can1 22F#7400000000AB
(1533872832.292874) can1 123#0108090D40008A
(1533872832.293109) can1 230#747FFF74780017
(1533872832.293973) can1 231#7401F7FE000002A7
(1533872832.294093) can1 232#7400FE00FE00FEAA
(1533872832.294988) can1 3D0#3A80808080808015
(1533872832.295190) can1 3D1#3A80808080808016
(1533872832.295985) can1 3D2#3A80808080808017
(1533872832.296173) can1 3D3#3A80808080808018
(1533872832.296624) can1 141#00000046
(1533872832.308627) can1 344#0000010000000050
(1533872832.317041) can1 141#00000046
(1533872832.317682) can1 128#F40190830037
(1533872832.318174) can1 283#0000000000008C
(1533872832.326989) can1 210#75FFF80000000086
(1533872832.327195) can1 211#75FFF80000000087
(1533872832.327892) can1 212#75FFF80000000088
(1533872832.328103) can1 213#75FFF80000000089
(1533872832.328885) can1 214#75FFF8000000008A
(1533872832.329175) can1 215#75FFF8000000008B
(1533872832.329931) can1 216#75FFF8000000008C
(1533872832.330150) can1 217#75FFF8000000008D
(1533872832.330997) can1 218#75FFF8000000008E
(1533872832.331157) can1 219#75FFF8000000008F
(1533872832.331950) can1 21A#75FFF80000000090
(1533872832.332094) can1 21B#75FFF80000000091
(1533872832.332949) can1 21C#75FFF80000000092
(1533872832.333095) can1 21D#75FFF80000000093
(1533872832.333847) can1 21E#75FFF80000000094
(1533872832.334137) can1 21F#75FFF80000000095
(1533872832.334972) can1 220#750000000000009F
(1533872832.335118) can1 221#75000000000000A0
(1533872832.335845) can1 222#75000000000000A1
(1533872832.336136) can1 223#75000000000000A2
(1533872832.336959) can1 224#75000000000000A3
(1533872832.337155) can1 225#75000000000000A4
(1533872832.337530) can1 141#00000046
(1533872832.337928) can1 226#75000000000000A5
(1533872832.338225) can1 227#75000000000000A6
(1533872832.338867) can1 228#7500000000A5
(1533872832.339076) can1 229#7500000000A6
(1533872832.339899) can1 22A#7500000000A7
(1533872832.340065) can1 22B#7500000000A8
(1533872832.340886) can1 22C#7500000000A9
(1533872832.341076) can1 22D#7500000000AA
(1533872832.341892) can1 22E#7500000000AB
(1533872832.342072) can1 22F#7500000000AC
(1533872832.342849) can1 230#757FFF74790019
(1533872832.343089) can1 231#7501F7FE000002A8
(1533872832.343947) can1 232#7500FE00FE00FEAB
(1533872832.353946) can1 128#F40190830037
(1533872832.354525) can1 283#0000000000008C
(1533872832.358549) can1 141#00000046
(1533872832.359424) can1 344#0000010000000050
(1533872832.360274) can1 160#0000081201319C51
(1533872832.361071) can1 161#001E0000008007
(1533872832.361947) can1 365#00000080FC0008
(1533872832.362745) can1 366#007207FF09FE00
(1533872832.376853) can1 210#76FFF80000000087
(1533872832.377179) can1 211#76FFF80000000088
(1533872832.377866) can1 212#76FFF80000000089
(1533872832.378158) can1 213#76FFF8000000008A
(1533872832.378941) can1 214#76FFF8000000008B
(1533872832.379158) can1 215#76FFF8000000008C
(1533872832.379195) can1 141#00000046
(1533872832.379992) can1 216#76FFF8000000008D
(1533872832.380057) can1 128#F40190830037
(1533872832.380209) can1 217#76FFF8000000008E
(1533872832.380828) can1 283#0000000000008C
(1533872832.380989) can1 218#76FFF8000000008F
(1533872832.381431) can1 219#76FFF80000000090
(1533872832.382015) can1 21A#76FFF80000000091
(1533872832.382172) can1 21B#76FFF80000000092
(1533872832.382917) can1 21C#76FFF80000000093
(1533872832.383132) can1 21D#76FFF80000000094
(1533872832.383883) can1 21E#76FFF80000000095
(1533872832.384117) can1 21F#76FFF80000000096
(1533872832.384867) can1 220#76000000000000A0
(1533872832.385147) can1 221#76000000000000A1
(1533872832.385866) can1 222#76000000000000A2
(1533872832.386115) can1 223#76000000000000A3
(1533872832.386883) can1 224#76000000000000A4
(1533872832.387123) can1 225#76000000000000A5
(1533872832.387881) can1 226#76000000000000A6
(1533872832.388142) can1 227#76000000000000A7
(1533872832.388859) can1 228#7600000000A6
(1533872832.389061) can1 229#7600000000A7
(1533872832.389881) can1 22A#7600000000A8
(1533872832.390066) can1 22B#7600000000A9
(1533872832.390834) can1 22C#7600000000AA
(1533872832.391064) can1 22D#7600000000AB
(1533872832.391858) can1 22E#7600000000AC
(1533872832.392083) can1 22F#7600000000AD
(1533872832.392870) can1 123#0108090D40008A
(1533872832.393069) can1 230#767FFF747A001B
(1533872832.393876) can1 231#7601F7FE000002A9
(1533872832.394098) can1 232#7600FE00FE00FEAC
(1533872832.394886) can1 3D0#3B80808080808016
(1533872832.395117) can1 3D1#3B80808080808017
(1533872832.395912) can1 3D2#3B80808080808018
(1533872832.396158) can1 3D3#3B80808080808019
(1533872832.400471) can1 141#00000046
(1533872832.410082) can1 128#F40190830037
(1533872832.410849) can1 283#0000000000008C
(1533872832.411685) can1 344#0000010000000050
(1533872832.420459) can1 141#00000046
(1533872832.426972) can1 210#77FFF80000000088
(1533872832.427193) can1 211#77FFF80000000089
(1533872832.427908) can1 212#77FFF8000000008A
(1533872832.428162) can1 213#77FFF8000000008B
(1533872832.428923) can1 214#77FFF8000000008C
(1533872832.429158) can1 215#77FFF8000000008D
(1533872832.429868) can1 216#77FFF8000000008E
(1533872832.430149) can1 217#77FFF8000000008F
(1533872832.430846) can1 160#0000081201319C51
(1533872832.430945) can1 218#77FFF80000000090
(1533872832.431368) can1 219#77FFF80000000091
(1533872832.431467) can1 161#001E0000008007
(1533872832.432015) can1 21A#77FFF80000000092
(1533872832.432257) can1 21B#77FFF80000000093
(1533872832.432885) can1 21C#77FFF80000000094
(1533872832.433117) can1 21D#77FFF80000000095
(1533872832.433878) can1 21E#77FFF80000000096
(1533872832.434150) can1 21F#77FFF80000000097
(1533872832.434958) can1 220#77000000000000A1
(1533872832.435111) can1 221#77000000000000A2
(1533872832.435865) can1 222#77000000000000A3
(1533872832.436116) can1 223#77000000000000A4
(1533872832.436990) can1 224#77000000000000A5
(1533872832.437118) can1 225#77000000000000A6
(1533872832.437882) can1 226#77000000000000A7
(1533872832.438154) can1 227#77000000000000A8
(1533872832.438884) can1 228#7700000000A7
(1533872832.439099) can1 229#7700000000A8
(1533872832.439890) can1 22A#7700000000A9
(1533872832.440051) can1 22B#7700000000AA
(1533872832.440868) can1 22C#7700000000AB
(1533872832.441032) can1 22D#7700000000AC
(1533872832.441124) can1 141#00000046
(1533872832.441833) can1 22E#7700000000AD
(1533872832.442060) can1 22F#7700000000AE
(1533872832.442116) can1 128#F40190830037
(1533872832.442862) can1 230#777FFF747B001D
(1533872832.443032) can1 283#0000000000008C
(1533872832.443146) can1 231#7701F7FE000002AA
(1533872832.443877) can1 232#7700FE00FE00FEAD
(1533872832.463143) can1 141#00000046
(1533872832.464232) can1 344#0000010000000050
(1533872832.473630) can1 128#F40190830037
(1533872832.474604) can1 283#0000000000008C
(1533872832.476861) can1 210#78FFF80000000089
(1533872832.477111) can1 211#78FFF8000000008A
(1533872832.477871) can1 212#78FFF8000000008B
(1533872832.478114) can1 213#78FFF8000000008C
(1533872832.478872) can1 214#78FFF8000000008D
(1533872832.479127) can1 215#78FFF8000000008E
