(1530386559.110216) can0 083#05CC000000ED0F5D
(1530386559.123181) can0 073#05CC000000000F68
(1530386559.125072) can0 093#05CC000000010F41
(1530386559.130225) can0 083#05CC000000ED0F5D
(1530386559.143281) can0 073#05CC000000E009AD
(1530386559.145097) can0 093#05CC000000010F41
(1530386559.150245) can0 083#05CC000000ED0F5D
(1530386559.163235) can0 073#05CC000000080F68
(1530386559.165150) can0 093#05CC000000010F41
(1530386559.170237) can0 083#05CC000000ED0802
(1530386559.183267) can0 073#05CC000000080F68
(1530386559.185143) can0 093#05CC000000010F41
(1530386559.190215) can0 083#05CC000000B78400
(1530386559.203266) can0 073#05CC000000080F68
(1530386559.205199) can0 093#05CC00000000068C
(1530386559.210402) can0 083#05CC000000ED0F5D
(1530386559.223271) can0 073#05CC000000080F68
(1530386559.225317) can0 093#05CC000000D20F41
(1530386559.230249) can0 083#05CC000000ED0F5D
(1530386559.243251) can0 073#05CC00000000068C
(1530386559.245173) can0 093#05CC000000D20F41
(1530386559.250254) can0 083#05CC000000ED0F5D
(1530386559.263208) can0 073#05CC000000D20F68
(1530386559.265165) can0 093#05CC0000004101FB
(1530386559.270245) can0 083#05CC000000ED0802
(1530386559.283179) can0 073#05CC000000D20F68
(1530386559.285216) can0 093#05CC000000000F41
(1530386559.290279) can0 083#05CC000000840000
(1530386559.303172) can0 073#05CC000000D20F68
(1530386559.305213) can0 093#05CC0000008C08E0
(1530386559.310307) can0 083#05CC000000010F5D
(1530386559.323243) can0 073#05CC000000D20F68
(1530386559.325302) can0 093#05CC000000000F41
(1530386559.330260) can0 083#05CC000000010F5D
(1530386559.343399) can0 073#05CC000000000000
(1530386559.345263) can0 093#05CC000000000F41
(1530386559.350265) can0 083#05CC000000010F5D
(1530386559.363158) can0 073#05CC000000010F68
(1530386559.365254) can0 093#05CC00000000068C
(1530386559.370260) can0 083#05CC000000010F5D
(1530386559.383138) can0 073#05CC000000010F68
(1530386559.385264) can0 093#05CC000000D20F41
(1530386559.390343) can0 083#05CC000000010F5D
(1530386559.403142) can0 073#05CC000000010F68
(1530386559.405422) can0 093#05CC000000D20F41
(1530386559.410450) can0 083#05CC000000000000
(1530386559.423288) can0 073#05CC000000010F68
(1530386559.425437) can0 093#05CC000000D20F41
(1530386559.430261) can0 083#05CC000000010F5D
(1530386559.443234) can0 073#05CC000000068C08
(1530386559.445342) can0 093#05CC000000D20F41
(1530386559.450339) can0 083#05CC000000010F5D
(1530386559.463136) can0 073#05CC000000050F68
(1530386559.465330) can0 093#05CC000000FB0802
(1530386559.470359) can0 083#05CC000000010F5D
(1530386559.483148) can0 073#05CC000000050F68
(1530386559.485490) can0 093#05CC000000CC0F41
(1530386559.490571) can0 083#05CC000000010F5D
(1530386559.503363) can0 073#05CC000000B30000
(1530386559.505580) can0 093#05CC000000F5BF00
(1530386559.510422) can0 083#05CC000000000000
(1530386559.523241) can0 073#05CC000000010F68
(1530386559.525490) can0 093#05CC000000FB0F41
(1530386559.530347) can0 083#05CC000000010F5D
(1530386559.543284) can0 073#05CC000000FB0802
(1530386559.545451) can0 093#05CC000000FB0F41
(1530386559.550341) can0 083#05CC000000010F5D
(1530386559.563152) can0 073#05CC000000CC0F68
(1530386559.565420) can0 093#05CC00000000068C
(1530386559.570486) can0 083#05CC000000010F5D
(1530386559.583102) can0 073#05CC000000CC0F68
(1530386559.585683) can0 093#05CC000000D20F41
(1530386559.590461) can0 083#05CC000000010F5D
(1530386559.603283) can0 073#05CC000000CC0F68
(1530386559.605506) can0 093#05CC000000D20F41
(1530386559.610500) can0 083#05CC000000000000
(1530386559.623201) can0 073#05CC000000CC0F68
(1530386559.625627) can0 093#05CC000000D20F41
(1530386559.630383) can0 083#05CC000000B78400
(1530386559.643191) can0 073#05CC000000000000
(1530386559.645535) can0 093#05CC000000D20F41
(1530386559.650466) can0 083#05CC000000ED0F5D
(1530386559.663143) can0 073#05CC000000000F68
(1530386559.665574) can0 093#05CC000000000000
(1530386559.670463) can0 083#05CC000000ED0F5D
(1530386559.683086) can0 073#05CC000000000F68
(1530386559.685576) can0 093#05CC000000010F41
(1530386559.690463) can0 083#05CC000000ED0F5D
(1530386559.703064) can0 073#05CC000000E009AD
(1530386559.705551) can0 093#05CC000000010F41
(1530386559.710475) can0 083#05CC000000ED0F5D
(1530386559.723124) can0 073#05CC000000080F68
(1530386559.725608) can0 093#05CC000000010F41
(1530386559.730483) can0 083#05CC000000ED0802
(1530386559.743119) can0 073#05CC000000080F68
(1530386559.745672) can0 093#05CC000000010F41
(1530386559.750465) can0 083#05CC000000CC0F5D
(1530386559.763100) can0 073#05CC000000080F68
(1530386559.765613) can0 093#05CC00000000068C
(1530386559.770500) can0 083#05CC000000CC0F5D
(1530386559.783058) can0 073#05CC000000080F68
(1530386559.785723) can0 093#05CC000000D20F41
(1530386559.790511) can0 083#05CC000000CC0F5D
(1530386559.803030) can0 073#05CC00000000068C
(1530386559.805779) can0 093#05CC000000D20F41
(1530386559.810515) can0 083#05CC000000CC0F5D
(1530386559.823127) can0 073#05CC000000D20F68
(1530386559.825782) can0 093#05CC0000004101FB
(1530386559.830427) can0 083#05CC000000ED0802
(1530386559.843212) can0 073#05CC000000D20F68
(1530386559.845734) can0 093#05CC000000000F41
(1530386559.850480) can0 083#05CC000000B78400
(1530386559.863063) can0 073#05CC000000D20F68
(1530386559.865756) can0 093#05CC00000008E009
(1530386559.870474) can0 083#05CC000000ED0F5D
(1530386559.883035) can0 073#05CC000000D20F68
(1530386559.885726) can0 093#05CC000000C50F41
(1530386559.890656) can0 083#05CC000000ED0F5D
(1530386559.903036) can0 073#05CC000000000000
(1530386559.905905) can0 093#05CC000000C50F41
(1530386559.910634) can0 083#05CC000000ED0F5D
(1530386559.923122) can0 073#05CC000000010F68
(1530386559.925777) can0 093#05CC000000C50F41
(1530386559.930492) can0 083#05CC000000ED0F5D
(1530386559.942992) can0 073#05CC000000010F68
(1530386559.945840) can0 093#05CC000000C50F41
(1530386559.950527) can0 083#05CC000000B78400
(1530386559.963059) can0 073#05CC000000010F68
(1530386559.965868) can0 093#05CC000000C50F41
(1530386559.970562) can0 083#05CC000000ED0802
(1530386559.983043) can0 073#05CC000000010F68
(1530386559.985858) can0 093#05CC000000C50F41
(1530386559.990662) can0 083#05CC000000CC0F5D
(1530386560.003024) can0 073#05CC000000068C08
(1530386560.005877) can0 093#05CC000000C50F41
(1530386560.010715) can0 083#05CC000000CC0F5D
(1530386560.023022) can0 073#05CC000000050F68
(1530386560.025906) can0 093#05CC000000FB0802
(1530386560.030571) can0 083#05CC000000CC0F5D
(1530386560.043027) can0 073#05CC000000050F68
(1530386560.045893) can0 093#05CC000000CC0F41
(1530386560.050526) can0 083#05CC000000ED0802
(1530386560.062998) can0 073#05CC000000050F68
(1530386560.065910) can0 093#05CC000000F5BF00
(1530386560.070600) can0 083#05CC000000B78400
(1530386560.083030) can0 073#05CC000000050F68
(1530386560.085914) can0 093#05CC000000FB0F41
(1530386560.090713) can0 083#05CC000000ED0F5D
(1530386560.103134) can0 073#05CC000000FB0802
(1530386560.106066) can0 093#05CC000000FB0F41
(1530386560.110672) can0 083#05CC000000ED0F5D
(1530386560.123041) can0 073#05CC000000CC0F68
(1530386560.125981) can0 093#05CC00000000068C
(1530386560.130558) can0 083#05CC000000ED0F5D
(1530386560.143110) can0 073#05CC000000CC0F68
(1530386560.145969) can0 093#05CC000000D20F41
(1530386560.150556) can0 083#05CC000000ED0F5D
(1530386560.162964) can0 073#05CC000000CC0F68
(1530386560.166005) can0 093#05CC000000D20F41
(1530386560.170588) can0 083#05CC000000B78400
(1530386560.182960) can0 073#05CC000000CC0F68
(1530386560.186017) can0 093#05CC000000D20F41
(1530386560.190720) can0 083#05CC0000008C08DE
(1530386560.202978) can0 073#05CC000000000000
(1530386560.206076) can0 093#05CC000000D20F41
(1530386560.210631) can0 083#05CC000000000F5D
(1530386560.223001) can0 073#05CC000000000F68
(1530386560.226133) can0 093#05CC000000000006
(1530386560.230599) can0 083#05CC000000000F5D
(1530386560.243063) can0 073#05CC000000000F68
(1530386560.246072) can0 093#05CC000000310F41
(1530386560.250570) can0 083#05CC000000000F5D
(1530386560.262913) can0 073#05CC00000008E009
(1530386560.266079) can0 093#05CC000000FB0802
(1530386560.270688) can0 083#05CC000000000F5D
(1530386560.282980) can0 073#05CC000000C50F68
(1530386560.286123) can0 093#05CC000000CC0F41
(1530386560.290645) can0 083#05CC00000008DE09
(1530386560.302941) can0 073#05CC000000C50F68
(1530386560.306110) can0 093#05CC000000CC0F41
(1530386560.310655) can0 083#05CC000000C30F5D
(1530386560.322979) can0 073#05CC000000C50F68
(1530386560.326175) can0 093#05CC00000000068C
(1530386560.330613) can0 083#05CC000000C30F5D
(1530386560.342987) can0 073#05CC000000C50F68
(1530386560.346188) can0 093#05CC000000D20F41
(1530386560.350619) can0 083#05CC000000C30F5D
(1530386560.362926) can0 073#05CC000000C50F68
(1530386560.366234) can0 093#05CC000000D20F41
(1530386560.370639) can0 083#05CC000000C30F5D
(1530386560.382956) can0 073#05CC000000C50F68
(1530386560.386200) can0 093#05CC0000000F4101
(1530386560.390640) can0 083#05CC000000DE0922
(1530386560.402963) can0 073#05CC000000000000
(1530386560.406211) can0 093#05CC000000000F41
(1530386560.410636) can0 083#05CC000000000000
(1530386560.422911) can0 073#05CC000000010F68
(1530386560.426380) can0 093#05CC00000008E009
(1530386560.430714) can0 083#05CC000000010F5D
(1530386560.443030) can0 073#05CC000000010F68
(1530386560.446269) can0 093#05CC000000C50F41
(1530386560.450946) can0 083#05CC000000010F5D
(1530386560.462859) can0 073#05CC000000000000
(1530386560.466374) can0 093#05CC000000C50F41
(1530386560.470770) can0 083#05CC000000010F5D
(1530386560.482901) can0 073#05CC000000010F68
(1530386560.486349) can0 093#05CC000000C50F41
(1530386560.490698) can0 083#05CC000000010F5D
(1530386560.502908) can0 073#05CC000000010F68
(1530386560.506493) can0 093#05CC000000C50F41
(1530386560.510698) can0 083#05CC000000000000
(1530386560.522885) can0 073#05CC000000010F68
(1530386560.526392) can0 093#05CC00000000068C
(1530386560.530687) can0 083#05CC0000000F0F5D
(1530386560.542892) can0 073#05CC000000010F68
(1530386560.546342) can0 093#05CC000000D20F41
(1530386560.550696) can0 083#05CC0000000F0F5D
(1530386560.562880) can0 073#05CC00000000068C
(1530386560.566344) can0 093#05CC000000D20F41
(1530386560.570713) can0 083#05CC0000000F0F5D
(1530386560.582878) can0 073#05CC000000D20F68
(1530386560.586463) can0 093#05CC000000FB0802
(1530386560.590810) can0 083#05CC0000000F0F5D
(1530386560.602961) can0 073#05CC000000D20F68
(1530386560.606513) can0 093#05CC000000CC0F41
(1530386560.610775) can0 083#05CC000000000000
(1530386560.622883) can0 073#05CC000000D20F68
(1530386560.626512) can0 093#05CC000000F5BF00
(1530386560.630699) can0 083#05CC0000000A0000
(1530386560.642962) can0 073#05CC000000D20F68
(1530386560.646382) can0 093#05CC000000FB0F41
(1530386560.650905) can0 083#05CC000000ED0F5D
(1530386560.662878) can0 073#05CC00000000068C
(1530386560.666429) can0 093#05CC000000FB0F41
(1530386560.670828) can0 083#05CC000000ED0F5D
(1530386560.682900) can0 073#05CC000000D20F68
(1530386560.686489) can0 093#05CC00000000068C
(1530386560.690977) can0 083#05CC000000ED0F5D
(1530386560.702868) can0 073#05CC000000D20F68
(1530386560.706516) can0 093#05CC000000D20F41
(1530386560.710847) can0 083#05CC000000ED0F5D
(1530386560.722859) can0 073#05CC000000D20F68
(1530386560.726544) can0 093#05CC000000D20F41
(1530386560.730846) can0 083#05CC000000B78400
(1530386560.742872) can0 073#05CC000000D20F68
(1530386560.746549) can0 093#05CC000000D20F41
(1530386560.750857) can0 083#05CC000000ED0F5D
(1530386560.762831) can0 073#05CC000000AD0000
(1530386560.766542) can0 093#05CC000000D20F41
(1530386560.770862) can0 083#05CC000000ED0F5D
(1530386560.782862) can0 073#05CC000000010F68
(1530386560.786618) can0 093#05CC000000000006
(1530386560.790972) can0 083#05CC000000ED0F5D
(1530386560.802828) can0 073#05CC000000010F68
(1530386560.806678) can0 093#05CC000000310F41
(1530386560.810895) can0 083#05CC000000ED0F5D
(1530386560.822873) can0 073#05CC00000008E009
(1530386560.826591) can0 093#05CC000000FB0802
(1530386560.830877) can0 083#05CC000000ED0802
(1530386560.842825) can0 073#05CC000000C50F68
(1530386560.846577) can0 093#05CC000000CC0F41
(1530386560.850877) can0 083#05CC0000000F5D01
(1530386560.862846) can0 073#05CC000000C50F68
(1530386560.866631) can0 093#05CC000000CC0F41
(1530386560.870871) can0 083#05CC000000000F5D
(1530386560.882871) can0 073#05CC000000C50F68
(1530386560.886723) can0 093#05CC00000000068C
(1530386560.890896) can0 083#05CC000000000F5D
(1530386560.902887) can0 073#05CC000000C50F68
(1530386560.906644) can0 093#05CC000000D20F41
(1530386560.910828) can0 083#05CC000000000F5D
(1530386560.922755) can0 073#05CC000000C50F68
(1530386560.926712) can0 093#05CC000000D20F41
(1530386560.930879) can0 083#05CC000000ED0802
(1530386560.942866) can0 073#05CC000000C50F68
(1530386560.946691) can0 093#05CC0000000F4101
(1530386560.950878) can0 083#05CC000000B78400
(1530386560.962845) can0 073#05CC000000000000
(1530386560.966724) can0 093#05CC000000000F41
(1530386560.970872) can0 083#05CC000000B78400
(1530386560.982740) can0 073#05CC000000000F68
(1530386560.986889) can0 093#05CC000000E0092E
(1530386560.991009) can0 083#05CC000000ED0F5D
(1530386561.002985) can0 073#05CC000000000F68
(1530386561.006965) can0 093#05CC000000080F41
(1530386561.010916) can0 083#05CC000000ED0F5D
(1530386561.022775) can0 073#05CC000000000000
(1530386561.026738) can0 093#05CC000000080F41
(1530386561.030875) can0 083#05CC000000ED0F5D
(1530386561.042820) can0 073#05CC000000010F68
(1530386561.046785) can0 093#05CC000000080F41
(1530386561.050847) can0 083#05CC000000ED0802
(1530386561.062756) can0 073#05CC000000010F68
(1530386561.066816) can0 093#05CC000000080F41
(1530386561.070878) can0 083#05CC000000B78400
(1530386561.082803) can0 073#05CC000000010F68
(1530386561.086851) can0 093#05CC00000000068C
(1530386561.091013) can0 083#05CC000000ED0F5D
(1530386561.102807) can0 073#05CC000000010F68
(1530386561.106897) can0 093#05CC000000D20F41
(1530386561.110899) can0 083#05CC000000ED0F5D
(1530386561.122689) can0 073#05CC00000000068C
(1530386561.126818) can0 093#05CC000000D20F41
(1530386561.130931) can0 083#05CC000000ED0F5D
(1530386561.142854) can0 073#05CC000000D20F68
(1530386561.146886) can0 093#05CC000000FB0802
(1530386561.150941) can0 083#05CC000000ED0802
(1530386561.162720) can0 073#05CC000000D20F68
(1530386561.166864) can0 093#05CC000000CC0F41
(1530386561.170922) can0 083#05CC000000840000
(1530386561.182719) can0 073#05CC000000D20F68
(1530386561.186928) can0 093#05CC000000BF0000
(1530386561.191119) can0 083#05CC000000010F5D
(1530386561.202740) can0 073#05CC000000D20F68
(1530386561.207083) can0 093#05CC000000010F41
(1530386561.210995) can0 083#05CC000000010F5D
(1530386561.222725) can0 073#05CC00000000068C
(1530386561.227014) can0 093#05CC000000010F41
(1530386561.230942) can0 083#05CC000000010F5D
(1530386561.242742) can0 073#05CC000000D20F68
(1530386561.246924) can0 093#05CC00000000069D
(1530386561.250955) can0 083#05CC000000010F5D
(1530386561.262681) can0 073#05CC000000D20F68
(1530386561.266995) can0 093#05CC000000D20F41
(1530386561.270995) can0 083#05CC000000010F5D
(1530386561.282700) can0 073#05CC000000D20F68
(1530386561.287060) can0 093#05CC000000D20F41
(1530386561.291030) can0 083#05CC000000000000
(1530386561.302783) can0 073#05CC000000D20F68
(1530386561.307075) can0 093#05CC000000D20F41
(1530386561.310915) can0 083#05CC000000ED0F5D
(1530386561.322870) can0 073#05CC000000AD0000
(1530386561.327052) can0 093#05CC000000D20F41
(1530386561.330984) can0 083#05CC000000ED0F5D
(1530386561.342788) can0 073#05CC000000010F68
(1530386561.347024) can0 093#05CC000000BF0000
(1530386561.350985) can0 083#05CC000000ED0F5D
(1530386561.362684) can0 073#05CC000000010F68
(1530386561.367081) can0 093#05CC000000010F41
(1530386561.371061) can0 083#05CC000000ED0F5D
(1530386561.382631) can0 073#05CC0000009D08E0
(1530386561.387131) can0 093#05CC000000FB0802
(1530386561.391012) can0 083#05CC000000000000
(1530386561.402737) can0 073#05CC000000000F68
(1530386561.407154) can0 093#05CC000000CC0F41
(1530386561.411043) can0 083#05CC000000010F5D
(1530386561.422642) can0 073#05CC0000000F6801
(1530386561.427195) can0 093#05CC000000CC0F41
(1530386561.431020) can0 083#05CC000000010F5D
(1530386561.442781) can0 073#05CC000000000F68
(1530386561.447171) can0 093#05CC00000000068C
(1530386561.451006) can0 083#05CC000000010F5D
(1530386561.462640) can0 073#05CC000000000F68
(1530386561.467182) can0 093#05CC000000D20F41
(1530386561.471065) can0 083#05CC000000010F5D
(1530386561.482696) can0 073#05CC000000000F68
(1530386561.487197) can0 093#05CC000000D20F41
(1530386561.491174) can0 083#05CC000000000000
(1530386561.502703) can0 073#05CC000000000F68
(1530386561.507393) can0 093#05CC000000D20F41
(1530386561.511064) can0 083#05CC000000000000
(1530386561.522715) can0 073#05CC000000000000
(1530386561.527242) can0 093#05CC000000D20F41
(1530386561.531086) can0 083#05CC000000010F5D
(1530386561.542741) can0 073#05CC000000000F68
(1530386561.547253) can0 093#05CC000000E0092E
(1530386561.551096) can0 083#05CC000000010F5D
(1530386561.562639) can0 073#05CC000000000F68
(1530386561.567318) can0 093#05CC000000080F41
(1530386561.571083) can0 083#05CC000000010F5D
(1530386561.582659) can0 073#05CC000000000000
(1530386561.587285) can0 093#05CC000000080F41
(1530386561.591178) can0 083#05CC000000010F5D
(1530386561.602609) can0 073#05CC000000000F68
(1530386561.607406) can0 093#05CC000000080F41
(1530386561.611109) can0 083#05CC000000ED0802
(1530386561.622701) can0 073#05CC000000000F68
(1530386561.627351) can0 093#05CC000000080F41
(1530386561.631097) can0 083#05CC000000CC0F5D
(1530386561.642709) can0 073#05CC000000000F68
(1530386561.647365) can0 093#05CC00000000068C
(1530386561.651104) can0 083#05CC000000CC0F5D
(1530386561.662612) can0 073#05CC000000000F68
(1530386561.667377) can0 093#05CC000000D20F41
(1530386561.671112) can0 083#05CC000000CC0F5D
(1530386561.682669) can0 073#05CC000000000F68
(1530386561.687552) can0 093#05CC000000D20F41
(1530386561.691278) can0 083#05CC000000CC0F5D
(1530386561.702653) can0 073#05CC000000000F68
(1530386561.707600) can0 093#05CC000000FB0802
(1530386561.711188) can0 083#05CC000000ED0802
(1530386561.722664) can0 073#05CC000000000F68
(1530386561.727404) can0 093#05CC000000CC0F41
(1530386561.731064) can0 083#05CC000000B78400
(1530386561.742716) can0 073#05CC000000000F68
(1530386561.747384) can0 093#05CC000000BF0000
(1530386561.751065) can0 083#05CC000000ED0F5D
(1530386561.762588) can0 073#05CC000000000F68
(1530386561.767370) can0 093#05CC000000010F41
(1530386561.771087) can0 083#05CC000000ED0F5D
(1530386561.782611) can0 073#05CC00000000068C
(1530386561.787477) can0 093#05CC000000010F41
(1530386561.791196) can0 083#05CC000000ED0F5D
(1530386561.802619) can0 073#05CC000000D20F68
(1530386561.807469) can0 093#05CC000000010F41
(1530386561.811149) can0 083#05CC000000ED0F5D
(1530386561.822535) can0 073#05CC000000D20F68
(1530386561.827617) can0 093#05CC000000010F41
(1530386561.831131) can0 083#05CC000000B78400
(1530386561.842561) can0 073#05CC000000D20F68
(1530386561.847475) can0 093#05CC000000068C08
(1530386561.851130) can0 083#05CC000000ED0802
(1530386561.862529) can0 073#05CC000000D20F68
(1530386561.867504) can0 093#05CC000000050F41
(1530386561.871231) can0 083#05CC000000CC0F5D
(1530386561.882510) can0 073#05CC00000009AD00
(1530386561.887616) can0 093#05CC000000050F41
(1530386561.891206) can0 083#05CC000000CC0F5D
(1530386561.902612) can0 073#05CC000000D20F68
(1530386561.907540) can0 093#05CC000000BF0000
(1530386561.911171) can0 083#05CC000000CC0F5D
(1530386561.922614) can0 073#05CC000000D20F68
(1530386561.927646) can0 093#05CC000000010F41
(1530386561.931136) can0 083#05CC000000ED0802
(1530386561.942592) can0 073#05CC000000D20F68
(1530386561.947517) can0 093#05CC000000FB0802
(1530386561.951138) can0 083#05CC000000B78400
(1530386561.962544) can0 073#05CC000000D20F68
(1530386561.967552) can0 093#05CC000000CC0F41
(1530386561.971147) can0 083#05CC000000ED0F5D
(1530386561.982537) can0 073#05CC00000000068C
(1530386561.987638) can0 093#05CC000000CC0F41
(1530386561.991244) can0 083#05CC000000ED0F5D
(1530386562.002579) can0 073#05CC000000D20F68
(1530386562.007640) can0 093#05CC00000000068C
(1530386562.011191) can0 083#05CC000000ED0F5D
(1530386562.022531) can0 073#05CC000000D20F68
(1530386562.027739) can0 093#05CC000000D20F41
(1530386562.031228) can0 083#05CC000000ED0F5D
(1530386562.042607) can0 073#05CC000000D20F68
(1530386562.047687) can0 093#05CC000000D20F41
(1530386562.051229) can0 083#05CC000000B78400
(1530386562.062529) can0 073#05CC000000D20F68
(1530386562.067821) can0 093#05CC000000D20F41
(1530386562.071252) can0 083#05CC0000008C08DE
(1530386562.082509) can0 073#05CC000000000000
(1530386562.087818) can0 093#05CC000000D20F41
(1530386562.091308) can0 083#05CC000000000F5D
(1530386562.102566) can0 073#05CC000000000F68
(1530386562.107711) can0 093#05CC000000E0092E
(1530386562.111263) can0 083#05CC000000000F5D
(1530386562.122643) can0 073#05CC000000000F68
(1530386562.127854) can0 093#05CC000000080F41
(1530386562.131204) can0 083#05CC000000000F5D
(1530386562.142552) can0 073#05CC000000000000
(1530386562.147761) can0 093#05CC000000080F41
(1530386562.151196) can0 083#05CC000000000F5D
(1530386562.162479) can0 073#05CC000000000F68
(1530386562.167768) can0 093#05CC000000080F41
(1530386562.171202) can0 083#05CC00000008DE09
(1530386562.182496) can0 073#05CC000000000F68
(1530386562.187754) can0 093#05CC000000080F41
(1530386562.191359) can0 083#05CC000000C30F5D
(1530386562.202527) can0 073#05CC000000000F68
(1530386562.207969) can0 093#05CC00000000068C
(1530386562.211299) can0 083#05CC000000C30F5D
(1530386562.222554) can0 073#05CC000000000F68
(1530386562.227867) can0 093#05CC000000D20F41
(1530386562.231320) can0 083#05CC000000C30F5D
(1530386562.242624) can0 073#05CC000000000F68
(1530386562.247836) can0 093#05CC000000D20F41
(1530386562.251323) can0 083#05CC000000C30F5D
(1530386562.262492) can0 073#05CC000000000F68
(1530386562.267856) can0 093#05CC000000FB0802
(1530386562.271266) can0 083#05CC000000DE0922
(1530386562.282462) can0 073#05CC00000009AD00
(1530386562.287927) can0 093#05CC000000CC0F41
(1530386562.291440) can0 083#05CC000000000000
(1530386562.302491) can0 073#05CC000000D20F68
(1530386562.308042) can0 093#05CC000000000006
(1530386562.311282) can0 083#05CC000000010F5D
(1530386562.322490) can0 073#05CC000000D20F68
(1530386562.327944) can0 093#05CC000000310F41
(1530386562.331335) can0 083#05CC000000010F5D
(1530386562.342509) can0 073#05CC000000000000
(1530386562.347986) can0 093#05CC000000310F41
(1530386562.351274) can0 083#05CC000000010F5D
(1530386562.362433) can0 073#05CC000000000F68
(1530386562.367978) can0 093#05CC000000310F41
(1530386562.371298) can0 083#05CC000000010F5D
(1530386562.382488) can0 073#05CC000000000F68
(1530386562.388013) can0 093#05CC000000310F41
(1530386562.391360) can0 083#05CC000000000000
(1530386562.402480) can0 073#05CC000000000F68
(1530386562.408126) can0 093#05CC000000068C08
(1530386562.411346) can0 083#05CC000000010F5D
(1530386562.422451) can0 073#05CC000000000F68
(1530386562.427995) can0 093#05CC000000050F41
(1530386562.431361) can0 083#05CC000000010F5D
(1530386562.442491) can0 073#05CC00000009AD00
(1530386562.448021) can0 093#05CC000000050F41
(1530386562.451355) can0 083#05CC000000010F5D
(1530386562.462404) can0 073#05CC000000D20F68
(1530386562.468077) can0 093#05CC000000BF0000
(1530386562.471421) can0 083#05CC000000010F5D
(1530386562.482446) can0 073#05CC000000D20F68
(1530386562.488224) can0 093#05CC000000010F41
(1530386562.491518) can0 083#05CC000000000000
(1530386562.502431) can0 073#05CC000000D20F68
(1530386562.508104) can0 093#05CC000000FB0802
(1530386562.511406) can0 083#05CC0000000F0F5D
(1530386562.522469) can0 073#05CC000000D20F68
(1530386562.528069) can0 093#05CC000000CC0F41
(1530386562.531318) can0 083#05CC0000000F0F5D
(1530386562.542474) can0 073#05CC00000000068C
(1530386562.548088) can0 093#05CC000000CC0F41
(1530386562.551461) can0 083#05CC0000000F0F5D
(1530386562.562415) can0 073#05CC000000D20F68
(1530386562.568128) can0 093#05CC00000000068C
(1530386562.571402) can0 083#05CC0000000F0F5D
(1530386562.582345) can0 073#05CC000000D20F68
(1530386562.588156) can0 093#05CC000000D20F41
(1530386562.591395) can0 083#05CC0000000F0F5D
(1530386562.602380) can0 073#05CC000000D20F68
(1530386562.608363) can0 093#05CC000000D20F41
(1530386562.611391) can0 083#05CC000000B78400
(1530386562.622418) can0 073#05CC000000D20F68
(1530386562.628190) can0 093#05CC000000D20F41
(1530386562.631367) can0 083#05CC000000ED0F5D
(1530386562.642456) can0 073#05CC000000000000
(1530386562.648252) can0 093#05CC000000D20F41
(1530386562.651437) can0 083#05CC000000ED0F5D
(1530386562.662397) can0 073#05CC000000000F68
(1530386562.668272) can0 093#05CC00000008E009
(1530386562.671429) can0 083#05CC000000ED0F5D
(1530386562.682375) can0 073#05CC000000000F68
(1530386562.688260) can0 093#05CC000000C50F41
(1530386562.691623) can0 083#05CC000000ED0F5D
(1530386562.702343) can0 073#05CC000000000000
(1530386562.708438) can0 093#05CC000000C50F41
(1530386562.711388) can0 083#05CC000000ED0802
